#  HZ   S   DB   R     50.00 
! Rohde & Schwarz Vector Network Analyzer 
! Rohde-Schwarz,ZNB8-4Port,1311601044102961,2.82
! Created: UTC 3/4/2022, 4:06:39 PM
! freq[Hz]                db:S11                  ang:S11                 db:S21                  ang:S21                 db:S12                  ang:S12                 db:S22                  ang:S22
 1.000000000000000E9    -4.240545596475880E1    -1.705315192364860E1    -1.591908929389965E-1    1.065153945796587E2    -1.457003529871467E-1    1.065137429784490E2    -4.850468784136510E1    -1.482717968549222E1
 1.001000000000000E9    -4.353364814849385E1    -1.949092596339046E1    -1.580075518962957E-1    1.058531106260347E2    -1.475732714896723E-1    1.058923861097604E2    -4.960512145165298E1    -2.919783517104620E1
 1.002000000000000E9    -4.402452313692736E1    -2.070358123534261E1    -1.548687936093550E-1    1.052886872464342E2    -1.445519328303438E-1    1.052845141418129E2    -5.086920701153818E1    -2.911334593619084E1
 1.003000000000000E9    -4.528232173423324E1    -3.042896479622483E1    -1.553510740706229E-1    1.046627079930869E2    -1.463589401774393E-1    1.046560079638171E2    -5.057042780421388E1    -4.159142742193748E1
 1.004000000000000E9    -4.548035008603827E1    -3.885413741077078E1    -1.526838561683734E-1    1.040564129611213E2    -1.450671562510502E-1    1.040247826071500E2    -5.141412481371987E1    -6.892409741500043E1
 1.005000000000000E9    -4.592857887544533E1    -4.540408296345584E1    -1.561415250166637E-1    1.034456179912155E2    -1.433248857084077E-1    1.034601952484964E2    -5.148817557099309E1    -7.973872554669484E1
 1.006000000000000E9    -4.670439721517695E1    -4.830078714627521E1    -1.591285783200824E-1    1.028178524540037E2    -1.449346290878282E-1    1.027901525497912E2    -5.201225797580574E1    -9.313514524668582E1
 1.007000000000000E9    -4.820576635295123E1    -5.882814936369667E1    -1.606979209540367E-1    1.021545902340071E2    -1.459259115422253E-1    1.021960917700244E2    -4.945431518097563E1    -1.096344459368329E2
 1.008000000000000E9    -4.763244171537392E1    -6.083405613566763E1    -1.551530701199990E-1    1.015658138222341E2    -1.466621988508259E-1    1.015652579833238E2    -4.956814571564734E1    -1.170266486860028E2
 1.009000000000000E9    -4.883484395903387E1    -8.254733549802033E1    -1.532443911798770E-1    1.009946052335455E2    -1.484583981309134E-1    1.009488963947397E2    -4.872472992556066E1    -1.262473473171692E2
 1.010000000000000E9    -4.775905877177007E1    -8.416692797964052E1    -1.664995824419062E-1    1.003147046616152E2    -1.460785875944880E-1    1.003550265163071E2    -4.677905543306902E1    -1.361892601489604E2
 1.011000000000000E9    -4.736614882180282E1    -1.004016042021717E2    -1.581051524578223E-1    9.973429930663745E1    -1.478475380382975E-1    9.972647576620290E1    -4.702358169245797E1    -1.427366308222703E2
 1.012000000000000E9    -4.706807522052642E1    -1.110673404698018E2    -1.607487420365476E-1    9.910557391700758E1    -1.474273931030642E-1    9.913748862687082E1    -4.517627346646624E1    -1.409106799423993E2
 1.013000000000000E9    -4.618306974705230E1    -1.218157650497793E2    -1.571247571597046E-1    9.845714848303588E1    -1.502016446025656E-1    9.848912088312513E1    -4.485614449812617E1    -1.487727269231459E2
 1.014000000000000E9    -4.579909607610202E1    -1.218351285422541E2    -1.540848943872949E-1    9.785594186236330E1    -1.546137076152072E-1    9.788114076864710E1    -4.436305825779422E1    -1.516074532728521E2
 1.015000000000000E9    -4.513849470214468E1    -1.289870200155754E2    -1.637248197436639E-1    9.726735217173692E1    -1.483507945012502E-1    9.726488068729874E1    -4.325489660251154E1    -1.546920613152199E2
 1.016000000000000E9    -4.393722399497147E1    -1.341538059969560E2    -1.598928802841792E-1    9.666593576238556E1    -1.446178153059998E-1    9.665550302379864E1    -4.283658106361323E1    -1.575860100604186E2
 1.017000000000000E9    -4.340113905686698E1    -1.341041496426409E2    -1.530258387294347E-1    9.601814866769092E1    -1.477584097606018E-1    9.605843621272385E1    -4.237056383256143E1    -1.558192184169935E2
 1.018000000000000E9    -4.240750831838763E1    -1.401925750696229E2    -1.577267234691219E-1    9.541891059984253E1    -1.459841039438995E-1    9.540755101940863E1    -4.104171029408939E1    -1.622753130623895E2
 1.019000000000000E9    -4.132518103459488E1    -1.461301250128950E2    -1.585798640527915E-1    9.478563596575758E1    -1.540053721149834E-1    9.483257545782949E1    -4.107342745465289E1    -1.619762047955126E2
 1.020000000000000E9    -4.103329542462614E1    -1.469753448337866E2    -1.537826814956361E-1    9.419859266078946E1    -1.463153367054764E-1    9.421672512498644E1    -4.013614021626468E1    -1.656613884778185E2
 1.021000000000000E9    -4.010292020112442E1    -1.520989688114339E2    -1.572663124313768E-1    9.357585825600901E1    -1.471233310065828E-1    9.357182048272119E1    -3.937843241773422E1    -1.695014631432096E2
 1.022000000000000E9    -4.049530821879311E1    -1.524156723580610E2    -1.589576263450541E-1    9.297986009944596E1    -1.484043981921789E-1    9.294432517067051E1    -3.943568592762003E1    -1.709753601755987E2
 1.023000000000000E9    -3.913803230442687E1    -1.545985397609379E2    -1.588710562919864E-1    9.232922676811417E1    -1.485472794036251E-1    9.236690452439100E1    -3.864290854921308E1    -1.703405462932972E2
 1.024000000000000E9    -3.869170559979153E1    -1.545018227937758E2    -1.664271639629226E-1    9.174326612775728E1    -1.557723005156787E-1    9.174065945569105E1    -3.785568601961588E1    -1.741271942463285E2
 1.025000000000000E9    -3.839114316885317E1    -1.567297175525910E2    -1.615847030270713E-1    9.113143452591879E1    -1.501516476875599E-1    9.108415288322308E1    -3.739797874714369E1    -1.750256662911955E2
 1.026000000000000E9    -3.767840907168232E1    -1.597874334801687E2    -1.590687338552214E-1    9.048221817940474E1    -1.490086039750471E-1    9.052559568184951E1    -3.727105877380697E1    -1.762735267853585E2
 1.027000000000000E9    -3.731688155384368E1    -1.593816083932062E2    -1.581543051828150E-1    8.986023645449818E1    -1.464140196501474E-1    8.986762632047891E1    -3.651727030757120E1    -1.773877900604256E2
 1.028000000000000E9    -3.700414137232430E1    -1.646412135443318E2    -1.636988224633164E-1    8.925263594434925E1    -1.466327666485250E-1    8.926700659659032E1    -3.632057927640908E1    -1.781949762595373E2
 1.029000000000000E9    -3.641217424509667E1    -1.641068923217334E2    -1.615112962561798E-1    8.864332846579876E1    -1.538883057768751E-1    8.866545872815058E1    -3.614175642094190E1     1.788870849533030E2
 1.030000000000000E9    -3.610690430850950E1    -1.645642790482549E2    -1.578601774896287E-1    8.802217186427890E1    -1.560525668662089E-1    8.805274152986321E1    -3.574598013808131E1    -1.792494609499713E2
 1.031000000000000E9    -3.558060331814641E1    -1.657882814527467E2    -1.632305509465890E-1    8.742812815770624E1    -1.535996534513081E-1    8.740375107280683E1    -3.509490306065220E1     1.773582479330484E2
 1.032000000000000E9    -3.498423991781019E1    -1.674373661792705E2    -1.608685781785673E-1    8.678594184295028E1    -1.503971256633991E-1    8.677926418899429E1    -3.505451591088031E1     1.759874725028551E2
 1.033000000000000E9    -3.478925967502293E1    -1.681306286311229E2    -1.628285984621538E-1    8.617488135451275E1    -1.520670188482944E-1    8.618935233228615E1    -3.453976854919313E1     1.763896838264321E2
 1.034000000000000E9    -3.431203029494798E1    -1.685846980005846E2    -1.623616823979502E-1    8.557616289286737E1    -1.533506702476120E-1    8.554925366512555E1    -3.404849499878297E1     1.746962962529200E2
 1.035000000000000E9    -3.384961910248957E1    -1.701762638431231E2    -1.594492679007397E-1    8.496003988037626E1    -1.519690048792912E-1    8.493791308250593E1    -3.371700446204579E1     1.729968485392223E2
 1.036000000000000E9    -3.371074691458448E1    -1.709261223417755E2    -1.660763041315347E-1    8.432702305394840E1    -1.543971086876506E-1    8.432486548015123E1    -3.326730500927225E1     1.733897014694827E2
 1.037000000000000E9    -3.344131822570410E1    -1.716081345722502E2    -1.621319843315011E-1    8.369287165175312E1    -1.496131402188776E-1    8.373581390986568E1    -3.322252018021587E1     1.726084437849500E2
 1.038000000000000E9    -3.293948424345940E1    -1.733731785482478E2    -1.646156306698066E-1    8.312898738920178E1    -1.572229633159843E-1    8.309135419312503E1    -3.270119234123948E1     1.706907316648275E2
 1.039000000000000E9    -3.277291868309887E1    -1.743208157685163E2    -1.641214462998080E-1    8.246759741635458E1    -1.550668694370302E-1    8.247670117486045E1    -3.256765249952063E1     1.701403680661888E2
 1.040000000000000E9    -3.248526932799116E1    -1.751441425031232E2    -1.650546800416514E-1    8.189354053022446E1    -1.557904588525663E-1    8.187732841361100E1    -3.222233144203209E1     1.701611617911580E2
 1.041000000000000E9    -3.223232003247803E1    -1.774724299905848E2    -1.663577107906235E-1    8.128880895833792E1    -1.512762682755455E-1    8.122419445580222E1    -3.185070177951393E1     1.687503771197148E2
 1.042000000000000E9    -3.191376182878036E1    -1.767491236057842E2    -1.623028249540774E-1    8.059601474867318E1    -1.548655631594793E-1    8.068786580838642E1    -3.177468093393240E1     1.682222684615254E2
 1.043000000000000E9    -3.162485176762577E1    -1.775252963753873E2    -1.628613256802997E-1    7.998889509226170E1    -1.566021523048586E-1    7.998521250433551E1    -3.145012063239394E1     1.665418229501051E2
 1.044000000000000E9    -3.119467840609165E1    -1.791504956826641E2    -1.654920025817066E-1    7.939540250754288E1    -1.553984836695738E-1    7.941784192186950E1    -3.100319776190559E1     1.663318781167109E2
 1.045000000000000E9    -3.118221568967095E1    -1.796913530627458E2    -1.646166158316728E-1    7.875163174890729E1    -1.619127518340268E-1    7.881453586024048E1    -3.100682570032774E1     1.658837347538432E2
 1.046000000000000E9    -3.082465973858490E1     1.799996201882079E2    -1.682377135769445E-1    7.815512080252938E1    -1.581118254373111E-1    7.820011216436498E1    -3.071182541507831E1     1.649101973372105E2
 1.047000000000000E9    -3.054640261269952E1     1.786339612926502E2    -1.606560515716627E-1    7.758216632525799E1    -1.553765743387342E-1    7.756051732671503E1    -3.042223326192830E1     1.642765768300432E2
 1.048000000000000E9    -3.045004622728968E1     1.783383170281615E2    -1.719867933029876E-1    7.697101680343049E1    -1.515590595468598E-1    7.694838780880070E1    -3.019689761297371E1     1.635867709325862E2
 1.049000000000000E9    -3.029450183251406E1     1.767085937452860E2    -1.635574508977631E-1    7.628659185389731E1    -1.552731241787775E-1    7.632318856911466E1    -3.009725205231988E1     1.631157458650089E2
 1.050000000000000E9    -2.990753784752027E1     1.758141254776383E2    -1.720904256709384E-1    7.568998294263309E1    -1.612672281162831E-1    7.565816496016991E1    -2.963910140109075E1     1.617827077464394E2
 1.051000000000000E9    -2.972685973315122E1     1.743786166952588E2    -1.708546885229981E-1    7.513123651610755E1    -1.550664695809527E-1    7.508849911585776E1    -2.952070367310295E1     1.611855463362886E2
 1.052000000000000E9    -2.948277003158351E1     1.742811937265852E2    -1.739357538627595E-1    7.451748330266328E1    -1.570788117207949E-1    7.447916401336921E1    -2.936385977850401E1     1.612885475353496E2
 1.053000000000000E9    -2.927672802941954E1     1.721878156261812E2    -1.632318504412994E-1    7.387987883709464E1    -1.601520683264500E-1    7.387117029065020E1    -2.897725587143412E1     1.609795772710205E2
 1.054000000000000E9    -2.911736613071570E1     1.717563453772780E2    -1.680843028865438E-1    7.325433831194938E1    -1.579034268548454E-1    7.328397367483487E1    -2.887120117456750E1     1.594706316057303E2
 1.055000000000000E9    -2.891994765885044E1     1.706493474167270E2    -1.665294636609940E-1    7.266896316636273E1    -1.652744187159131E-1    7.264314489691911E1    -2.866900191043888E1     1.597407385450480E2
 1.056000000000000E9    -2.871833461604341E1     1.692244748546046E2    -1.638330337998158E-1    7.204227532230888E1    -1.646403894734409E-1    7.202542790475738E1    -2.865803613153333E1     1.592196857781375E2
 1.057000000000000E9    -2.857819796881943E1     1.689356592693470E2    -1.735608800261518E-1    7.141545228483901E1    -1.635985042715319E-1    7.142076096149978E1    -2.835734286781154E1     1.582603459611792E2
 1.058000000000000E9    -2.836342866470432E1     1.680148885808827E2    -1.698392516533406E-1    7.078768318915635E1    -1.616517788563201E-1    7.078632241046368E1    -2.810230635674548E1     1.572151746922374E2
 1.059000000000000E9    -2.829277892206907E1     1.664230422787630E2    -1.703783225771839E-1    7.017885464129967E1    -1.609414740908792E-1    7.017971960520458E1    -2.795485389154209E1     1.571112431018749E2
 1.060000000000000E9    -2.800189215993639E1     1.662545873351749E2    -1.649920622031754E-1    6.954380153498786E1    -1.592017529928190E-1    6.959603700698544E1    -2.793655124049827E1     1.564773838931835E2
 1.061000000000000E9    -2.782351954155502E1     1.649628649507606E2    -1.658896390344390E-1    6.894605499576788E1    -1.646267613127787E-1    6.899022940423258E1    -2.761524178899116E1     1.556896241188715E2
 1.062000000000000E9    -2.765369422272591E1     1.648662459511497E2    -1.697971499966688E-1    6.832364773370522E1    -1.698212587736378E-1    6.836509552917418E1    -2.752322746358223E1     1.566492779499872E2
 1.063000000000000E9    -2.757020546554179E1     1.638251149012748E2    -1.709295413857384E-1    6.768600429203322E1    -1.601337139814056E-1    6.774421414752902E1    -2.738458801981194E1     1.547613900017986E2
 1.064000000000000E9    -2.740999433305748E1     1.631874334774659E2    -1.678767358867814E-1    6.708915050406185E1    -1.665588526628428E-1    6.711404804066261E1    -2.741124019729271E1     1.546756922730771E2
 1.065000000000000E9    -2.716627094260055E1     1.623892304789576E2    -1.749873500646516E-1    6.649771394705988E1    -1.645727752744463E-1    6.649096421433987E1    -2.701612970226877E1     1.544618854669247E2
 1.066000000000000E9    -2.704373854121383E1     1.611939404151573E2    -1.768330046833725E-1    6.586682415275642E1    -1.632132138431202E-1    6.586632256333689E1    -2.698994018836961E1     1.536762604806831E2
 1.067000000000000E9    -2.697046157775212E1     1.604425960464096E2    -1.705591295987400E-1    6.528006329187555E1    -1.625356305374989E-1    6.529924057149313E1    -2.680829590258587E1     1.529759689378545E2
 1.068000000000000E9    -2.685188776952501E1     1.594612445892233E2    -1.740219549660080E-1    6.464166942717543E1    -1.664607464234247E-1    6.463694695029609E1    -2.673421003923362E1     1.531122525962990E2
 1.069000000000000E9    -2.666054246677995E1     1.584423637081418E2    -1.736159491303243E-1    6.405221592838439E1    -1.655765923718585E-1    6.407704296965385E1    -2.654643811046494E1     1.522951158258920E2
 1.070000000000000E9    -2.655194460447032E1     1.581179764548655E2    -1.774619156594742E-1    6.339823216951243E1    -1.702886885858432E-1    6.345248557944628E1    -2.647844449668503E1     1.521262344468908E2
 1.071000000000000E9    -2.638830519540966E1     1.571179245429646E2    -1.788224455884933E-1    6.282954332820916E1    -1.629459785295922E-1    6.284661388001131E1    -2.637923416512922E1     1.513520743814719E2
 1.072000000000000E9    -2.627919291777767E1     1.558547019560359E2    -1.774637694774145E-1    6.217475772947565E1    -1.683505496130069E-1    6.219340902972868E1    -2.614646628414973E1     1.507510656347505E2
 1.073000000000000E9    -2.621579991862892E1     1.550021328021135E2    -1.818760454410698E-1    6.157915884809175E1    -1.679713098455376E-1    6.160744975520360E1    -2.607933951296467E1     1.502749276774786E2
 1.074000000000000E9    -2.602954576623358E1     1.543243962611565E2    -1.721647105631715E-1    6.099347434038941E1    -1.677338189499707E-1    6.095669423104418E1    -2.603405242776928E1     1.496733365859024E2
 1.075000000000000E9    -2.590978007954615E1     1.534599156741836E2    -1.800802108829542E-1    6.037423392675013E1    -1.698221495521048E-1    6.036065747856341E1    -2.583290189036979E1     1.495375466281631E2
 1.076000000000000E9    -2.581755181981911E1     1.531905878491954E2    -1.787653176869939E-1    5.972952526791982E1    -1.678494847527753E-1    5.974820333971272E1    -2.580847711435240E1     1.489611272106404E2
 1.077000000000000E9    -2.567518620647123E1     1.522625824554870E2    -1.785164599123587E-1    5.913941347488168E1    -1.661787319710945E-1    5.916015145733783E1    -2.564878661766725E1     1.481694336558265E2
 1.078000000000000E9    -2.568615320463697E1     1.508270850411333E2    -1.747981570579773E-1    5.853148669386737E1    -1.679045183762477E-1    5.851590702466371E1    -2.560401910706099E1     1.479698341189032E2
 1.079000000000000E9    -2.559916865776124E1     1.508504158527280E2    -1.836655694917905E-1    5.791381140420412E1    -1.713811500697954E-1    5.791016905621925E1    -2.550788234494395E1     1.476497212333836E2
 1.080000000000000E9    -2.537026804122133E1     1.501906357776860E2    -1.794069966076526E-1    5.726835240148799E1    -1.655521374163506E-1    5.725859827234627E1    -2.531434214845774E1     1.469079031088897E2
 1.081000000000000E9    -2.533500803166646E1     1.491229413446191E2    -1.806524596696432E-1    5.665714306362795E1    -1.767507480221418E-1    5.669368422842631E1    -2.536711181665628E1     1.459332210355731E2
 1.082000000000000E9    -2.533285549427034E1     1.484708575062807E2    -1.779409487581198E-1    5.604299916433253E1    -1.742977517571288E-1    5.606906430999587E1    -2.528322945416506E1     1.463199378045304E2
 1.083000000000000E9    -2.513465616485660E1     1.475675897953860E2    -1.765748469252621E-1    5.547541114457444E1    -1.669175417624633E-1    5.547685594820787E1    -2.512916783416091E1     1.449324498383338E2
 1.084000000000000E9    -2.499724099131178E1     1.468621666564508E2    -1.761323215500442E-1    5.481035857691575E1    -1.722041883095136E-1    5.482749157397879E1    -2.506493940218864E1     1.444536987764940E2
 1.085000000000000E9    -2.493456627898411E1     1.460400680970540E2    -1.783411053557917E-1    5.421318122489647E1    -1.782301353849503E-1    5.422493363187330E1    -2.500745906154485E1     1.436013199160232E2
 1.086000000000000E9    -2.482220634328424E1     1.451698655031257E2    -1.767072457425462E-1    5.361279159547779E1    -1.708769158360376E-1    5.362631992470708E1    -2.486772131638253E1     1.429197431039803E2
 1.087000000000000E9    -2.479227719452862E1     1.453545880266148E2    -1.709830582991367E-1    5.297960161244724E1    -1.733306137071393E-1    5.301242836695938E1    -2.483979433505025E1     1.426107117908269E2
 1.088000000000000E9    -2.465338985546230E1     1.438907457247825E2    -1.760327474823591E-1    5.235754800033320E1    -1.725075224762043E-1    5.236415157994780E1    -2.473595304234810E1     1.422310639977732E2
 1.089000000000000E9    -2.465526466851357E1     1.425917637565201E2    -1.757214457273482E-1    5.180241069419407E1    -1.719097584382809E-1    5.175764187051403E1    -2.468590284193485E1     1.417789771595628E2
 1.090000000000000E9    -2.458022095872605E1     1.427982805896286E2    -1.831048458665244E-1    5.114175069206608E1    -1.715087900363182E-1    5.117416105151282E1    -2.456512639554719E1     1.417991449347767E2
 1.091000000000000E9    -2.443392447416832E1     1.418203316563341E2    -1.848367427156378E-1    5.050624401305138E1    -1.772134442144078E-1    5.055203827963606E1    -2.447716258664496E1     1.405663612955904E2
