#  HZ   S   DB   R     50.00 
! Rohde & Schwarz Vector Network Analyzer 
! Rohde-Schwarz,ZNB8-4Port,1311601044102961,2.82
! Created: UTC 3/4/2022, 4:04:18 PM
! freq[Hz]                db:S11                  ang:S11                 db:S21                  ang:S21                 db:S12                  ang:S12                 db:S22                  ang:S22
 1.000000000000000E9    -2.238857608042072E1     1.056701838670811E2    -1.477054351812481E-1   -1.632647142239011E2    -1.396509918197627E-1   -1.632831901584495E2    -2.281124739062330E1     1.062891987008212E2
 1.001000000000000E9    -2.241301500226233E1     1.056924648819206E2    -1.564956850029606E-1   -1.637881854345355E2    -1.465911733207151E-1   -1.637733535694176E2    -2.284391679346199E1     1.052040250631573E2
 1.002000000000000E9    -2.240774026560585E1     1.047368983280123E2    -1.530802262843661E-1   -1.643305980632179E2    -1.451935585195661E-1   -1.643126416835139E2    -2.283846333256923E1     1.048518991596943E2
 1.003000000000000E9    -2.245931412542479E1     1.044121636012559E2    -1.558949297731468E-1   -1.648124237105441E2    -1.413560172347154E-1   -1.648309848359614E2    -2.279278680056856E1     1.043073850951831E2
 1.004000000000000E9    -2.238497196568455E1     1.038310895342187E2    -1.577759767271266E-1   -1.653624216097558E2    -1.408132914727467E-1   -1.653687159713045E2    -2.282038508021682E1     1.037677860329126E2
 1.005000000000000E9    -2.245802142892673E1     1.035715824515540E2    -1.545188604316400E-1   -1.658429292105458E2    -1.425476482809705E-1   -1.658741828061563E2    -2.284596234752348E1     1.028386583478018E2
 1.006000000000000E9    -2.242504194821311E1     1.029140785855826E2    -1.551805755203452E-1   -1.663859912337617E2    -1.473594629825221E-1   -1.664073182176349E2    -2.276789514004875E1     1.027250418560583E2
 1.007000000000000E9    -2.247295398162090E1     1.027202043898883E2    -1.529441947935256E-1   -1.668793894365076E2    -1.450873286600601E-1   -1.669105027492346E2    -2.284870558411316E1     1.015935289195127E2
 1.008000000000000E9    -2.242358317623165E1     1.022082898765629E2    -1.619090955881148E-1   -1.674456862056971E2    -1.418466047169599E-1   -1.674135173172691E2    -2.285953765239544E1     1.011297520365439E2
 1.009000000000000E9    -2.249423095665591E1     1.014001918225055E2    -1.486499560437012E-1   -1.679373934598559E2    -1.453382887825113E-1   -1.679852908590360E2    -2.284348661749279E1     1.007997909324803E2
 1.010000000000000E9    -2.239228537295155E1     1.012130833146833E2    -1.587420681029908E-1   -1.684876963065601E2    -1.424979795575285E-1   -1.684659944354927E2    -2.284978618632055E1     9.978375371797272E1
 1.011000000000000E9    -2.244239332435063E1     1.006611313197742E2    -1.569163660427315E-1   -1.690150396936335E2    -1.425463223946509E-1   -1.690049824725486E2    -2.286974496560333E1     9.911956473311031E1
 1.012000000000000E9    -2.245874205147086E1     9.996334497131610E1    -1.574068799852205E-1   -1.695180677931387E2    -1.460077295362256E-1   -1.695248592161554E2    -2.277212500959261E1     9.907969475325480E1
 1.013000000000000E9    -2.250168212794407E1     9.965269134410880E1    -1.524447195580433E-1   -1.700688233236900E2    -1.435401037099532E-1   -1.700296006987800E2    -2.279563705688890E1     9.795324478731951E1
 1.014000000000000E9    -2.243355168486844E1     9.948487794961262E1    -1.543327534723815E-1   -1.705600025322934E2    -1.460658691210439E-1   -1.705832442410723E2    -2.286391958416925E1     9.725519029504891E1
 1.015000000000000E9    -2.239111226965371E1     9.879437832999827E1    -1.610157937941001E-1   -1.710905247183016E2    -1.442275338039724E-1   -1.710681419862317E2    -2.285664956918490E1     9.679438410895567E1
 1.016000000000000E9    -2.245623484043260E1     9.822719176386302E1    -1.513884121410094E-1   -1.716015413769623E2    -1.481303868932342E-1   -1.716415471799357E2    -2.281583452236494E1     9.605252546679060E1
 1.017000000000000E9    -2.240299864570953E1     9.818902664823112E1    -1.550393596956713E-1   -1.721746764542026E2    -1.453128742827288E-1   -1.721569496674805E2    -2.282042792773861E1     9.563762731323890E1
 1.018000000000000E9    -2.242610136125965E1     9.736244259025985E1    -1.586978288206591E-1   -1.726225566094360E2    -1.471020175615556E-1   -1.726523154836112E2    -2.286023142589934E1     9.526067864834832E1
 1.019000000000000E9    -2.243712644691193E1     9.659492377198744E1    -1.539687411510830E-1   -1.732319036288633E2    -1.504521725916911E-1   -1.732165081204624E2    -2.283675277494855E1     9.446674373753417E1
 1.020000000000000E9    -2.252228802140832E1     9.599109556462548E1    -1.597893613179700E-1   -1.737440292642596E2    -1.476632823946349E-1   -1.736932464990559E2    -2.281908393447946E1     9.380373994722181E1
 1.021000000000000E9    -2.245492923531985E1     9.542966514032628E1    -1.508275130483245E-1   -1.742566791159396E2    -1.419312585587103E-1   -1.742247015397222E2    -2.283725164095130E1     9.313040360305909E1
 1.022000000000000E9    -2.244792133703149E1     9.560231961481685E1    -1.595572321943051E-1   -1.747689890955271E2    -1.480326376040208E-1   -1.747722593580362E2    -2.277119305830335E1     9.282056373112368E1
 1.023000000000000E9    -2.244030088647028E1     9.494768494257400E1    -1.582871038026218E-1   -1.752927250164127E2    -1.479651937883711E-1   -1.752425241231960E2    -2.282142658931756E1     9.251293729109423E1
 1.024000000000000E9    -2.246462950853199E1     9.421936272664409E1    -1.551036865376304E-1   -1.757735825933645E2    -1.458273096372620E-1   -1.758060070727722E2    -2.281300155927769E1     9.164151993957286E1
 1.025000000000000E9    -2.247007753392520E1     9.394269195496460E1    -1.569254723561000E-1   -1.763356588542393E2    -1.441569480552392E-1   -1.763069628873894E2    -2.283347112956515E1     9.060680031807061E1
 1.026000000000000E9    -2.246799748851986E1     9.371064832335235E1    -1.560603063206697E-1   -1.768875678180177E2    -1.411587810981323E-1   -1.768144407931333E2    -2.278731434932465E1     9.015893055056336E1
 1.027000000000000E9    -2.244676297568419E1     9.294444312654234E1    -1.519592556719234E-1   -1.774427568238108E2    -1.420787399476657E-1   -1.773887743583946E2    -2.279565344547245E1     8.930807059527132E1
 1.028000000000000E9    -2.249085224412830E1     9.270166670523673E1    -1.554611255199482E-1   -1.779115227802774E2    -1.385034109370771E-1   -1.778853179176359E2    -2.278192344296802E1     8.915787211711842E1
 1.029000000000000E9    -2.244614780351026E1     9.164455423923707E1    -1.585727359320192E-1   -1.784085777590688E2    -1.482837155196550E-1   -1.783914574514779E2    -2.284919294061444E1     8.906269782352729E1
 1.030000000000000E9    -2.251761055767785E1     9.135797571864214E1    -1.606781014581138E-1   -1.789393161288743E2    -1.428375096113839E-1   -1.789348272890086E2    -2.276341816490346E1     8.786850152151628E1
 1.031000000000000E9    -2.245063980349850E1     9.091831017759779E1    -1.549040679959128E-1   -1.794823668939492E2    -1.502936584748089E-1   -1.794815869589435E2    -2.284168563728207E1     8.727225054762522E1
 1.032000000000000E9    -2.249391064918284E1     8.958628178992356E1    -1.591106419840832E-1   -1.799807119707123E2    -1.485840178203267E-1   -1.799914965892407E2    -2.285958822910128E1     8.741724225658038E1
 1.033000000000000E9    -2.242737170033884E1     8.915350693716461E1    -1.633199566502783E-1    1.794939831920484E2    -1.502896256180574E-1    1.795091221943527E2    -2.275735341671111E1     8.674370739374795E1
 1.034000000000000E9    -2.250506576954427E1     8.855019138586090E1    -1.625619878805137E-1    1.789998856006579E2    -1.525810068994166E-1    1.789639615939095E2    -2.280053531927695E1     8.575243916669872E1
 1.035000000000000E9    -2.248390850744209E1     8.798904763038419E1    -1.552626267194776E-1    1.783946896081452E2    -1.515887162151859E-1    1.784579876670798E2    -2.283411224943220E1     8.583458373603865E1
 1.036000000000000E9    -2.250600095246646E1     8.801001274935496E1    -1.598572885979639E-1    1.779056867991633E2    -1.454254126143078E-1    1.779105288687921E2    -2.288184035722833E1     8.492602924810754E1
 1.037000000000000E9    -2.247793548996043E1     8.744029455092803E1    -1.612323142453334E-1    1.773783248566413E2    -1.484260832454872E-1    1.773892450669488E2    -2.282364201913402E1     8.455244707011532E1
 1.038000000000000E9    -2.250343195931596E1     8.656645509857314E1    -1.558903746126047E-1    1.768657673429568E2    -1.389320643526905E-1    1.768908075761116E2    -2.285347430148003E1     8.400017890926993E1
 1.039000000000000E9    -2.252569980654027E1     8.604284290157234E1    -1.560813319122491E-1    1.763453391421023E2    -1.454736941206664E-1    1.763911318642962E2    -2.285722161727019E1     8.411726926410250E1
 1.040000000000000E9    -2.248230264584235E1     8.551245508323000E1    -1.496040775270746E-1    1.758389585193075E2    -1.443497263888459E-1    1.758478999198879E2    -2.276585880952871E1     8.337370704307904E1
 1.041000000000000E9    -2.255780058930890E1     8.489415300773500E1    -1.601611062789606E-1    1.753052920698739E2    -1.465607372222047E-1    1.753215721522101E2    -2.283231828788277E1     8.272043480183071E1
 1.042000000000000E9    -2.261253803618505E1     8.417132060841729E1    -1.568327851175288E-1    1.747698546764874E2    -1.459823856786927E-1    1.747946611230699E2    -2.285407015623204E1     8.197804625028051E1
 1.043000000000000E9    -2.250974431203649E1     8.338057321849435E1    -1.555695154196942E-1    1.742755313154347E2    -1.503361263427328E-1    1.742115687979074E2    -2.290358219364561E1     8.187005085416773E1
 1.044000000000000E9    -2.256271757222849E1     8.263404270848795E1    -1.532586902894026E-1    1.737289938350863E2    -1.522628177834405E-1    1.737692480804765E2    -2.288285424332812E1     8.107944505456203E1
 1.045000000000000E9    -2.259796632877243E1     8.268362741736583E1    -1.519726154122416E-1    1.732140568559304E2    -1.515910917331381E-1    1.732242368540643E2    -2.287865734224736E1     8.061164010286107E1
 1.046000000000000E9    -2.259345587038077E1     8.178375488920845E1    -1.561919684412373E-1    1.726927053682432E2    -1.450649388550336E-1    1.727138042710992E2    -2.296160702331575E1     8.021465535279354E1
 1.047000000000000E9    -2.258356680438299E1     8.107630621046842E1    -1.581694708997798E-1    1.722013322181282E2    -1.459881071651642E-1    1.721542994995585E2    -2.300261240672248E1     7.956856533509604E1
 1.048000000000000E9    -2.265085471268159E1     8.049406033180286E1    -1.555945856202796E-1    1.716585984050142E2    -1.473276533102984E-1    1.716630836739068E2    -2.293138365881967E1     7.919099074076100E1
 1.049000000000000E9    -2.264349099249533E1     8.021196170999977E1    -1.519632071972269E-1    1.711106806450152E2    -1.501695998215909E-1    1.711508523572836E2    -2.295397348411126E1     7.899242120734488E1
 1.050000000000000E9    -2.264893795078676E1     7.894304814827341E1    -1.526796940343871E-1    1.706151460047582E2    -1.492218666616696E-1    1.705803226295973E2    -2.299732232164975E1     7.838989844793423E1
 1.051000000000000E9    -2.268937997642906E1     7.873953167362171E1    -1.550559037142441E-1    1.700792161214703E2    -1.461299727969495E-1    1.700888386926039E2    -2.304530133808709E1     7.809096702035853E1
 1.052000000000000E9    -2.273745187251430E1     7.793659719975490E1    -1.601715541490617E-1    1.695478849453921E2    -1.463425787366497E-1    1.695555237121478E2    -2.296098729030776E1     7.747487323833551E1
 1.053000000000000E9    -2.271472445285200E1     7.720471331724504E1    -1.556690126510207E-1    1.690573106211268E2    -1.452396471713225E-1    1.690498255570044E2    -2.300598997703821E1     7.688029545744776E1
 1.054000000000000E9    -2.269250450882811E1     7.678854866057870E1    -1.535971160171977E-1    1.685474242629521E2    -1.463602279734127E-1    1.685086413901481E2    -2.310689648333683E1     7.666487461108552E1
 1.055000000000000E9    -2.281902687942433E1     7.606907613152364E1    -1.588133015055699E-1    1.679763756238660E2    -1.500315928788929E-1    1.680353395903098E2    -2.303299484130296E1     7.585471166558970E1
 1.056000000000000E9    -2.282569164129436E1     7.585650019107601E1    -1.583602788616890E-1    1.674700669227269E2    -1.538182716544580E-1    1.674766261053696E2    -2.309396694403198E1     7.632835457835652E1
 1.057000000000000E9    -2.286841887851998E1     7.483350475969479E1    -1.558238959935920E-1    1.669642932257542E2    -1.465914788949053E-1    1.669615044566291E2    -2.320520238374641E1     7.541107287227301E1
 1.058000000000000E9    -2.293568875913055E1     7.401347432759158E1    -1.592900065303541E-1    1.664414368998618E2    -1.493407614578168E-1    1.664403360624870E2    -2.324541558144830E1     7.501968173863212E1
 1.059000000000000E9    -2.293177315703684E1     7.370879495233206E1    -1.499564009651838E-1    1.658902382716053E2    -1.494910140226227E-1    1.659166026223804E2    -2.324356493384055E1     7.422993409217079E1
 1.060000000000000E9    -2.294522712094553E1     7.260639308569863E1    -1.512886477066284E-1    1.653848525112995E2    -1.473818190821264E-1    1.653980122901521E2    -2.323791485707597E1     7.414291128903449E1
 1.061000000000000E9    -2.304026254236121E1     7.269686809315128E1    -1.517942965132324E-1    1.648890259525773E2    -1.504741499502424E-1    1.648839518464652E2    -2.330247652731343E1     7.377681094802772E1
 1.062000000000000E9    -2.305191679946310E1     7.166353648375370E1    -1.541370897831040E-1    1.643279806931904E2    -1.488743104317167E-1    1.643466963962375E2    -2.328095777586110E1     7.327627394129701E1
 1.063000000000000E9    -2.306525199875454E1     7.114148942721603E1    -1.579553143435841E-1    1.637788474180723E2    -1.462629917922022E-1    1.638162482028065E2    -2.337787652717107E1     7.232617578734896E1
 1.064000000000000E9    -2.308427846784753E1     7.063819133039900E1    -1.515152899042541E-1    1.632901736840269E2    -1.499908648415812E-1    1.633385900628780E2    -2.344096917543173E1     7.289779965764247E1
 1.065000000000000E9    -2.311009229522809E1     6.985338129250876E1    -1.508293558685002E-1    1.627547053416972E2    -1.448648743414535E-1    1.627895163022830E2    -2.347544585526837E1     7.159350260361688E1
 1.066000000000000E9    -2.317529441162724E1     6.906687384486992E1    -1.507703771023128E-1    1.622416735607386E2    -1.431315616028548E-1    1.622657297598933E2    -2.351801223256659E1     7.141274511823622E1
 1.067000000000000E9    -2.321376016128907E1     6.872802579960172E1    -1.514226587151812E-1    1.617330343380060E2    -1.459026096032249E-1    1.617319001979255E2    -2.354282293581855E1     7.071078954102276E1
 1.068000000000000E9    -2.329072145085763E1     6.803193567690602E1    -1.587697017309769E-1    1.612110077365993E2    -1.417398198700076E-1    1.612243290533047E2    -2.353717669712389E1     7.036460382979701E1
 1.069000000000000E9    -2.336336581198734E1     6.744904457145201E1    -1.537489017091009E-1    1.606837830108741E2    -1.444602876235515E-1    1.607273808813273E2    -2.359224314724103E1     7.012955388546375E1
 1.070000000000000E9    -2.330715457464601E1     6.700994170875264E1    -1.547895141731862E-1    1.601913855338925E2    -1.501281651708112E-1    1.602225657741294E2    -2.373506995235310E1     6.927001433699088E1
 1.071000000000000E9    -2.337158591940186E1     6.659113662675243E1    -1.539058765642566E-1    1.596488151818616E2    -1.483980083207006E-1    1.596659571237711E2    -2.377829856403668E1     6.927912224403129E1
 1.072000000000000E9    -2.347163072029831E1     6.581218139675065E1    -1.571780035619184E-1    1.590823672702451E2    -1.445336604226522E-1    1.591151128407828E2    -2.372226401065909E1     6.833828974676550E1
 1.073000000000000E9    -2.345350630913434E1     6.509725849115792E1    -1.514801198358516E-1    1.586047336590614E2    -1.438441861353454E-1    1.586312860985725E2    -2.382942930737649E1     6.819067499730494E1
 1.074000000000000E9    -2.358652768875486E1     6.473279638321264E1    -1.571155161763735E-1    1.581044227312688E2    -1.486516967593363E-1    1.580934524168435E2    -2.388421102718169E1     6.710388933419944E1
 1.075000000000000E9    -2.365499743470814E1     6.392998747995022E1    -1.536629529765097E-1    1.575728857158767E2    -1.444721149298426E-1    1.575660619770565E2    -2.396367722103890E1     6.678881971044648E1
 1.076000000000000E9    -2.365577441963651E1     6.321190589487439E1    -1.544169823273102E-1    1.570078965029686E2    -1.439322509618920E-1    1.570185562038821E2    -2.394111313812435E1     6.661838019513849E1
 1.077000000000000E9    -2.370496695835936E1     6.280823842619310E1    -1.542706219442073E-1    1.565320730923725E2    -1.428735602361464E-1    1.565093734125407E2    -2.407842466495897E1     6.564112280430925E1
 1.078000000000000E9    -2.381239485836431E1     6.288578302994610E1    -1.462163167614420E-1    1.560045434799287E2    -1.443222935315136E-1    1.559849305492474E2    -2.406435532719009E1     6.539277876446116E1
 1.079000000000000E9    -2.383212988469667E1     6.195083065232271E1    -1.554088717606153E-1    1.554582381020062E2    -1.407373432263898E-1    1.554309138862567E2    -2.411001764978391E1     6.456149431481138E1
 1.080000000000000E9    -2.390563050553662E1     6.138186776104274E1    -1.529733321927938E-1    1.549874479139386E2    -1.423648794925165E-1    1.549748707678675E2    -2.423305204420606E1     6.383447245014745E1
 1.081000000000000E9    -2.391943961115403E1     6.037629092251849E1    -1.551692429113322E-1    1.544332286023245E2    -1.472858968048901E-1    1.544310345881358E2    -2.431192172625135E1     6.399701038854847E1
 1.082000000000000E9    -2.398193244175398E1     6.038542030591039E1    -1.592678559412313E-1    1.539129179876842E2    -1.510014061481690E-1    1.539246058968004E2    -2.428226684463693E1     6.344564731471689E1
 1.083000000000000E9    -2.408146275695671E1     5.974398539846401E1    -1.480240392219936E-1    1.533757201912430E2    -1.493798797524514E-1    1.534032994965787E2    -2.447783464395857E1     6.191860120829304E1
 1.084000000000000E9    -2.408389280151340E1     5.909142944903868E1    -1.535059196615539E-1    1.528432122257813E2    -1.450565420702047E-1    1.528296530744191E2    -2.444142654219851E1     6.149148599436120E1
 1.085000000000000E9    -2.411470347438665E1     5.893350918479984E1    -1.500272040684315E-1    1.523161986301431E2    -1.489666461248808E-1    1.523884849207961E2    -2.457572267432668E1     6.133617829156331E1
 1.086000000000000E9    -2.427979535693346E1     5.788041959863163E1    -1.538373816233830E-1    1.518154886053129E2    -1.420024216365872E-1    1.517811071513125E2    -2.451808177666676E1     6.084904429816450E1
 1.087000000000000E9    -2.422146748649492E1     5.734959591061709E1    -1.490105124776476E-1    1.512702310115840E2    -1.421489287045580E-1    1.512437313716446E2    -2.460308227950348E1     5.977840535226246E1
 1.088000000000000E9    -2.424858893401952E1     5.701492551535456E1    -1.514435322605946E-1    1.507496627687534E2    -1.439279744151482E-1    1.507786820350129E2    -2.484402186090087E1     5.967482354843501E1
 1.089000000000000E9    -2.443295723432097E1     5.689484113592685E1    -1.468691593675250E-1    1.502356708400595E2    -1.404841108546062E-1    1.502167377182443E2    -2.473019146681052E1     5.884603218010658E1
 1.090000000000000E9    -2.446852265977237E1     5.612080304799280E1    -1.541932895513410E-1    1.497423095634844E2    -1.399103719581796E-1    1.497168295086340E2    -2.472779497113402E1     5.769121475667183E1
 1.091000000000000E9    -2.455274539652272E1     5.549949278184003E1    -1.495641673800873E-1    1.492087683303082E2    -1.428103785779841E-1    1.491868269587988E2    -2.487070236262593E1     5.732306906398581E1
