#  HZ   S   DB   R     50.00 
! Rohde & Schwarz Vector Network Analyzer 
! Rohde-Schwarz,ZNB8-4Port,1311601044102961,2.82
! Created: UTC 3/4/2022, 4:05:54 PM
! freq[Hz]                db:S11                  ang:S11                 db:S21                  ang:S21                 db:S12                  ang:S12                 db:S22                  ang:S22
 1.000000000000000E9    -2.646296072578369E1     4.099734164762607E1    -1.548055260862133E-1    1.368068366999422E2    -1.411183998170002E-1    1.367998157163503E2    -2.700322644553555E1     4.337376964261853E1
 1.001000000000000E9    -2.651317794021457E1     4.088901764928754E1    -1.533813604560050E-1    1.361760586102064E2    -1.434112172360189E-1    1.362262457589364E2    -2.710214309878051E1     4.195545681043835E1
 1.002000000000000E9    -2.667306636903277E1     4.015228301164294E1    -1.563996603497367E-1    1.356386628538962E2    -1.434797969360619E-1    1.356535211102425E2    -2.726811948994687E1     4.247563222581027E1
 1.003000000000000E9    -2.681152872298354E1     3.971655096797820E1    -1.517406846420727E-1    1.350463852109967E2    -1.435331704518402E-1    1.350588540859140E2    -2.728037815547690E1     4.139327895440266E1
 1.004000000000000E9    -2.682732051909671E1     3.835885162338911E1    -1.519889602044930E-1    1.344772478614815E2    -1.386922994702358E-1    1.344609846320594E2    -2.756649149806724E1     3.999358697657740E1
 1.005000000000000E9    -2.702110501188445E1     3.804579522052845E1    -1.526363087026346E-1    1.338794083327553E2    -1.412585371277188E-1    1.338979871302066E2    -2.755495087366129E1     3.958085280700999E1
 1.006000000000000E9    -2.709429436259459E1     3.707698426330021E1    -1.498112416277234E-1    1.333070090074282E2    -1.441130087904053E-1    1.333285814929766E2    -2.766656921997130E1     3.833112302847194E1
 1.007000000000000E9    -2.724950029162577E1     3.731357153052387E1    -1.533526586110036E-1    1.327060769118426E2    -1.446765267371440E-1    1.327161022057325E2    -2.793119898342070E1     3.822006843402582E1
 1.008000000000000E9    -2.729694692974558E1     3.664146470340817E1    -1.572925571487708E-1    1.321155435284156E2    -1.385288858599908E-1    1.321466255986697E2    -2.789836362579871E1     3.748457685448481E1
 1.009000000000000E9    -2.753590260638210E1     3.611376938598571E1    -1.468607664597009E-1    1.315518000213965E2    -1.433867092154446E-1    1.315357000561204E2    -2.802825672156522E1     3.697784907283006E1
 1.010000000000000E9    -2.750928076956853E1     3.540504000626301E1    -1.466065759998542E-1    1.309729617376369E2    -1.451889195171445E-1    1.309617513528017E2    -2.816389447593723E1     3.573325061783705E1
 1.011000000000000E9    -2.760964905571461E1     3.454029822922014E1    -1.549256890945641E-1    1.303672276844763E2    -1.407432680858204E-1    1.303725730097009E2    -2.820944382580152E1     3.528373506464224E1
 1.012000000000000E9    -2.774535996609203E1     3.340247697233129E1    -1.592845365983634E-1    1.297995228067560E2    -1.416873070269093E-1    1.298026528432323E2    -2.830811787609189E1     3.397954491842273E1
 1.013000000000000E9    -2.798224212264846E1     3.364360597899648E1    -1.515814883016490E-1    1.292449410516456E2    -1.442171665810462E-1    1.292058251953827E2    -2.841670376737264E1     3.369423901889681E1
 1.014000000000000E9    -2.796751359365882E1     3.249066584849719E1    -1.525320626883567E-1    1.285843188401764E2    -1.381205050806306E-1    1.286133269740197E2    -2.846454562163536E1     3.320005088320133E1
 1.015000000000000E9    -2.808561337924402E1     3.138641269470072E1    -1.493343332108350E-1    1.280006043700017E2    -1.391664316502716E-1    1.280419371631921E2    -2.864332662923525E1     3.248210529952375E1
 1.016000000000000E9    -2.822957439316191E1     3.111150886831400E1    -1.542290856374365E-1    1.274557213343598E2    -1.435273541576682E-1    1.274495399570694E2    -2.872940233835394E1     3.150014278929744E1
 1.017000000000000E9    -2.831445712454422E1     3.057193239739653E1    -1.567942500547374E-1    1.268576743415777E2    -1.452752805300206E-1    1.268353965452851E2    -2.872306293238143E1     3.118492942634936E1
 1.018000000000000E9    -2.837608938712920E1     2.985803363585368E1    -1.536262938404745E-1    1.262751301851027E2    -1.366043093194339E-1    1.262381335067494E2    -2.910498769474057E1     3.044626563995758E1
 1.019000000000000E9    -2.865113969946860E1     2.847376945125164E1    -1.482720435208914E-1    1.256908356042174E2    -1.457793116704896E-1    1.257352933866410E2    -2.896302197495255E1     3.034012521378626E1
 1.020000000000000E9    -2.872391514261190E1     2.824577207377719E1    -1.498492466374863E-1    1.251018271400520E2    -1.453403594719010E-1    1.251135974311290E2    -2.926708748994876E1     2.902716822767011E1
 1.021000000000000E9    -2.894376558449519E1     2.736343630075941E1    -1.550485339046634E-1    1.245043093070970E2    -1.331426609129120E-1    1.245218224390899E2    -2.936957043180123E1     2.856457771041277E1
 1.022000000000000E9    -2.900213121857476E1     2.769938256962045E1    -1.522030198032081E-1    1.239138475655131E2    -1.376218888256376E-1    1.239409858319534E2    -2.930802984106501E1     2.856015814216590E1
 1.023000000000000E9    -2.904617758239045E1     2.643650176380538E1    -1.474290921354075E-1    1.233312989656193E2    -1.393950862506981E-1    1.233771514826725E2    -2.970109662459152E1     2.739884333334694E1
 1.024000000000000E9    -2.928093347604356E1     2.477896323908114E1    -1.465206365357063E-1    1.227531120360344E2    -1.403880426347930E-1    1.227922984989365E2    -2.979609208460162E1     2.731944632230792E1
 1.025000000000000E9    -2.937010674055520E1     2.469638991549893E1    -1.451844116020248E-1    1.222146307116949E2    -1.425465105836839E-1    1.221696077647569E2    -3.001907901339098E1     2.602893095496235E1
 1.026000000000000E9    -2.957701928471585E1     2.339133914907308E1    -1.485899966409146E-1    1.216040418060838E2    -1.362367868332844E-1    1.215964165807387E2    -3.001895361424072E1     2.551276243331598E1
 1.027000000000000E9    -2.969179740624736E1     2.185764328200940E1    -1.498115926781611E-1    1.210107770414529E2    -1.382729313540494E-1    1.210152787320894E2    -3.026136118180825E1     2.557879985688559E1
 1.028000000000000E9    -2.990805755860898E1     2.278701498031837E1    -1.583223377606235E-1    1.204003789449019E2    -1.378568189517985E-1    1.204007304761420E2    -3.039312641012204E1     2.442236038764954E1
 1.029000000000000E9    -2.993057700622148E1     2.122659549443755E1    -1.551717223349855E-1    1.198523467347438E2    -1.400323567839490E-1    1.198413400514950E2    -3.056947418352744E1     2.498845711562124E1
 1.030000000000000E9    -3.018867823219091E1     2.071281578061916E1    -1.512638436783391E-1    1.192101831138656E2    -1.402909953977536E-1    1.192679201534718E2    -3.079148578009676E1     2.387217312262368E1
 1.031000000000000E9    -3.036016163644758E1     1.872683398815600E1    -1.497572247414773E-1    1.186672923315040E2    -1.410204369338057E-1    1.186837419214146E2    -3.083693842210069E1     2.306071964398890E1
 1.032000000000000E9    -3.060134117453532E1     1.719249661953381E1    -1.467274502687817E-1    1.180764927173097E2    -1.412375361397581E-1    1.180513970911599E2    -3.098558482259318E1     2.452230348716709E1
 1.033000000000000E9    -3.090964171991853E1     1.625192057465927E1    -1.485582066676272E-1    1.174991378801694E2    -1.391597786144546E-1    1.175401793455342E2    -3.131774464407856E1     2.192388341902456E1
 1.034000000000000E9    -3.118635008495330E1     1.619178796200539E1    -1.497799082886712E-1    1.169408204770733E2    -1.440093719033711E-1    1.168916971287700E2    -3.148938797558806E1     2.221059765533099E1
 1.035000000000000E9    -3.119323032222338E1     1.474518045444383E1    -1.502043072816803E-1    1.163485056394854E2    -1.429833738658696E-1    1.163548195702362E2    -3.191266834777504E1     2.259560116500460E1
 1.036000000000000E9    -3.142776433240459E1     1.418577485664622E1    -1.506772719290895E-1    1.157591093272437E2    -1.349362702336293E-1    1.157675426690190E2    -3.207194748092288E1     2.060680248207551E1
 1.037000000000000E9    -3.156970741743970E1     1.331406474699663E1    -1.538304038366355E-1    1.151432180350112E2    -1.336201259442995E-1    1.151562027677719E2    -3.203314164633818E1     2.156850710497323E1
 1.038000000000000E9    -3.178137590550972E1     1.272064288172313E1    -1.429731052037061E-1    1.145700629526902E2    -1.414829218432190E-1    1.145418623962257E2    -3.250827056690103E1     2.131886575191023E1
 1.039000000000000E9    -3.206350770191052E1     1.131887611476880E1    -1.516125157302804E-1    1.139782426249012E2    -1.394314752269820E-1    1.139732009509036E2    -3.267084868691114E1     2.150661602131908E1
 1.040000000000000E9    -3.208703582319164E1     9.555885111065988      -1.460782270075440E-1    1.134185122910462E2    -1.418094709270105E-1    1.133890216863922E2    -3.279971554631320E1     1.976447718152263E1
 1.041000000000000E9    -3.254993491738249E1     9.383755808518441      -1.459830710925602E-1    1.127994181770695E2    -1.326318237276038E-1    1.128033799631232E2    -3.311129413324368E1     1.877934368038882E1
 1.042000000000000E9    -3.284606276171981E1     6.744548702584033      -1.456100925029135E-1    1.121943413887189E2    -1.413652537885385E-1    1.122614676672425E2    -3.314980085344124E1     1.876625396135934E1
 1.043000000000000E9    -3.298715949639386E1     4.849671636279560      -1.428463712620761E-1    1.116573591330100E2    -1.418277904266427E-1    1.115931566542276E2    -3.372305357982704E1     1.899356944395858E1
 1.044000000000000E9    -3.349358805307183E1     3.472674361253241      -1.447503668358349E-1    1.110458740515227E2    -1.378067112466817E-1    1.110993706469798E2    -3.416673656863949E1     1.858723388550327E1
 1.045000000000000E9    -3.352802515192799E1     2.682346900199523      -1.458149571977025E-1    1.104722045996873E2    -1.396799532880829E-1    1.104498905528146E2    -3.462064846211037E1     1.675383557789189E1
 1.046000000000000E9    -3.387816353897004E1     2.000152601683817      -1.445717471865372E-1    1.098340262348989E2    -1.369763850118260E-1    1.098979151568037E2    -3.497819024457339E1     1.849188078361809E1
 1.047000000000000E9    -3.426125447817091E1     1.912169778392484E-1   -1.470301889065459E-1    1.092432293202115E2    -1.406654892756100E-1    1.092842837677821E2    -3.485210517819951E1     1.625433261982238E1
 1.048000000000000E9    -3.419752617713081E1    -3.315525020136793E-1   -1.496192811153234E-1    1.086886238472481E2    -1.395659995859209E-1    1.087120258883989E2    -3.549835614142201E1     1.709983060727886E1
 1.049000000000000E9    -3.465981844062171E1    -1.819924160318747      -1.434966368671635E-1    1.080996232545530E2    -1.414848771928911E-1    1.081312464892496E2    -3.577308620561097E1     1.862737732265418E1
 1.050000000000000E9    -3.527912003834013E1    -6.057682166188213      -1.482489476842452E-1    1.074997115588909E2    -1.343197051219605E-1    1.075372940369787E2    -3.650817540363921E1     1.761569886435306E1
 1.051000000000000E9    -3.526132434428754E1    -5.779757219395591      -1.481976887268398E-1    1.069841508185999E2    -1.390114169772974E-1    1.069333129735197E2    -3.676579233672983E1     1.679011298966869E1
 1.052000000000000E9    -3.558075637188418E1    -7.897600530619602      -1.489856674717235E-1    1.063579481050837E2    -1.397694736519488E-1    1.064004195272564E2    -3.718452242969904E1     1.419951451340583E1
 1.053000000000000E9    -3.623192617509633E1    -1.049867686278694E1    -1.516344595996772E-1    1.057822072900764E2    -1.323556431491358E-1    1.057825188760495E2    -3.783476414227997E1     1.270333098409915E1
 1.054000000000000E9    -3.671525715993789E1    -1.136381928316648E1    -1.397119121284618E-1    1.052048876089739E2    -1.408528161853439E-1    1.052225387061640E2    -3.834935995820919E1     1.495589752919994E1
 1.055000000000000E9    -3.706716781651694E1    -1.317604414188721E1    -1.527310932659139E-1    1.045809052442089E2    -1.423052773698764E-1    1.046116030356400E2    -3.880256678190692E1     1.383762682588835E1
 1.056000000000000E9    -3.758379461168042E1    -1.624540995112950E1    -1.462902022451508E-1    1.040464219973418E2    -1.384117009351785E-1    1.040182441819709E2    -3.934620024338579E1     1.277477439685308E1
 1.057000000000000E9    -3.799842559316403E1    -1.731478128466661E1    -1.485206215830052E-1    1.034755864319061E2    -1.394174703369410E-1    1.033917764899600E2    -3.994532064465589E1     1.148807814632472E1
 1.058000000000000E9    -3.852665680058883E1    -2.280695490161099E1    -1.521910853892645E-1    1.028713563457656E2    -1.356932683676047E-1    1.028344314479801E2    -4.088375215701884E1     1.156986890980195E1
 1.059000000000000E9    -3.888191941708868E1    -2.475332943800880E1    -1.488201419578356E-1    1.022602089485428E2    -1.429607347575859E-1    1.022730263007960E2    -4.213876202216147E1     1.409824955705065E1
 1.060000000000000E9    -3.926259702452909E1    -2.709587908060770E1    -1.435439745763853E-1    1.016463286772518E2    -1.449694943131790E-1    1.016898312632430E2    -4.238083445122872E1     1.463633060100489E1
 1.061000000000000E9    -4.037716696404380E1    -2.839458416625434E1    -1.458732339873922E-1    1.011110555664970E2    -1.352118070496129E-1    1.010968908840079E2    -4.393445981781638E1     1.535629170457274E1
 1.062000000000000E9    -4.036564244995778E1    -3.528050067404196E1    -1.480156786749985E-1    1.005226715510539E2    -1.418986912902344E-1    1.005437493680264E2    -4.442955236899675E1     3.791241688554084
 1.063000000000000E9    -4.097622730510135E1    -3.446801527795882E1    -1.426605191723998E-1    9.994817553511138E1    -1.363471741166605E-1    9.995196368686642E1    -4.587538013885984E1     1.546982120560375E1
 1.064000000000000E9    -4.165781509959194E1    -4.170797201061104E1    -1.490728627809831E-1    9.937288710941074E1    -1.370162021038914E-1    9.936126619890311E1    -4.763629505195738E1     1.784217003083738E1
 1.065000000000000E9    -4.235405507174090E1    -5.014919786876217E1    -1.486334861958278E-1    9.878972022923047E1    -1.394135535047807E-1    9.878215771634086E1    -4.966681938890179E1     1.472571847130642E1
 1.066000000000000E9    -4.260023774896878E1    -5.412039743037705E1    -1.459896981409026E-1    9.818330683658273E1    -1.380892228217280E-1    9.817897384884503E1    -5.089864511068021E1     2.863593750340564
 1.067000000000000E9    -4.312244467707866E1    -5.900524686377818E1    -1.457720918786555E-1    9.760173967518470E1    -1.404155444435309E-1    9.758606845730816E1    -5.525381009442043E1     1.946201718325704E1
 1.068000000000000E9    -4.368932383161946E1    -6.525436785109811E1    -1.479473904390651E-1    9.695873009646010E1    -1.400287447390092E-1    9.702477547860333E1    -5.407506878323629E1    -2.509900819243710
 1.069000000000000E9    -4.414125678309369E1    -7.511781421678019E1    -1.493064606348333E-1    9.642754312625166E1    -1.473101693670469E-1    9.640746451526032E1    -6.373940997900979E1    -2.302887548732540E1
 1.070000000000000E9    -4.442747077758315E1    -7.921975143096618E1    -1.480636447626872E-1    9.583538715545292E1    -1.445093421341236E-1    9.585171930497474E1    -7.012489579606218E1    -1.426974148869193E2
 1.071000000000000E9    -4.490731878322117E1    -8.709935172050290E1    -1.515448892587984E-1    9.525498900308267E1    -1.434725730816214E-1    9.523085007677570E1    -5.921000886498760E1    -1.703388582178415E2
 1.072000000000000E9    -4.433363204566034E1    -9.745145148007926E1    -1.525826254663839E-1    9.465366097708333E1    -1.431462843254161E-1    9.464916214277146E1    -5.442175682281918E1    -1.642432253433755E2
 1.073000000000000E9    -4.439453891877918E1    -1.058454024385622E2    -1.471112002929641E-1    9.405448420185621E1    -1.429656702810729E-1    9.408746005508833E1    -5.262571285146156E1    -1.755229831105181E2
 1.074000000000000E9    -4.423000255285535E1    -1.179445626160186E2    -1.464757556751863E-1    9.350019215456911E1    -1.452423260598462E-1    9.350414756358252E1    -4.915379614421578E1    -1.705803542371678E2
 1.075000000000000E9    -4.323454021755445E1    -1.224474569356009E2    -1.514570903315797E-1    9.289506686874920E1    -1.397705783617298E-1    9.288220210822526E1    -4.774113948555851E1    -1.695063620336646E2
 1.076000000000000E9    -4.238102900174755E1    -1.238516812485598E2    -1.479616955941718E-1    9.228754400239451E1    -1.381770284550778E-1    9.234784923823696E1    -4.715285370873624E1    -1.726663300334288E2
 1.077000000000000E9    -4.185487670210770E1    -1.290048741553936E2    -1.439350253861719E-1    9.174825215322328E1    -1.376480591414895E-1    9.174344539686712E1    -4.470281489537156E1    -1.721609231234967E2
 1.078000000000000E9    -4.266654430088806E1    -1.374810961006300E2    -1.411002836465233E-1    9.114447897766027E1    -1.436419126666554E-1    9.112594029863959E1    -4.367274149282777E1    -1.713937812036945E2
 1.079000000000000E9    -4.136446409026804E1    -1.397297922752715E2    -1.500221057214491E-1    9.055062563771548E1    -1.359816559921456E-1    9.060148347704907E1    -4.329599161863229E1    -1.685850907497419E2
 1.080000000000000E9    -4.048156467879599E1    -1.448321420778817E2    -1.500738265980773E-1    8.998837379339723E1    -1.384822267118740E-1    8.997663380354948E1    -4.224059855419212E1    -1.710260577574134E2
 1.081000000000000E9    -4.044640124301186E1    -1.477736109865400E2    -1.502341023096443E-1    8.941956183698409E1    -1.437594690633573E-1    8.941759107729092E1    -4.148336306227846E1    -1.713626551905387E2
 1.082000000000000E9    -3.993432469197891E1    -1.490739865603883E2    -1.475928587757748E-1    8.881792291127779E1    -1.471679864516608E-1    8.883750560845485E1    -4.164754094744640E1    -1.736177899722868E2
 1.083000000000000E9    -3.942764082488750E1    -1.543511766640898E2    -1.491735945477271E-1    8.824231769015751E1    -1.443472149438302E-1    8.823789699327026E1    -4.039063841730211E1    -1.745125524608072E2
 1.084000000000000E9    -3.936623873084025E1    -1.559796249911357E2    -1.489844331602762E-1    8.765131700399881E1    -1.429354893746438E-1    8.766305930270575E1    -3.943292022098645E1    -1.745741738540568E2
 1.085000000000000E9    -3.888824079300719E1    -1.589440666718556E2    -1.491337965462050E-1    8.704258009404617E1    -1.449808848665976E-1    8.706408247734152E1    -3.906486224029732E1    -1.750217284273161E2
 1.086000000000000E9    -3.776150736027555E1    -1.615208838061037E2    -1.505229513914643E-1    8.645829927175494E1    -1.417027722132268E-1    8.649566714922446E1    -3.838437092426367E1    -1.757280273390076E2
 1.087000000000000E9    -3.762052401412602E1    -1.618339572271864E2    -1.507477337343284E-1    8.588071236812037E1    -1.468004069342470E-1    8.587417329884167E1    -3.820798457684386E1    -1.760994457781114E2
 1.088000000000000E9    -3.701044900745940E1    -1.640509830761124E2    -1.503760014123229E-1    8.533858558229767E1    -1.455802801487309E-1    8.532211968585550E1    -3.738542596363502E1    -1.788878274016107E2
 1.089000000000000E9    -3.679080551731943E1    -1.679617388880907E2    -1.441216804704753E-1    8.467432883539460E1    -1.421945537579751E-1    8.470366254140377E1    -3.728296948032786E1    -1.787268918299166E2
 1.090000000000000E9    -3.660912831922816E1    -1.672281865295604E2    -1.553951818429484E-1    8.416899194069700E1    -1.433717499875946E-1    8.417555805292594E1    -3.708735776661720E1    -1.770246524557125E2
 1.091000000000000E9    -3.573224924572066E1    -1.708604123598348E2    -1.490540820791430E-1    8.361078096271464E1    -1.415558604845049E-1    8.356018985965052E1    -3.639938008445503E1    -1.787023214565565E2
