#  HZ   S   DB   R     50.00 
! Rohde & Schwarz Vector Network Analyzer 
! Rohde-Schwarz,ZNB8-4Port,1311601044102961,2.82
! Created: UTC 3/4/2022, 4:07:42 PM
! freq[Hz]                db:S11                  ang:S11                 db:S21                  ang:S21                 db:S12                  ang:S12                 db:S22                  ang:S22
 1.000000000000000E9    -2.459840414118484E1     1.572656606846666E2    -1.920471539247227E-1    6.608524434199623E1    -1.778611844159611E-1    6.612592370348132E1    -2.492737580419698E1     1.546736425171971E2
 1.001000000000000E9    -2.453671233718261E1     1.570869736560294E2    -1.889165943372765E-1    6.545331814250682E1    -1.856689577685575E-1    6.542588323897057E1    -2.482358637122623E1     1.543103400161169E2
 1.002000000000000E9    -2.441896288533270E1     1.559043672674427E2    -1.862238275073644E-1    6.482673247921758E1    -1.796322548906029E-1    6.480412998132375E1    -2.478652534355959E1     1.531446849246533E2
 1.003000000000000E9    -2.437754178503590E1     1.557184953747195E2    -1.861887476992058E-1    6.418925265056632E1    -1.802148242034516E-1    6.409640478091147E1    -2.465383552209203E1     1.525104385429378E2
 1.004000000000000E9    -2.418500174010727E1     1.548260626474265E2    -1.907679941248784E-1    6.351117592224556E1    -1.781070945333710E-1    6.348307712786794E1    -2.456451693229558E1     1.523099727666725E2
 1.005000000000000E9    -2.420030861977566E1     1.539723493378978E2    -1.888472433236139E-1    6.284731033814688E1    -1.762380370069320E-1    6.288578610116669E1    -2.451535655146286E1     1.513663789805718E2
 1.006000000000000E9    -2.406245393992969E1     1.534709660504435E2    -1.899964270442508E-1    6.217954453327243E1    -1.829825313174970E-1    6.219391740222291E1    -2.442945023749147E1     1.509196330108001E2
 1.007000000000000E9    -2.403030335452854E1     1.530599820455490E2    -1.969943518053832E-1    6.156876908583301E1    -1.807307169056384E-1    6.155233898269304E1    -2.431375796239584E1     1.494193872026360E2
 1.008000000000000E9    -2.390870865993363E1     1.523076045170052E2    -1.943580441907107E-1    6.086779728954303E1    -1.783415147299104E-1    6.086132619315419E1    -2.422511161474854E1     1.492341573494803E2
 1.009000000000000E9    -2.384870202997201E1     1.510105086355272E2    -1.876341835659587E-1    6.019134932068609E1    -1.828490923928450E-1    6.021394971791952E1    -2.414229124779351E1     1.482089233643519E2
 1.010000000000000E9    -2.371452192147379E1     1.508276496356486E2    -1.961229845502269E-1    5.956909368306576E1    -1.868023904842814E-1    5.961721875273620E1    -2.407939058886850E1     1.475606448928317E2
 1.011000000000000E9    -2.362344946920321E1     1.500037280766719E2    -1.969459612724915E-1    5.893275472691406E1    -1.816747320840395E-1    5.890588045807120E1    -2.392337652324695E1     1.465321318434281E2
 1.012000000000000E9    -2.358057956573398E1     1.494042695904598E2    -2.010625529153504E-1    5.826073801069705E1    -1.889500956815938E-1    5.826119732463837E1    -2.389423483681896E1     1.462997697361158E2
 1.013000000000000E9    -2.352085865176673E1     1.488192090950655E2    -1.977793874104424E-1    5.761873273354706E1    -1.909272133202601E-1    5.758444572080640E1    -2.384582769517756E1     1.453108629202123E2
 1.014000000000000E9    -2.342828677190148E1     1.485097542469466E2    -1.962289535607134E-1    5.693172263213555E1    -1.776288760125205E-1    5.693932582645184E1    -2.379683538554228E1     1.446950109831125E2
 1.015000000000000E9    -2.327336496326322E1     1.475262119787687E2    -1.973611632624095E-1    5.630378298809694E1    -1.879896432152560E-1    5.629694676976347E1    -2.362150980547579E1     1.440289700643084E2
 1.016000000000000E9    -2.328233964465362E1     1.471810225348020E2    -1.970168340608161E-1    5.564182384450974E1    -1.867932748945217E-1    5.563986071515416E1    -2.360078022461785E1     1.428922518724105E2
 1.017000000000000E9    -2.317945642136101E1     1.468023340837368E2    -1.957890631641117E-1    5.497899746476323E1    -1.860494680479310E-1    5.498523629376452E1    -2.353662982270791E1     1.428648590777361E2
 1.018000000000000E9    -2.309247570639965E1     1.460101226048196E2    -1.976140133073682E-1    5.433534877590935E1    -1.853432100014385E-1    5.437078693576614E1    -2.345041787687755E1     1.414704855821997E2
 1.019000000000000E9    -2.298532315520069E1     1.451107265598361E2    -1.967230656725496E-1    5.364156353366225E1    -1.878024072148131E-1    5.365925290672399E1    -2.335775641965160E1     1.410823313635595E2
 1.020000000000000E9    -2.292303072110776E1     1.443540353098718E2    -1.984250317550368E-1    5.301447557154896E1    -1.871048585498995E-1    5.300346312928296E1    -2.326988552309868E1     1.400206190367115E2
 1.021000000000000E9    -2.281510683802446E1     1.438108429877763E2    -2.009708093396030E-1    5.235847629512799E1    -1.863464806221236E-1    5.240333427465792E1    -2.315991724290964E1     1.390623150821720E2
 1.022000000000000E9    -2.283176433679521E1     1.433399226479259E2    -2.048353308739072E-1    5.168456543724274E1    -1.929751634721969E-1    5.173241162611717E1    -2.314739840992467E1     1.383784677462934E2
 1.023000000000000E9    -2.271866287738817E1     1.428397844084652E2    -2.015031316298254E-1    5.107381630642289E1    -1.887572756068292E-1    5.105762970588077E1    -2.302323168422721E1     1.381121551587239E2
 1.024000000000000E9    -2.262642679589835E1     1.423191359232438E2    -2.002352298356913E-1    5.038756160790553E1    -1.914543911985044E-1    5.038453238531035E1    -2.298337235198294E1     1.369156420544182E2
 1.025000000000000E9    -2.260907283951499E1     1.415627814871035E2    -1.987339552511706E-1    4.977335579360500E1    -1.902307108120740E-1    4.978691203908959E1    -2.290890456874949E1     1.359965046363472E2
 1.026000000000000E9    -2.247386529538505E1     1.407776307373428E2    -2.007577145803317E-1    4.911379692489415E1    -1.936294482266494E-1    4.909150045004955E1    -2.279595964681607E1     1.355731318498599E2
 1.027000000000000E9    -2.241323385246499E1     1.404550030424592E2    -2.043483305570544E-1    4.838716079212580E1    -1.861006292117847E-1    4.846495367437628E1    -2.271182475654701E1     1.349691747815494E2
 1.028000000000000E9    -2.243584864379254E1     1.395452868706711E2    -2.082342632714692E-1    4.775883058643973E1    -1.915176655450340E-1    4.782844302112611E1    -2.267730304671435E1     1.342392024860835E2
 1.029000000000000E9    -2.226721785594528E1     1.390378832472799E2    -2.040632562540849E-1    4.710568235991926E1    -1.979072091371693E-1    4.714553155540782E1    -2.261618500046651E1     1.332097823587694E2
 1.030000000000000E9    -2.224916547995654E1     1.382675003614936E2    -2.066491227419229E-1    4.648908454819008E1    -1.928792101375057E-1    4.648629046511076E1    -2.256593894138504E1     1.328527506459557E2
 1.031000000000000E9    -2.213611334630917E1     1.375885971705970E2    -1.991085408000041E-1    4.582799275707549E1    -1.986392582626055E-1    4.583529271582507E1    -2.246045173482802E1     1.317008559775117E2
 1.032000000000000E9    -2.206802641557229E1     1.366283778085980E2    -2.033143256470577E-1    4.518430912806574E1    -1.941418630495727E-1    4.516329882023521E1    -2.248424535419699E1     1.313417992277262E2
 1.033000000000000E9    -2.201744698827675E1     1.363247412619035E2    -2.059171713660511E-1    4.451055368765783E1    -1.946899509153423E-1    4.453324501066621E1    -2.227911671285054E1     1.308531719377488E2
 1.034000000000000E9    -2.195752821764599E1     1.352495909663793E2    -2.031204707798051E-1    4.387100855580903E1    -1.929077682394987E-1    4.389659234546946E1    -2.223804437843249E1     1.302975275022705E2
 1.035000000000000E9    -2.183769837587414E1     1.345209389097763E2    -2.077444240822356E-1    4.319993325200952E1    -1.917954717984498E-1    4.322957731971157E1    -2.213445001966910E1     1.290797478087103E2
 1.036000000000000E9    -2.178982821167370E1     1.342310111556626E2    -2.043011727356403E-1    4.258784262580533E1    -1.976192870592574E-1    4.253738879410728E1    -2.213499787191645E1     1.283282007025881E2
 1.037000000000000E9    -2.176723101410016E1     1.334245481716725E2    -2.093757965628514E-1    4.187258560572310E1    -1.952609993552501E-1    4.188648012904420E1    -2.203282934638148E1     1.276320447352335E2
 1.038000000000000E9    -2.166195479423234E1     1.327219491133122E2    -2.029377510995320E-1    4.121212941231195E1    -1.955192206717207E-1    4.125656342299001E1    -2.195369115441565E1     1.272506218520563E2
 1.039000000000000E9    -2.165819172163337E1     1.322162946389844E2    -2.013962933402468E-1    4.054609441145414E1    -1.974561486717699E-1    4.054784179078570E1    -2.193779528920537E1     1.268590673703869E2
 1.040000000000000E9    -2.156872864971001E1     1.311968571494327E2    -2.137976965556034E-1    3.992584510558751E1    -1.969611519742874E-1    3.993675174694550E1    -2.183011633501571E1     1.262215820680264E2
 1.041000000000000E9    -2.153601691957523E1     1.304172696676858E2    -2.120937618552997E-1    3.930456914198435E1    -1.938116055686516E-1    3.931022994753630E1    -2.178647798117824E1     1.253192463835323E2
 1.042000000000000E9    -2.142413367348159E1     1.300527208867900E2    -2.150215017867351E-1    3.862849002178291E1    -1.992510273510276E-1    3.868636212827190E1    -2.169368533146498E1     1.243431577025427E2
 1.043000000000000E9    -2.135035232048251E1     1.293547102879897E2    -2.097701247629228E-1    3.798081133393603E1    -2.071033833273223E-1    3.797716983600417E1    -2.168594928823843E1     1.238098437152183E2
 1.044000000000000E9    -2.127221302707973E1     1.283445769878943E2    -2.097242110786005E-1    3.733076199997414E1    -1.969511062536353E-1    3.734895816451530E1    -2.156073145441129E1     1.231616009993538E2
 1.045000000000000E9    -2.130233298569749E1     1.281174048836749E2    -2.093003276368836E-1    3.668674537632956E1    -2.026276355463805E-1    3.666765599297238E1    -2.153636098663575E1     1.226289418423016E2
 1.046000000000000E9    -2.121126495283897E1     1.270944879176572E2    -2.069296490755343E-1    3.604593722114520E1    -1.944290319688088E-1    3.608977464458142E1    -2.150199862734512E1     1.217526503501696E2
 1.047000000000000E9    -2.111793779340282E1     1.266344757988370E2    -2.134732270847803E-1    3.540774437121587E1    -2.022336190312707E-1    3.543561932397969E1    -2.144671772020220E1     1.210421240697879E2
 1.048000000000000E9    -2.105803782234795E1     1.259102885596847E2    -2.190101073872103E-1    3.467778367192414E1    -2.014335402938801E-1    3.470697389692766E1    -2.141422571645975E1     1.207274075208007E2
 1.049000000000000E9    -2.105366628463074E1     1.252858047747959E2    -2.152080621103470E-1    3.410199178835100E1    -2.082579099437434E-1    3.410316408614432E1    -2.133024026487594E1     1.200971944329010E2
 1.050000000000000E9    -2.095187072942809E1     1.241772763841019E2    -2.132145237741352E-1    3.343289353944569E1    -2.090121737570167E-1    3.343282903511503E1    -2.124815318003392E1     1.196635728388599E2
 1.051000000000000E9    -2.098382704280312E1     1.233887441752956E2    -2.109503027708970E-1    3.278993032917166E1    -2.049805287457605E-1    3.280967361606949E1    -2.125435546925830E1     1.190111054206672E2
 1.052000000000000E9    -2.090581044587699E1     1.227481272612413E2    -2.133430610914639E-1    3.210491835391756E1    -2.099013721337157E-1    3.213557274309162E1    -2.113336354329658E1     1.186176194052293E2
 1.053000000000000E9    -2.080501063920142E1     1.220554764695945E2    -2.201346304770052E-1    3.146932596828199E1    -2.064801721612352E-1    3.148125226834375E1    -2.110781649552685E1     1.175539358420657E2
 1.054000000000000E9    -2.078212075311841E1     1.214492873949596E2    -2.206635432725551E-1    3.085303319770515E1    -2.079804125240375E-1    3.077738600931172E1    -2.108936176221574E1     1.164604595792041E2
 1.055000000000000E9    -2.076140064438875E1     1.204359502242688E2    -2.121267054611664E-1    3.021488955626866E1    -2.088250280833756E-1    3.016754148051476E1    -2.099032084560519E1     1.165493319407270E2
 1.056000000000000E9    -2.070417460582279E1     1.197501776891462E2    -2.129910496057152E-1    2.952637316919911E1    -2.098950083616898E-1    2.948389653699741E1    -2.098051707739472E1     1.162865417453444E2
 1.057000000000000E9    -2.066256076685453E1     1.191043269442771E2    -2.263336793138700E-1    2.886049684798421E1    -2.131358532418335E-1    2.885730087806155E1    -2.094267729633125E1     1.149433317130609E2
 1.058000000000000E9    -2.062448093746203E1     1.183380562271344E2    -2.141784448324882E-1    2.819066601215769E1    -2.124514551890590E-1    2.822634839587660E1    -2.088990478316759E1     1.146794039985030E2
 1.059000000000000E9    -2.061538679677600E1     1.174857280680474E2    -2.194444341421115E-1    2.755321781891089E1    -2.167203486638142E-1    2.755424848601949E1    -2.087179820528238E1     1.139333862355593E2
 1.060000000000000E9    -2.055517041337301E1     1.168982773114721E2    -2.209183210167677E-1    2.691922016693890E1    -2.114979536516024E-1    2.693985618267192E1    -2.082109673772855E1     1.135847779206749E2
 1.061000000000000E9    -2.052407317231562E1     1.161453797677531E2    -2.188363396851940E-1    2.628123639872010E1    -2.094329881768473E-1    2.629492867919866E1    -2.081008430024161E1     1.127911432612059E2
 1.062000000000000E9    -2.049989146562016E1     1.154628381821100E2    -2.214595707994959E-1    2.561579749205516E1    -2.147917634122753E-1    2.561098516208537E1    -2.074268500254441E1     1.120835935259728E2
 1.063000000000000E9    -2.042156383290402E1     1.145254016617385E2    -2.206902292798117E-1    2.497781723038608E1    -2.112501133663438E-1    2.497851441400668E1    -2.065998732281999E1     1.114198289749261E2
 1.064000000000000E9    -2.040530931212908E1     1.139791038443712E2    -2.185598533606897E-1    2.430857188885685E1    -2.100159671606722E-1    2.434230101587531E1    -2.074747556264476E1     1.109236367959331E2
 1.065000000000000E9    -2.036209923607824E1     1.133224432470691E2    -2.215977826281764E-1    2.369330631964406E1    -2.085864140262319E-1    2.368807809994401E1    -2.067417517607318E1     1.104432339386484E2
 1.066000000000000E9    -2.035812981584286E1     1.122319218791452E2    -2.153694110230918E-1    2.298062661832031E1    -2.071207247938272E-1    2.302705216852839E1    -2.065841393723790E1     1.101399051667703E2
 1.067000000000000E9    -2.032323472224998E1     1.116805451386950E2    -2.298759583742934E-1    2.238041247157456E1    -2.110081532592539E-1    2.234976358442969E1    -2.059800103882899E1     1.090030014722042E2
 1.068000000000000E9    -2.034133465177664E1     1.107553753378116E2    -2.228548135751270E-1    2.170875389941017E1    -2.126877053860256E-1    2.169826591133735E1    -2.057413511122030E1     1.091617609381971E2
 1.069000000000000E9    -2.029429172048977E1     1.102270504513170E2    -2.228674776070069E-1    2.102952919843063E1    -2.144933654261066E-1    2.105370051958870E1    -2.052152775759344E1     1.082064495396278E2
 1.070000000000000E9    -2.027329805736631E1     1.095938193697660E2    -2.291643309858360E-1    2.038190727123080E1    -2.172529271823440E-1    2.039740743709529E1    -2.057329797314317E1     1.076811045578762E2
 1.071000000000000E9    -2.019421918504938E1     1.087956588259192E2    -2.228289771951186E-1    1.973332166072269E1    -2.176156292802860E-1    1.974466006362546E1    -2.054881649522283E1     1.070032549564482E2
 1.072000000000000E9    -2.024641075896899E1     1.080686490795806E2    -2.272843923297085E-1    1.908108519483806E1    -2.083925805983040E-1    1.906318215402553E1    -2.046062050829541E1     1.063788625026611E2
 1.073000000000000E9    -2.016284303527480E1     1.072247572781881E2    -2.183382874365296E-1    1.845207744463654E1    -2.105623078921921E-1    1.844862310862243E1    -2.052073480081754E1     1.057206526591013E2
 1.074000000000000E9    -2.017683737180271E1     1.067476695491031E2    -2.218016289727618E-1    1.783553258024403E1    -2.101759728867622E-1    1.781058020163149E1    -2.044531219523015E1     1.051673163211430E2
 1.075000000000000E9    -2.018146935487305E1     1.058753360681866E2    -2.245116888479363E-1    1.711594854154497E1    -2.193160483238777E-1    1.713633112580559E1    -2.043708112711379E1     1.045165400046179E2
 1.076000000000000E9    -2.009259318364435E1     1.053122182725366E2    -2.264774996520723E-1    1.650127373103623E1    -2.118048954333657E-1    1.651295212672552E1    -2.043171656870174E1     1.038986084525092E2
 1.077000000000000E9    -2.010121327108684E1     1.045225494680613E2    -2.256131576271450E-1    1.590453786324545E1    -2.113630072122490E-1    1.583161780281032E1    -2.047274322703849E1     1.032165762811303E2
 1.078000000000000E9    -2.014609598746377E1     1.039451711219949E2    -2.227133717140973E-1    1.523006159664301E1    -2.181661719746525E-1    1.522598172838033E1    -2.041850894594000E1     1.026309685727244E2
 1.079000000000000E9    -2.012570559263636E1     1.035129166887324E2    -2.307225030732757E-1    1.453534624190927E1    -2.140155861365160E-1    1.455753591638059E1    -2.034583879781867E1     1.020797917520693E2
 1.080000000000000E9    -2.009540182192867E1     1.024561719401073E2    -2.237424409243045E-1    1.382464605809496E1    -2.153118651670063E-1    1.386071241613552E1    -2.039002894512066E1     1.014072680482325E2
 1.081000000000000E9    -2.008691232230402E1     1.018464811511173E2    -2.255919916991639E-1    1.322364876726050E1    -2.161530889875448E-1    1.326910417372327E1    -2.038448801088934E1     1.005937424440613E2
 1.082000000000000E9    -2.010925368311407E1     1.012748544292853E2    -2.301105871861861E-1    1.258431541743269E1    -2.183206023290300E-1    1.259784159049986E1    -2.038419392324540E1     1.004289558356580E2
 1.083000000000000E9    -2.002493447304044E1     1.003121425040572E2    -2.261896205746934E-1    1.196407305428286E1    -2.173889997933823E-1    1.193386437096897E1    -2.034772602530687E1     9.938217165524175E1
 1.084000000000000E9    -2.000074586003544E1     9.997513851148818E1    -2.313382097375759E-1    1.129650213266605E1    -2.169086988250067E-1    1.131819572995342E1    -2.037936076913745E1     9.847028762998032E1
 1.085000000000000E9    -2.002886191566164E1     9.945174582045534E1    -2.269085597479700E-1    1.062257819447229E1    -2.214190592620840E-1    1.066574628040264E1    -2.038319678631516E1     9.792447090469514E1
 1.086000000000000E9    -2.000755720569727E1     9.819884481562268E1    -2.280965915980232E-1    9.995125272314786      -2.207939987611982E-1    9.991219634120185      -2.032030065854499E1     9.734785399965136E1
 1.087000000000000E9    -1.997321201089825E1     9.791959642284931E1    -2.196496066053384E-1    9.344733760313529      -2.200637815528689E-1    9.331110835740750      -2.032267292122981E1     9.697134088450272E1
 1.088000000000000E9    -1.998736875189417E1     9.707160807811019E1    -2.268717106414589E-1    8.699083686134902      -2.155959194158480E-1    8.705976510827334      -2.040346793921079E1     9.589810458348190E1
 1.089000000000000E9    -2.004754862860757E1     9.646117656941512E1    -2.291671243516994E-1    8.008885082840870      -2.168971080893092E-1    8.025095138250912      -2.033593210251820E1     9.534700904788004E1
 1.090000000000000E9    -2.003354766834474E1     9.579100976353629E1    -2.237335115843017E-1    7.391774921931556      -2.180816206080557E-1    7.385428083925587      -2.029404311141047E1     9.486333811450912E1
 1.091000000000000E9    -2.000115080811656E1     9.509109493889139E1    -2.290667934828780E-1    6.768080228653514      -2.211271144631345E-1    6.743510062811172      -2.031647074423781E1     9.416072067978914E1
