#  HZ   S   DB   R     50.00 
! Rohde & Schwarz Vector Network Analyzer 
! Rohde-Schwarz,ZNB8-4Port,1311601044102961,2.82
! Created: UTC 3/4/2022, 4:07:27 PM
! freq[Hz]                db:S11                  ang:S11                 db:S21                  ang:S21                 db:S12                  ang:S12                 db:S22                  ang:S22
 1.000000000000000E9    -2.766911955000662E1     1.528291879753857E2    -2.711563195054267E-1    7.574576902029101E1    -2.509845692492858E-1    7.576414692548478E1    -2.553066259945578E1     1.653377584241800E2
 1.001000000000000E9    -2.758674712467947E1     1.523983802777875E2    -2.631861574565667E-1    7.510827220443572E1    -2.544051384255124E-1    7.511893527247658E1    -2.540189846290019E1     1.646743705221539E2
 1.002000000000000E9    -2.738563970184316E1     1.516538203713384E2    -2.589364560032572E-1    7.447216778801004E1    -2.506075946656106E-1    7.448046205076196E1    -2.524208374759641E1     1.635569636160945E2
 1.003000000000000E9    -2.734370161086261E1     1.512995099884491E2    -2.629838446707241E-1    7.384764205715588E1    -2.488625205530699E-1    7.383178077089180E1    -2.513911332116183E1     1.636567431314708E2
 1.004000000000000E9    -2.719224943600056E1     1.518025905933369E2    -2.636945227098991E-1    7.319884317308647E1    -2.461818671201295E-1    7.319262803541994E1    -2.503686848139497E1     1.626656336017604E2
 1.005000000000000E9    -2.699189137284991E1     1.500718699606191E2    -2.589398133565914E-1    7.255208917658811E1    -2.486176288078170E-1    7.256269645320641E1    -2.496884603815828E1     1.619063318213312E2
 1.006000000000000E9    -2.689522196962367E1     1.498396293106535E2    -2.700409672827981E-1    7.192181213055648E1    -2.531339930158911E-1    7.192756908148250E1    -2.489412319758777E1     1.608648292270693E2
 1.007000000000000E9    -2.682566334300498E1     1.494822843175727E2    -2.682325352655818E-1    7.128986461479568E1    -2.526884448116770E-1    7.126181143692958E1    -2.481038866389646E1     1.601517073707848E2
 1.008000000000000E9    -2.669935969611775E1     1.493078702673463E2    -2.679555594279060E-1    7.059793765981709E1    -2.490366428486593E-1    7.059512318477209E1    -2.475348166865983E1     1.594963834361281E2
 1.009000000000000E9    -2.649180306201178E1     1.477204550037703E2    -2.613885498832285E-1    6.997375710643931E1    -2.515999973981056E-1    6.996794353336141E1    -2.458934844857346E1     1.583959577629223E2
 1.010000000000000E9    -2.635146754643287E1     1.484437188654829E2    -2.607724183104382E-1    6.931749073419476E1    -2.567619569140669E-1    6.930426701424236E1    -2.449832258193056E1     1.576916167945174E2
 1.011000000000000E9    -2.627475807843597E1     1.477462875338375E2    -2.667686635026593E-1    6.867265653856967E1    -2.529090580551975E-1    6.868842058906810E1    -2.442194418348672E1     1.570494384741989E2
 1.012000000000000E9    -2.615401102308533E1     1.469432149888677E2    -2.721088216378846E-1    6.806089306939850E1    -2.571051334628546E-1    6.805400471295909E1    -2.431411442947761E1     1.567262605934791E2
 1.013000000000000E9    -2.603877036156016E1     1.467769493499457E2    -2.671667037516848E-1    6.734804392920087E1    -2.628731939447057E-1    6.737494149381175E1    -2.416443126237340E1     1.554729942015032E2
 1.014000000000000E9    -2.588749086649143E1     1.465790034927935E2    -2.689319735406343E-1    6.673441582765534E1    -2.532036781683384E-1    6.672072480989345E1    -2.418151823266070E1     1.549013633501861E2
 1.015000000000000E9    -2.568108587618352E1     1.456770081917011E2    -2.742047484804933E-1    6.611226605267345E1    -2.640314212554935E-1    6.610732316181337E1    -2.395746225046114E1     1.541833840892839E2
 1.016000000000000E9    -2.564807859439526E1     1.451991295910779E2    -2.727405897986562E-1    6.541442833091232E1    -2.625398310551007E-1    6.547758414803842E1    -2.390294243173793E1     1.532021746825880E2
 1.017000000000000E9    -2.560052500007397E1     1.451651931966252E2    -2.728854944728627E-1    6.479784470016577E1    -2.583871975831983E-1    6.482308006659804E1    -2.382589731513293E1     1.523312812826446E2
 1.018000000000000E9    -2.544635887174789E1     1.436731216453052E2    -2.745359134962247E-1    6.418000581911181E1    -2.612009418368391E-1    6.415713420826226E1    -2.382633742594515E1     1.513505097070650E2
 1.019000000000000E9    -2.532515586314627E1     1.436902124340031E2    -2.717598425269602E-1    6.352048655128951E1    -2.591855964054500E-1    6.350248820406844E1    -2.369182992611066E1     1.509071244707854E2
 1.020000000000000E9    -2.515128740866985E1     1.434343058413369E2    -2.692466417302885E-1    6.287966727556289E1    -2.653971982995553E-1    6.289755491765398E1    -2.359848358557931E1     1.500726698060015E2
 1.021000000000000E9    -2.506991116793482E1     1.428590705422255E2    -2.753441436089860E-1    6.222546958557903E1    -2.633313649912650E-1    6.224652441935872E1    -2.349226994882945E1     1.487438944361695E2
 1.022000000000000E9    -2.505059815407085E1     1.418252285922138E2    -2.785368759564085E-1    6.158039841814583E1    -2.677295792627807E-1    6.161521640223340E1    -2.348447993771139E1     1.481512634984925E2
 1.023000000000000E9    -2.490822884683851E1     1.419592215352731E2    -2.757508266771608E-1    6.094857422130447E1    -2.668230397510634E-1    6.094898955047432E1    -2.331074294247553E1     1.476125124577001E2
 1.024000000000000E9    -2.473966626352594E1     1.411474887930066E2    -2.778175814414274E-1    6.027995980188427E1    -2.670489842904605E-1    6.029141878768746E1    -2.324567795400308E1     1.467642773975908E2
 1.025000000000000E9    -2.464077066926388E1     1.407821180312526E2    -2.796666882046000E-1    5.965430353557802E1    -2.676829644102649E-1    5.966882355110442E1    -2.314257808024178E1     1.456736168668941E2
 1.026000000000000E9    -2.449113006295940E1     1.401842227451269E2    -2.817152872563879E-1    5.897041147817141E1    -2.728005091762123E-1    5.901884351797489E1    -2.308427782650553E1     1.451106503057887E2
 1.027000000000000E9    -2.446038884192024E1     1.395729074871257E2    -2.840868425120008E-1    5.833770873395421E1    -2.719594139619416E-1    5.831828095445571E1    -2.294993282226213E1     1.444859765488165E2
 1.028000000000000E9    -2.442928834055838E1     1.393260456130016E2    -2.771533785654279E-1    5.771591511355567E1    -2.681213667531491E-1    5.768587950259013E1    -2.287110896165936E1     1.434450551247151E2
 1.029000000000000E9    -2.424890829495199E1     1.385674807388535E2    -2.768731427551862E-1    5.700317022724768E1    -2.667943286703639E-1    5.705561472411278E1    -2.291330121365096E1     1.424529203764834E2
 1.030000000000000E9    -2.422275554158386E1     1.381743516727272E2    -2.812740008888783E-1    5.644623801050651E1    -2.693604567314447E-1    5.643103188254108E1    -2.276555027034939E1     1.422253158428921E2
 1.031000000000000E9    -2.401586299826957E1     1.375858075260184E2    -2.856737472684557E-1    5.582221768743726E1    -2.713943720925279E-1    5.575735097982935E1    -2.261910991912272E1     1.411459836842259E2
 1.032000000000000E9    -2.391916751941272E1     1.365906628406424E2    -2.803934391595983E-1    5.511753826943121E1    -2.735914084727580E-1    5.510386566873571E1    -2.268428018853312E1     1.403240068015375E2
 1.033000000000000E9    -2.380777376111279E1     1.364769333922648E2    -2.807550675259371E-1    5.445413087870153E1    -2.736670854439844E-1    5.448819576521462E1    -2.249390240509522E1     1.398987041091988E2
 1.034000000000000E9    -2.371350947834030E1     1.356711378581877E2    -2.796337274016347E-1    5.379247945642479E1    -2.773758005538641E-1    5.384710192119210E1    -2.239079837076626E1     1.389260668522821E2
 1.035000000000000E9    -2.361678346118512E1     1.352729395759306E2    -2.819731770974365E-1    5.313984487578129E1    -2.689254051343747E-1    5.316662055234199E1    -2.232530363282466E1     1.382537198923125E2
 1.036000000000000E9    -2.354959245966945E1     1.350286013652052E2    -2.865175218555006E-1    5.252133639460725E1    -2.741764948007940E-1    5.257059758185272E1    -2.226785666343446E1     1.373089160042894E2
 1.037000000000000E9    -2.341766117361675E1     1.341634799402838E2    -2.818875459182339E-1    5.190670385234670E1    -2.735057806255920E-1    5.196386408417006E1    -2.223247754803553E1     1.367362415545593E2
 1.038000000000000E9    -2.336261536016871E1     1.335106226532973E2    -2.846718765164519E-1    5.123772257175059E1    -2.730614203034919E-1    5.126976797368543E1    -2.206555686038071E1     1.360259687913167E2
 1.039000000000000E9    -2.326780077109500E1     1.327058687779630E2    -2.892095480451971E-1    5.061585149656186E1    -2.817835398731425E-1    5.064083796201856E1    -2.204895642041785E1     1.355441002021877E2
 1.040000000000000E9    -2.320293029683914E1     1.322276553903182E2    -2.950590727309380E-1    5.000402396911771E1    -2.799884568741646E-1    4.998759769627542E1    -2.195569592222220E1     1.351261569584191E2
 1.041000000000000E9    -2.310927207171348E1     1.316550593496108E2    -2.930323053409792E-1    4.935596052663055E1    -2.772549722503402E-1    4.934428705199430E1    -2.190089052207462E1     1.339201600364411E2
 1.042000000000000E9    -2.305371256143645E1     1.311733089291038E2    -2.914430332867901E-1    4.868847097664532E1    -2.821510232889024E-1    4.870762093377877E1    -2.178389497217303E1     1.332111250258585E2
 1.043000000000000E9    -2.293170239163700E1     1.307187407334293E2    -2.865346532902150E-1    4.808982981112118E1    -2.854134215210127E-1    4.802178821422078E1    -2.180234667680287E1     1.325884714473876E2
 1.044000000000000E9    -2.278751766609490E1     1.300895449182643E2    -2.988928186009006E-1    4.742607912001576E1    -2.901221175843991E-1    4.741621179159986E1    -2.168621444631622E1     1.320153180095211E2
 1.045000000000000E9    -2.278668095090412E1     1.294176476751557E2    -2.928910311721376E-1    4.678199236708016E1    -2.802731952644976E-1    4.675166966778767E1    -2.160710728876387E1     1.313551986194033E2
 1.046000000000000E9    -2.267054552716733E1     1.287246426823597E2    -2.903016294355639E-1    4.611255098506503E1    -2.835846743091471E-1    4.618988645626922E1    -2.156092706937216E1     1.307056498251643E2
 1.047000000000000E9    -2.258905595432248E1     1.279655139361919E2    -2.978831543949462E-1    4.548374636041815E1    -2.874830906463300E-1    4.551688015591616E1    -2.145121234998214E1     1.300586824937524E2
 1.048000000000000E9    -2.255368849060060E1     1.274111160370451E2    -2.944337347713728E-1    4.483214877147118E1    -2.843355086453014E-1    4.481390293468774E1    -2.143170804935863E1     1.292975794711596E2
 1.049000000000000E9    -2.249764448363274E1     1.265684159261422E2    -2.952239447633343E-1    4.422163445280588E1    -2.888970469371159E-1    4.415843489453810E1    -2.139485401685418E1     1.286833056885959E2
 1.050000000000000E9    -2.230156922040285E1     1.259594407816602E2    -2.963433044076708E-1    4.357016403072298E1    -2.849727829709531E-1    4.352764975474895E1    -2.125878995931008E1     1.279087175668489E2
 1.051000000000000E9    -2.231936705335743E1     1.254025747151646E2    -2.971019480860790E-1    4.290482624005973E1    -2.842340544642886E-1    4.290224434130250E1    -2.126009156838807E1     1.269775740447402E2
 1.052000000000000E9    -2.219472418780147E1     1.247218708554811E2    -3.033095664936367E-1    4.226187669281769E1    -2.850851540612349E-1    4.229025557723965E1    -2.116143423017907E1     1.265740055113925E2
 1.053000000000000E9    -2.212308034410079E1     1.241189790860465E2    -2.978768819227327E-1    4.162604212614781E1    -2.881749830712804E-1    4.168066371874363E1    -2.106900747125213E1     1.260442433450930E2
 1.054000000000000E9    -2.208522623399498E1     1.236157869165256E2    -2.994082063622263E-1    4.100097104437015E1    -2.833696880991378E-1    4.100369804378985E1    -2.107621223679872E1     1.254240995678589E2
 1.055000000000000E9    -2.198555682971350E1     1.224394335369603E2    -2.971674592910236E-1    4.034350188232293E1    -2.879291371623178E-1    4.033047801327081E1    -2.093442729341472E1     1.249512907814724E2
 1.056000000000000E9    -2.194338601975698E1     1.217764593589134E2    -3.012768357273060E-1    3.974422279845471E1    -2.905445073218482E-1    3.972896888382621E1    -2.098013071182085E1     1.243858228034826E2
 1.057000000000000E9    -2.189463786671885E1     1.211727884616330E2    -3.039980325569663E-1    3.906344165384648E1    -2.855558992341849E-1    3.907898637092945E1    -2.086737306345838E1     1.234838806312264E2
 1.058000000000000E9    -2.180517022252818E1     1.206712485411891E2    -3.003123549568572E-1    3.842052082990791E1    -2.939778992183846E-1    3.843768602701446E1    -2.083835677919122E1     1.230024574238054E2
 1.059000000000000E9    -2.177533436639455E1     1.198191700172005E2    -3.045805679122197E-1    3.777739979265539E1    -2.942133327631050E-1    3.780264798902616E1    -2.078143773291352E1     1.219656410469650E2
 1.060000000000000E9    -2.170682754915213E1     1.192227033279979E2    -3.007370842955773E-1    3.712190888892175E1    -2.970122701131367E-1    3.714383122425243E1    -2.070209599601750E1     1.217507632877289E2
 1.061000000000000E9    -2.162789162651011E1     1.181440737605321E2    -3.029584807546881E-1    3.646832371262014E1    -2.937621309866400E-1    3.650124593307124E1    -2.072282937128318E1     1.208686001937803E2
 1.062000000000000E9    -2.155773392580888E1     1.180667579429636E2    -3.094143195653459E-1    3.583469627502654E1    -3.005667465086954E-1    3.584580009470227E1    -2.062172612053426E1     1.205686585268077E2
 1.063000000000000E9    -2.148041308874309E1     1.172198091759356E2    -3.071531853835201E-1    3.517960014232967E1    -2.939021389263992E-1    3.521756488794559E1    -2.059870940585170E1     1.194660151817904E2
 1.064000000000000E9    -2.140591833644569E1     1.164359499969423E2    -3.067559894500622E-1    3.457967828081446E1    -3.009038675781592E-1    3.459585592044357E1    -2.057549593804992E1     1.193692316215727E2
 1.065000000000000E9    -2.136694491236538E1     1.159322578044579E2    -3.066529683503945E-1    3.393643315083626E1    -2.980917166715748E-1    3.398148463591243E1    -2.050710715024760E1     1.186888165146528E2
 1.066000000000000E9    -2.127944378765366E1     1.148706691198395E2    -3.080208613967744E-1    3.328316653749800E1    -2.973796379714612E-1    3.330126815989400E1    -2.050432111475005E1     1.181733580780270E2
 1.067000000000000E9    -2.127654766142443E1     1.143997654158445E2    -3.065730247905663E-1    3.263165578381275E1    -2.990437968524701E-1    3.268251599119238E1    -2.046380953135621E1     1.171913211338395E2
 1.068000000000000E9    -2.127114343859377E1     1.134874979433668E2    -3.067556076561199E-1    3.200364984193213E1    -2.999684423685590E-1    3.202154490588672E1    -2.040131934827148E1     1.169869869522282E2
 1.069000000000000E9    -2.117665060342296E1     1.128904705725030E2    -3.144652591221497E-1    3.133576580678485E1    -3.025235135974677E-1    3.139700785702017E1    -2.037599807189780E1     1.164976142246779E2
 1.070000000000000E9    -2.113683616967541E1     1.123556118675448E2    -3.089236359398356E-1    3.071717977525432E1    -3.060077709602337E-1    3.076293404767979E1    -2.031292239930043E1     1.158504046076825E2
 1.071000000000000E9    -2.114057907909261E1     1.115610471925468E2    -3.102141931454137E-1    3.004668284592605E1    -2.999497233783416E-1    3.010975805854364E1    -2.034458171602859E1     1.147933359944257E2
 1.072000000000000E9    -2.108944436285810E1     1.106370232661264E2    -3.084634965498048E-1    2.945719954392134E1    -2.976964365820536E-1    2.946498766391139E1    -2.023977840939172E1     1.143177048942003E2
 1.073000000000000E9    -2.105081027526390E1     1.099175799523341E2    -3.106912663360862E-1    2.881165970424621E1    -3.002565953899847E-1    2.881472974700672E1    -2.028424162449771E1     1.139626965786958E2
 1.074000000000000E9    -2.099986963436453E1     1.094844633887646E2    -3.129668891081030E-1    2.814338404503604E1    -3.011809372072654E-1    2.816352467614894E1    -2.022494576136326E1     1.130071006070236E2
 1.075000000000000E9    -2.095492499099406E1     1.089231102257715E2    -3.121591367906724E-1    2.753950782789626E1    -3.045059666864870E-1    2.754419343643395E1    -2.020895189987296E1     1.124351392352444E2
 1.076000000000000E9    -2.088848646163111E1     1.080171845925857E2    -3.116206502332111E-1    2.690309708506655E1    -3.002401197478565E-1    2.691058784135909E1    -2.020015247941739E1     1.119959636882463E2
 1.077000000000000E9    -2.083343418514961E1     1.076392792469163E2    -3.102810204671899E-1    2.624896248453403E1    -3.066876392746424E-1    2.627885186969816E1    -2.021527711648378E1     1.109780550549167E2
 1.078000000000000E9    -2.086541061275060E1     1.068892389030477E2    -3.121600932322071E-1    2.559820682394524E1    -3.080674455800069E-1    2.560744071069016E1    -2.019275727994767E1     1.104245993493601E2
 1.079000000000000E9    -2.080741020283260E1     1.061798979610316E2    -3.154725602562470E-1    2.490344446631165E1    -3.043313763456406E-1    2.496577168038728E1    -2.012413854564506E1     1.099854780213808E2
 1.080000000000000E9    -2.075317111034141E1     1.055757383133394E2    -3.086316490279916E-1    2.435078643023785E1    -3.039918282895738E-1    2.430452505074570E1    -2.006760951448739E1     1.092720932986177E2
 1.081000000000000E9    -2.073318221603432E1     1.046075187011705E2    -3.196372595767901E-1    2.369690231354559E1    -3.116728878817795E-1    2.374079262261344E1    -2.014899082540359E1     1.087143576627419E2
 1.082000000000000E9    -2.071761967618867E1     1.041646219479911E2    -3.138001861891928E-1    2.306946260809207E1    -3.085779403746409E-1    2.303940800398452E1    -2.007076513721703E1     1.083344714385094E2
 1.083000000000000E9    -2.068641613189288E1     1.034878394808611E2    -3.105225552410868E-1    2.239693838334576E1    -3.076650836924875E-1    2.241727100223192E1    -2.005669667050567E1     1.070931770411161E2
 1.084000000000000E9    -2.064711912037111E1     1.030854164549626E2    -3.157214356344548E-1    2.174852003289352E1    -3.117061232509215E-1    2.176487593825429E1    -2.003230524162757E1     1.064763074079834E2
 1.085000000000000E9    -2.063436894852819E1     1.023532704741868E2    -3.126940000055318E-1    2.112662656869457E1    -3.139689473911112E-1    2.113740459391354E1    -2.002747518111451E1     1.057471104445587E2
 1.086000000000000E9    -2.057620855679936E1     1.012933450617529E2    -3.225440086883477E-1    2.047674842980624E1    -3.096999725010827E-1    2.053618535518795E1    -2.001011543449793E1     1.051548638497622E2
 1.087000000000000E9    -2.053709722631626E1     1.010896220785013E2    -3.124034396698105E-1    1.983356210321906E1    -3.092123503094901E-1    1.984292633117571E1    -1.997639383017653E1     1.044188672702317E2
 1.088000000000000E9    -2.050521347848566E1     1.003628449186880E2    -3.205837528824190E-1    1.925781209885302E1    -3.075303245089793E-1    1.922716785339641E1    -1.999496994118578E1     1.035897710291803E2
 1.089000000000000E9    -2.053539171411501E1     9.954353715606490E1    -3.160639124015159E-1    1.854775424904723E1    -3.122978677232584E-1    1.854033024786951E1    -1.998897695472885E1     1.030175676477005E2
 1.090000000000000E9    -2.050669636484070E1     9.906654149004960E1    -3.209850207473224E-1    1.791729225572594E1    -3.118026755105918E-1    1.788461018169323E1    -1.990449959255537E1     1.023940771221172E2
 1.091000000000000E9    -2.050181253771686E1     9.814956085957591E1    -3.234434790195231E-1    1.726052103412766E1    -3.117799663233180E-1    1.728596768276328E1    -1.989794223972861E1     1.017149734334116E2
