#  HZ   S   DB   R     50.00 
! Rohde & Schwarz Vector Network Analyzer 
! Rohde-Schwarz,ZNB8-4Port,1311601044102961,2.82
! Created: UTC 3/4/2022, 4:03:54 PM
! freq[Hz]                db:S11                  ang:S11                 db:S21                  ang:S21                 db:S12                  ang:S12                 db:S22                  ang:S22
 1.000000000000000E9    -2.397468918616274E1     1.266182101487322E2    -1.457937686543883E-1   -1.433680316400024E2    -1.315557796410186E-1   -1.433671234551773E2    -2.443174451345475E1     1.259733074920363E2
 1.001000000000000E9    -2.395429851347501E1     1.260845091135942E2    -1.431592382752107E-1   -1.438861245193631E2    -1.365116157046074E-1   -1.438621921462540E2    -2.435239116487446E1     1.255685607886903E2
 1.002000000000000E9    -2.395055697997561E1     1.256909875113307E2    -1.510940819908853E-1   -1.443808058909290E2    -1.390143433486530E-1   -1.444149279522709E2    -2.436501279509459E1     1.249009376986487E2
 1.003000000000000E9    -2.401106769804457E1     1.249428006339367E2    -1.491589570214257E-1   -1.449114548190632E2    -1.363029170938601E-1   -1.448985663234720E2    -2.433782004247824E1     1.244316498194715E2
 1.004000000000000E9    -2.387116655390198E1     1.248205618709166E2    -1.474221226856042E-1   -1.453992392661202E2    -1.328809893355049E-1   -1.454192558338583E2    -2.430716938298110E1     1.237943782292060E2
 1.005000000000000E9    -2.388481171671359E1     1.239777845555476E2    -1.462805174268778E-1   -1.458857890284398E2    -1.407336274672990E-1   -1.458742320539839E2    -2.430456210518446E1     1.231461498209094E2
 1.006000000000000E9    -2.388181329238753E1     1.238999297962753E2    -1.446467417946461E-1   -1.463966468504121E2    -1.330746828612175E-1   -1.464190517602509E2    -2.429106782264528E1     1.226419307283260E2
 1.007000000000000E9    -2.383594570240152E1     1.231684927731200E2    -1.441219846125850E-1   -1.469454924589018E2    -1.344694108476993E-1   -1.468569553885920E2    -2.425692985670677E1     1.220154598163000E2
 1.008000000000000E9    -2.387331159528117E1     1.232982028003006E2    -1.472614184139751E-1   -1.474381550909469E2    -1.320079068901459E-1   -1.474001663157012E2    -2.431953916245073E1     1.213446357783007E2
 1.009000000000000E9    -2.384923389679453E1     1.222110006434387E2    -1.491132797602068E-1   -1.478990592793518E2    -1.429111696528334E-1   -1.479270767834921E2    -2.414914083266508E1     1.206351898742412E2
 1.010000000000000E9    -2.372473866919934E1     1.222976194949461E2    -1.511269097726084E-1   -1.484476079899275E2    -1.354940720805487E-1   -1.484204994370540E2    -2.421906831857286E1     1.201305107120432E2
 1.011000000000000E9    -2.376498542958299E1     1.216831581813116E2    -1.522016472846968E-1   -1.489472993931690E2    -1.402599024994834E-1   -1.489211657854040E2    -2.424859749694412E1     1.196658128462178E2
 1.012000000000000E9    -2.369823459236361E1     1.209550174923854E2    -1.499015574351093E-1   -1.494117979972048E2    -1.315585922340126E-1   -1.494104126143139E2    -2.408157522787225E1     1.192808135188742E2
 1.013000000000000E9    -2.374449954187467E1     1.206757354607833E2    -1.518839472335125E-1   -1.499608162771388E2    -1.352304900427432E-1   -1.499007070028683E2    -2.416908944397287E1     1.184027921560632E2
 1.014000000000000E9    -2.369424039326509E1     1.204373155871988E2    -1.523464979908838E-1   -1.503860169961678E2    -1.385495105811976E-1   -1.504366457062197E2    -2.413132592015007E1     1.180141247551009E2
 1.015000000000000E9    -2.365712663721972E1     1.198956243362730E2    -1.515180007813922E-1   -1.509347700711089E2    -1.450775150911567E-1   -1.509199222966388E2    -2.409359871425474E1     1.172447913889226E2
 1.016000000000000E9    -2.370329831635361E1     1.192510622627278E2    -1.471001778807092E-1   -1.514754214081678E2    -1.482268467660369E-1   -1.514382358156685E2    -2.406599159241067E1     1.167261203018941E2
 1.017000000000000E9    -2.361840320542492E1     1.190998344032135E2    -1.404630607971658E-1   -1.519149332094247E2    -1.410757679980192E-1   -1.519335206178569E2    -2.404243197052775E1     1.165639530180941E2
 1.018000000000000E9    -2.362380498737385E1     1.186294639040300E2    -1.461357686111875E-1   -1.524762064594439E2    -1.432379473647827E-1   -1.524461481471220E2    -2.404283546392154E1     1.152405848849034E2
 1.019000000000000E9    -2.354853538982690E1     1.177876990375344E2    -1.413307494825814E-1   -1.529630873226524E2    -1.380178415126735E-1   -1.529524914044760E2    -2.400500781862191E1     1.148379647746486E2
 1.020000000000000E9    -2.357151468788705E1     1.175436236264599E2    -1.505350046274497E-1   -1.534279971558369E2    -1.393563655777517E-1   -1.534473245516381E2    -2.397908500137460E1     1.139636277654557E2
 1.021000000000000E9    -2.355042452788378E1     1.168959727011590E2    -1.505514946205143E-1   -1.539278641565020E2    -1.383919912750447E-1   -1.539575409782094E2    -2.390058005091070E1     1.135098485641524E2
 1.022000000000000E9    -2.357767028949433E1     1.165709850693158E2    -1.452264897891513E-1   -1.544401021258584E2    -1.395159048042170E-1   -1.544615589453375E2    -2.392240643994123E1     1.132006537892752E2
 1.023000000000000E9    -2.350405258130058E1     1.161298519570709E2    -1.439281816638967E-1   -1.549792035198126E2    -1.384479848935454E-1   -1.549391197266163E2    -2.391153214451317E1     1.123500422705571E2
 1.024000000000000E9    -2.349060318053163E1     1.156990467246285E2    -1.521668828014663E-1   -1.554390533492199E2    -1.417646621112987E-1   -1.554571591323182E2    -2.383901632889147E1     1.118564312301493E2
 1.025000000000000E9    -2.347946688128255E1     1.150143288105926E2    -1.488361352286294E-1   -1.559139181757280E2    -1.394095217768447E-1   -1.559527512184411E2    -2.383846096736619E1     1.110812608422390E2
 1.026000000000000E9    -2.342042701374798E1     1.146711835850423E2    -1.454695829063102E-1   -1.564723662639943E2    -1.397595239391568E-1   -1.564653608978251E2    -2.384303946985281E1     1.105349128974038E2
 1.027000000000000E9    -2.339975387615005E1     1.143652309054214E2    -1.496454511506382E-1   -1.569720900666713E2    -1.409455346851436E-1   -1.569527189020331E2    -2.384085393278197E1     1.099927903159494E2
 1.028000000000000E9    -2.344501204251496E1     1.141596180857017E2    -1.547904863462844E-1   -1.574632299973769E2    -1.373803549804006E-1   -1.574636649916500E2    -2.371880967232756E1     1.089708744948984E2
 1.029000000000000E9    -2.337501413301576E1     1.131347179675802E2    -1.520566876760272E-1   -1.579693060169987E2    -1.393486629570397E-1   -1.579506732723124E2    -2.382007829621136E1     1.093303157201842E2
 1.030000000000000E9    -2.342374607860076E1     1.131471550880112E2    -1.496320990873237E-1   -1.585183259607896E2    -1.415042877245358E-1   -1.585334758760617E2    -2.373474407177450E1     1.081703307875751E2
 1.031000000000000E9    -2.333904027238450E1     1.124180864390597E2    -1.483856411796417E-1   -1.589808954823527E2    -1.416900881097390E-1   -1.589373884692344E2    -2.371314742871629E1     1.078279765882021E2
 1.032000000000000E9    -2.329948746266257E1     1.115853463865637E2    -1.515286879007060E-1   -1.594960453169832E2    -1.459614175799810E-1   -1.594894082873327E2    -2.378049477532063E1     1.076978062943965E2
 1.033000000000000E9    -2.329529361784115E1     1.111652593216350E2    -1.505171031621084E-1   -1.599751745524766E2    -1.475389441713343E-1   -1.599808717680905E2    -2.364791824605153E1     1.071855961883782E2
 1.034000000000000E9    -2.327667250200633E1     1.101505305962607E2    -1.514160147475274E-1   -1.604971103834365E2    -1.456193854338916E-1   -1.604395140278217E2    -2.366217349769650E1     1.063818194621263E2
 1.035000000000000E9    -2.321349107967664E1     1.097546855546405E2    -1.487395960295238E-1   -1.609874342545757E2    -1.402942864189076E-1   -1.609791438687381E2    -2.363607296667322E1     1.059991364602969E2
 1.036000000000000E9    -2.322278820380162E1     1.096211242408395E2    -1.541193602257124E-1   -1.614971256250141E2    -1.425269323396557E-1   -1.614892364206391E2    -2.362430969188149E1     1.051799417272721E2
 1.037000000000000E9    -2.320801043749584E1     1.091685129107579E2    -1.544632596080587E-1   -1.620059796519147E2    -1.459588593761579E-1   -1.619992949845229E2    -2.357096564392737E1     1.048471440464975E2
 1.038000000000000E9    -2.319124504404508E1     1.085036114460156E2    -1.537325726980022E-1   -1.624756332118172E2    -1.427107677200573E-1   -1.624760578248671E2    -2.352925113272844E1     1.040744061912851E2
 1.039000000000000E9    -2.321755918655494E1     1.080489133612720E2    -1.513085196659946E-1   -1.629964471153211E2    -1.408919099293806E-1   -1.630477178235517E2    -2.357855699934178E1     1.038062644382587E2
 1.040000000000000E9    -2.317807260516311E1     1.072584947527964E2    -1.558344912008469E-1   -1.635095308993863E2    -1.397870483865017E-1   -1.634756153605368E2    -2.348515012699285E1     1.033820396079762E2
 1.041000000000000E9    -2.319420477462471E1     1.067889185512555E2    -1.481785994587097E-1   -1.640065957226156E2    -1.387990849668431E-1   -1.639874397890738E2    -2.351847959036620E1     1.027572917696076E2
 1.042000000000000E9    -2.317854013580902E1     1.061798776147162E2    -1.556400819449649E-1   -1.645356567594793E2    -1.511000771108235E-1   -1.644822210653382E2    -2.349908055304391E1     1.020061388122173E2
 1.043000000000000E9    -2.313028642832430E1     1.055994419706718E2    -1.460746292051179E-1   -1.649989810372859E2    -1.460807305609720E-1   -1.650097126899081E2    -2.345255197365559E1     1.019636980597320E2
 1.044000000000000E9    -2.303270221151369E1     1.050721040848978E2    -1.530367494201608E-1   -1.655216209975628E2    -1.449657448389524E-1   -1.655365735816274E2    -2.352994389752218E1     1.012246299530856E2
 1.045000000000000E9    -2.309779082657385E1     1.046477727193112E2    -1.490056498004034E-1   -1.659909116466714E2    -1.428652631893547E-1   -1.660242687539391E2    -2.343029242316536E1     1.006205917135476E2
 1.046000000000000E9    -2.305001806378914E1     1.041365668964843E2    -1.572419689131341E-1   -1.665558204023684E2    -1.392368579607859E-1   -1.665110220445893E2    -2.350533663502311E1     1.002485781344658E2
 1.047000000000000E9    -2.306648023133564E1     1.034981286207960E2    -1.539564861120730E-1   -1.670483834191062E2    -1.394928758906353E-1   -1.670281941523236E2    -2.338847437976660E1     9.995756482401947E1
 1.048000000000000E9    -2.306970016434671E1     1.028387404945521E2    -1.582749864133696E-1   -1.675152776284774E2    -1.517259866720911E-1   -1.674993890459163E2    -2.343875208171000E1     9.921003998358469E1
 1.049000000000000E9    -2.310920171416412E1     1.020963271550479E2    -1.548111613674917E-1   -1.680048317921928E2    -1.448193333103649E-1   -1.680165093194724E2    -2.343041753513398E1     9.911962364552019E1
 1.050000000000000E9    -2.302046434017496E1     1.013011372822845E2    -1.566037308565079E-1   -1.685620383075945E2    -1.436211661711870E-1   -1.685201169616044E2    -2.334724538693289E1     9.865218413556161E1
 1.051000000000000E9    -2.305133817362043E1     1.010828694353845E2    -1.498411302681051E-1   -1.690227526492579E2    -1.440208280165656E-1   -1.690290628229613E2    -2.344145145889799E1     9.823263754605483E1
 1.052000000000000E9    -2.302770001964133E1     1.003913184102391E2    -1.543887134109165E-1   -1.695089617025900E2    -1.466511611514109E-1   -1.695481982827492E2    -2.336063504279071E1     9.809221145552786E1
 1.053000000000000E9    -2.303578595849160E1     9.975823906714717E1    -1.503591947979563E-1   -1.700539810694679E2    -1.476946215879273E-1   -1.699898055784318E2    -2.329992215757734E1     9.727424011063472E1
 1.054000000000000E9    -2.295812149452858E1     9.935818871759039E1    -1.549592491033130E-1   -1.705327175001741E2    -1.426807210391082E-1   -1.705503594955538E2    -2.342371271842222E1     9.673587050863291E1
 1.055000000000000E9    -2.306485058362696E1     9.856895105308853E1    -1.499629587908495E-1   -1.710574753398002E2    -1.448327228875093E-1   -1.710150093204161E2    -2.335753510787492E1     9.663416434867976E1
 1.056000000000000E9    -2.300807494470524E1     9.814130326900512E1    -1.559824109066939E-1   -1.715004943362871E2    -1.417724094915444E-1   -1.715445113200605E2    -2.333860425010589E1     9.638072561355847E1
 1.057000000000000E9    -2.305939493077003E1     9.752198691166019E1    -1.607158948270160E-1   -1.720437385409639E2    -1.487065807528549E-1   -1.720588155879738E2    -2.338491005127724E1     9.577916935916032E1
 1.058000000000000E9    -2.301445834992004E1     9.663956538464059E1    -1.500745864587704E-1   -1.725751444971630E2    -1.473890697712324E-1   -1.725458154130559E2    -2.337630194217802E1     9.511633456972038E1
 1.059000000000000E9    -2.305233981329699E1     9.614232939512095E1    -1.553394962776261E-1   -1.730620894024287E2    -1.471623759851579E-1   -1.730598201435268E2    -2.342593051410500E1     9.468787322078730E1
 1.060000000000000E9    -2.300810974851076E1     9.559268366560455E1    -1.516097835671232E-1   -1.735261859733231E2    -1.432511596419792E-1   -1.735269974941497E2    -2.339560245991143E1     9.443073964704617E1
 1.061000000000000E9    -2.304337829127137E1     9.475417215800586E1    -1.505972397403155E-1   -1.740761950779061E2    -1.467008654865409E-1   -1.740297966593789E2    -2.341240706741882E1     9.385086447045791E1
 1.062000000000000E9    -2.306728421268994E1     9.439101650145103E1    -1.506009788642764E-1   -1.745107886344905E2    -1.445614496206100E-1   -1.745316807475523E2    -2.339189252513263E1     9.359920282276225E1
 1.063000000000000E9    -2.304243287083434E1     9.355117649046272E1    -1.541058398371078E-1   -1.750414646906129E2    -1.458865317965854E-1   -1.750516502521528E2    -2.344525355681782E1     9.320287381794091E1
 1.064000000000000E9    -2.303646445531989E1     9.301956268832554E1    -1.560315039378720E-1   -1.755549017567021E2    -1.466190197711312E-1   -1.755393406827993E2    -2.347331799092626E1     9.292088916144363E1
 1.065000000000000E9    -2.308445141055570E1     9.244595376244931E1    -1.535065473206835E-1   -1.760734553792731E2    -1.404189824440380E-1   -1.760336475561786E2    -2.345412055943268E1     9.213312917591210E1
 1.066000000000000E9    -2.304108861613823E1     9.150153124464123E1    -1.565465565009805E-1   -1.766002062144455E2    -1.438658131758460E-1   -1.765721264380681E2    -2.344911613575588E1     9.199622402337884E1
 1.067000000000000E9    -2.311508354730914E1     9.131674948741065E1    -1.580954825673395E-1   -1.770895441986156E2    -1.504592368860214E-1   -1.770339909923869E2    -2.349346313603137E1     9.170390310298696E1
 1.068000000000000E9    -2.314271567446458E1     9.055042702766940E1    -1.554943068406349E-1   -1.775659618710081E2    -1.489130256342042E-1   -1.775621202483317E2    -2.347498208633517E1     9.135335554128591E1
 1.069000000000000E9    -2.311274560277304E1     9.005594555856429E1    -1.546367850343283E-1   -1.780392187315439E2    -1.403408672332812E-1   -1.780727785626718E2    -2.350397610813651E1     9.062702565685302E1
 1.070000000000000E9    -2.312317630092581E1     8.965470565509362E1    -1.522449549756085E-1   -1.785566223613910E2    -1.528068416084965E-1   -1.785327882517200E2    -2.352940114271812E1     9.024148609379031E1
 1.071000000000000E9    -2.319405146480122E1     8.913789586693292E1    -1.512757224281751E-1   -1.790688472488119E2    -1.480245338961552E-1   -1.790384384661736E2    -2.357197015552138E1     9.009458682777233E1
 1.072000000000000E9    -2.324626418904148E1     8.827066708389002E1    -1.489829611879845E-1   -1.795798659840395E2    -1.498194725701407E-1   -1.795848036008492E2    -2.347192646203697E1     8.936380922026481E1
 1.073000000000000E9    -2.323465652216505E1     8.770296938013095E1    -1.614208937489686E-1    1.799682183677625E2    -1.427766874331455E-1    1.799161810101055E2    -2.369854741597045E1     8.893313211058219E1
 1.074000000000000E9    -2.324398916373780E1     8.730853763921533E1    -1.516850536283898E-1    1.794470366783149E2    -1.450886798660281E-1    1.794637458950248E2    -2.358411308720589E1     8.831436008741207E1
 1.075000000000000E9    -2.329851454904173E1     8.714006356011552E1    -1.576676374120344E-1    1.789500806367136E2    -1.455025542939109E-1    1.789492694842857E2    -2.361662161786529E1     8.771986412176888E1
 1.076000000000000E9    -2.326766000137290E1     8.575536908735951E1    -1.555565271117356E-1    1.784039776791505E2    -1.493795654840699E-1    1.784204820633725E2    -2.367703483180291E1     8.758046571808389E1
 1.077000000000000E9    -2.325077658347359E1     8.540801198313959E1    -1.531757209911424E-1    1.779304920193005E2    -1.405827628072622E-1    1.779423241770664E2    -2.373579447151705E1     8.682758896384740E1
 1.078000000000000E9    -2.338680378087813E1     8.520901028896721E1    -1.527705704377251E-1    1.774470773927178E2    -1.495749474159130E-1    1.774754257446068E2    -2.374414875416522E1     8.640320434998330E1
 1.079000000000000E9    -2.331895787057199E1     8.443381838952537E1    -1.562484749524211E-1    1.768929606864402E2    -1.486747253519126E-1    1.769258842462947E2    -2.371346691392945E1     8.588052816038598E1
 1.080000000000000E9    -2.339049904930738E1     8.386499371336475E1    -1.553925738399614E-1    1.763999077479350E2    -1.508483385494247E-1    1.764219134282327E2    -2.377104361667787E1     8.527660432121442E1
 1.081000000000000E9    -2.340279218651981E1     8.354688765084359E1    -1.542436036338999E-1    1.759038968923741E2    -1.456574523850449E-1    1.759303831021479E2    -2.381062202211148E1     8.517513793601256E1
 1.082000000000000E9    -2.351006045168163E1     8.299521077642453E1    -1.507780984219920E-1    1.754126807677420E2    -1.548941243388908E-1    1.754389571661575E2    -2.375286161419181E1     8.535479168494959E1
 1.083000000000000E9    -2.349696673003077E1     8.229781174643145E1    -1.497338180826803E-1    1.748861959314093E2    -1.511312727414671E-1    1.749070931076603E2    -2.395404924977839E1     8.398010670462811E1
 1.084000000000000E9    -2.341246933719769E1     8.200084737125917E1    -1.578097919633678E-1    1.744416842233115E2    -1.454412213820299E-1    1.744292410488183E2    -2.394188836294063E1     8.364391008741022E1
 1.085000000000000E9    -2.349890148972825E1     8.157931563146853E1    -1.481422910453757E-1    1.738944398954411E2    -1.508877339069867E-1    1.738949460896997E2    -2.397763615577943E1     8.250180894122643E1
 1.086000000000000E9    -2.352103956533926E1     8.048610880845041E1    -1.518574515960642E-1    1.733849179688068E2    -1.402795938956519E-1    1.734390264328176E2    -2.396898697910066E1     8.276105564658582E1
 1.087000000000000E9    -2.345833414019608E1     8.015344370784213E1    -1.503769206927622E-1    1.728516533746627E2    -1.477622462399013E-1    1.729527822658565E2    -2.400550741859215E1     8.210742021127338E1
 1.088000000000000E9    -2.357610987123876E1     7.952638377473251E1    -1.503569722281753E-1    1.723973712918185E2    -1.490791901276604E-1    1.724167818534532E2    -2.407728856781100E1     8.151610192314927E1
 1.089000000000000E9    -2.365590425362744E1     7.951730013336680E1    -1.528752258359302E-1    1.719335509120896E2    -1.461518558637813E-1    1.718724927409751E2    -2.406013832475395E1     8.107670290127250E1
 1.090000000000000E9    -2.367274315212794E1     7.895293950175126E1    -1.534514227290566E-1    1.713962040870340E2    -1.486429372531243E-1    1.713932617069860E2    -2.405021530215000E1     8.049734456371719E1
 1.091000000000000E9    -2.373141265883360E1     7.808516214318830E1    -1.531708137724336E-1    1.708510003552218E2    -1.465243340300284E-1    1.709070439132384E2    -2.412984937414575E1     7.986242357728989E1
