#  HZ   S   DB   R     50.00 
! Rohde & Schwarz Vector Network Analyzer 
! Rohde-Schwarz,ZNB8-4Port,1311601044102961,2.82
! Created: UTC 3/4/2022, 4:05:22 PM
! freq[Hz]                db:S11                  ang:S11                 db:S21                  ang:S21                 db:S12                  ang:S12                 db:S22                  ang:S22
 1.000000000000000E9    -2.312400175889218E1     6.136104913971111E1    -1.843967622134024E-1    1.566680115759534E2    -1.717898229199301E-1    1.566576571479044E2    -2.360618471768014E1     6.171564902370691E1
 1.001000000000000E9    -2.314827971950781E1     6.089197733120094E1    -1.900693667501092E-1    1.561293330025650E2    -1.795480846560995E-1    1.561039181383042E2    -2.366000313020767E1     6.103635535370422E1
 1.002000000000000E9    -2.325802349990806E1     6.056919857670845E1    -1.868507578879779E-1    1.555260351916668E2    -1.769684869562071E-1    1.555315064457095E2    -2.379699840386870E1     6.071370898857430E1
 1.003000000000000E9    -2.328569853159956E1     5.964227778233455E1    -1.941209812394346E-1    1.549973507536365E2    -1.800819509197127E-1    1.549717937233250E2    -2.374077331945926E1     5.957040731378348E1
 1.004000000000000E9    -2.330726023211206E1     5.893380438710563E1    -1.886974009771469E-1    1.544317933217818E2    -1.751232348226328E-1    1.544077620083227E2    -2.387605739411464E1     5.813459788830873E1
 1.005000000000000E9    -2.339773599027564E1     5.844441788965467E1    -1.902459712574660E-1    1.538092179385053E2    -1.781171279995763E-1    1.538418880192033E2    -2.386091243624460E1     5.801646668438605E1
 1.006000000000000E9    -2.343841702208337E1     5.769741232665614E1    -1.890414536052810E-1    1.532763492841522E2    -1.758279087544274E-1    1.533470861519440E2    -2.394869477830563E1     5.782862270077769E1
 1.007000000000000E9    -2.349835795001130E1     5.711768969795255E1    -1.908676194426108E-1    1.527543115620687E2    -1.799878883560018E-1    1.527509503866419E2    -2.404214301733206E1     5.626163555346776E1
 1.008000000000000E9    -2.351303754448751E1     5.644363875074721E1    -1.933910491933688E-1    1.521776285142362E2    -1.845763418356317E-1    1.521854992113588E2    -2.404243681714343E1     5.592197276288079E1
 1.009000000000000E9    -2.364968687049959E1     5.577697284648768E1    -1.935094511854575E-1    1.516206230627987E2    -1.854996610363651E-1    1.516401880252091E2    -2.405389618227106E1     5.508273063369768E1
 1.010000000000000E9    -2.359429666825977E1     5.523401809018741E1    -1.915040102409352E-1    1.510477333073480E2    -1.772973827563292E-1    1.510754223614214E2    -2.422279574899293E1     5.364390598312939E1
 1.011000000000000E9    -2.368152747163756E1     5.463287358772409E1    -1.920348256108202E-1    1.504718207314166E2    -1.847142321918829E-1    1.505279697990241E2    -2.424903899203589E1     5.342641854578975E1
 1.012000000000000E9    -2.380470630380449E1     5.377719637757064E1    -1.896360628231856E-1    1.499591591075883E2    -1.843586307166048E-1    1.499723908718827E2    -2.426504921958301E1     5.251485063552749E1
 1.013000000000000E9    -2.385366347595209E1     5.348107681465478E1    -1.935905442362992E-1    1.493886353827285E2    -1.869673258528608E-1    1.493955367381618E2    -2.428647297021803E1     5.184709305351296E1
 1.014000000000000E9    -2.389771342732007E1     5.271993841351824E1    -1.921830460575553E-1    1.488739040140948E2    -1.857522015997052E-1    1.488494960104551E2    -2.441402897097640E1     5.142291942892314E1
 1.015000000000000E9    -2.396954682115354E1     5.187063933219409E1    -1.930422255971021E-1    1.483167638795328E2    -1.876747460663744E-1    1.482557023651867E2    -2.452830517363627E1     5.026300819142197E1
 1.016000000000000E9    -2.407580241776088E1     5.115867438231029E1    -1.940698573176320E-1    1.476931369642115E2    -1.858521735806554E-1    1.477402853249131E2    -2.451278419132260E1     4.972876698707788E1
 1.017000000000000E9    -2.408965716879155E1     5.082388708343425E1    -1.979106050428028E-1    1.471952059044471E2    -1.856933229679562E-1    1.471833383376246E2    -2.454968483486603E1     4.853749919046933E1
 1.018000000000000E9    -2.413284027600614E1     5.014127719625169E1    -1.927420907722688E-1    1.466033043264561E2    -1.874250710063536E-1    1.466338070074395E2    -2.470922916280582E1     4.766961548526057E1
 1.019000000000000E9    -2.430224319691217E1     4.880689518687666E1    -1.979673425872982E-1    1.460076422356983E2    -1.822817957098886E-1    1.460342941280347E2    -2.470520201125380E1     4.753261294112404E1
 1.020000000000000E9    -2.431698372743295E1     4.866075143069399E1    -1.976950136780841E-1    1.454981302507885E2    -1.831609950078700E-1    1.454790704879161E2    -2.478199401350933E1     4.650557058008122E1
 1.021000000000000E9    -2.450476733530099E1     4.814249713604346E1    -1.972792205522331E-1    1.449354528517814E2    -1.847486387669986E-1    1.449683072296938E2    -2.500496991430633E1     4.591175471575222E1
 1.022000000000000E9    -2.453291107950372E1     4.752094874146344E1    -1.995793800533473E-1    1.443731383270927E2    -1.866075379130575E-1    1.444070725532076E2    -2.489233129585484E1     4.604411549188075E1
 1.023000000000000E9    -2.459589838311946E1     4.624337202419310E1    -1.978129164266885E-1    1.438541357885519E2    -1.866315978820531E-1    1.438360850643267E2    -2.506955680225503E1     4.494833254252526E1
 1.024000000000000E9    -2.464302230249097E1     4.596087642075302E1    -1.891594596844657E-1    1.432820267479575E2    -1.807061217663072E-1    1.432915010721321E2    -2.512412459176326E1     4.476571280759360E1
 1.025000000000000E9    -2.476307385890571E1     4.569494746010451E1    -1.935682915889924E-1    1.427272213012287E2    -1.864119741633199E-1    1.427345904555236E2    -2.531437589510314E1     4.321311834211751E1
 1.026000000000000E9    -2.483411981719075E1     4.486132044269129E1    -1.961101678743721E-1    1.421773491076053E2    -1.873419611173429E-1    1.421284366942253E2    -2.524637198037619E1     4.305526190278770E1
 1.027000000000000E9    -2.484313459714369E1     4.413785272585080E1    -1.978583999321265E-1    1.415770448175113E2    -1.829036739333718E-1    1.416376948286987E2    -2.540588016263755E1     4.263934370438886E1
 1.028000000000000E9    -2.505465127451452E1     4.355816154894153E1    -1.963139693710078E-1    1.410800131119415E2    -1.819869819003334E-1    1.410530633024932E2    -2.542371874585688E1     4.171763591375824E1
 1.029000000000000E9    -2.510761456782801E1     4.288810983218204E1    -2.003031048793417E-1    1.404952489248321E2    -1.857707781179213E-1    1.405091631124843E2    -2.554605381394448E1     4.172311725915547E1
 1.030000000000000E9    -2.515405588985956E1     4.185272961199565E1    -1.903207131835681E-1    1.399330550842157E2    -1.828009428874919E-1    1.399914774038026E2    -2.553186165528895E1     4.093543240330924E1
 1.031000000000000E9    -2.518343308562366E1     4.153807574418183E1    -1.903411397160024E-1    1.393662016393095E2    -1.811683623515073E-1    1.393460240618255E2    -2.581988253023110E1     4.062626474584011E1
 1.032000000000000E9    -2.534156623631981E1     4.025572830412564E1    -1.847214371710264E-1    1.388017066063824E2    -1.827544736416391E-1    1.388209447764625E2    -2.579921235901331E1     4.093555916812428E1
 1.033000000000000E9    -2.543983876293500E1     3.980740303658418E1    -1.962661326858521E-1    1.382688125744612E2    -1.809668043116156E-1    1.382666344181784E2    -2.587688500569469E1     3.950997938880857E1
 1.034000000000000E9    -2.566166157822664E1     3.922839871180292E1    -1.878600411470723E-1    1.377190032414258E2    -1.829087412306491E-1    1.377474415661295E2    -2.597855631202883E1     3.933479720425111E1
 1.035000000000000E9    -2.560923784691671E1     3.818006688148920E1    -1.862413756652023E-1    1.371503368029020E2    -1.834814994655816E-1    1.371686485185584E2    -2.613774846869750E1     3.860122702778384E1
 1.036000000000000E9    -2.566814178242296E1     3.826017797839479E1    -1.868733993188419E-1    1.365796458772340E2    -1.804737665460045E-1    1.365897018334144E2    -2.627554172399571E1     3.873963540955923E1
 1.037000000000000E9    -2.578052902954784E1     3.764367661323421E1    -1.881988497565450E-1    1.360271297103552E2    -1.768758799842314E-1    1.360689101613971E2    -2.623745246188861E1     3.830900655523397E1
 1.038000000000000E9    -2.596167840420291E1     3.688225876362009E1    -1.855180391447398E-1    1.354670421469272E2    -1.726428867615307E-1    1.355030589294306E2    -2.633264215740502E1     3.742081876794924E1
 1.039000000000000E9    -2.599938234067967E1     3.623623718690207E1    -1.866019824719814E-1    1.348863226885957E2    -1.752085638214916E-1    1.348970272469428E2    -2.643730365630688E1     3.814594861403970E1
 1.040000000000000E9    -2.610669333707355E1     3.516803394220894E1    -1.852092178879998E-1    1.343708526930076E2    -1.746374784864425E-1    1.343311876144132E2    -2.654257772434048E1     3.633750151025775E1
 1.041000000000000E9    -2.622235725664080E1     3.447658482673896E1    -1.811552634494489E-1    1.337983723040954E2    -1.711629636750242E-1    1.337624275856390E2    -2.668226290369868E1     3.600791241302979E1
 1.042000000000000E9    -2.638336770116798E1     3.375470063239006E1    -1.799444845701496E-1    1.332191598882296E2    -1.735479292423236E-1    1.332352227395887E2    -2.680171118123937E1     3.589372767644829E1
 1.043000000000000E9    -2.634962365452712E1     3.283839084334317E1    -1.760636528350302E-1    1.326958780960840E2    -1.759993248530686E-1    1.326426293027795E2    -2.697038343146522E1     3.541215896900683E1
 1.044000000000000E9    -2.661646193013753E1     3.187583711146543E1    -1.788856886070665E-1    1.320838104128625E2    -1.732134809311521E-1    1.321140043755285E2    -2.710828081142115E1     3.519979425978805E1
 1.045000000000000E9    -2.670314370004132E1     3.192853007675020E1    -1.814626877045411E-1    1.314836269654795E2    -1.678707977771569E-1    1.315409714145697E2    -2.712546470425734E1     3.439299882870308E1
 1.046000000000000E9    -2.677559787878230E1     3.141296344741504E1    -1.806332861222759E-1    1.309977587425465E2    -1.678753183850829E-1    1.310093153303775E2    -2.740331418635000E1     3.459563547761375E1
 1.047000000000000E9    -2.682871895414141E1     2.990576344218501E1    -1.769427526141748E-1    1.304338693932081E2    -1.688176558217086E-1    1.304312594571751E2    -2.753448624206601E1     3.364215747063409E1
 1.048000000000000E9    -2.695506963542908E1     2.956760912021092E1    -1.751587649316828E-1    1.298319237982562E2    -1.664867592514658E-1    1.298598324343546E2    -2.756133907786131E1     3.359650544670064E1
 1.049000000000000E9    -2.709710878921516E1     2.935877138323820E1    -1.808368004772443E-1    1.292924536020887E2    -1.717756225167842E-1    1.292867970140465E2    -2.776536098584643E1     3.325402999230695E1
 1.050000000000000E9    -2.728636672755861E1     2.750509451844670E1    -1.716825949485768E-1    1.287221374457661E2    -1.664199677137893E-1    1.287539160094327E2    -2.789589277647135E1     3.324559350995012E1
 1.051000000000000E9    -2.736282138546713E1     2.706717925265751E1    -1.797488003576722E-1    1.281257083460135E2    -1.576649789450657E-1    1.281559315713198E2    -2.796308628721936E1     3.256741375440522E1
 1.052000000000000E9    -2.754182260325273E1     2.622434953455312E1    -1.748990804036944E-1    1.275644622041836E2    -1.608133382285690E-1    1.276002223640167E2    -2.797179533284577E1     3.176214505223186E1
 1.053000000000000E9    -2.768683247165255E1     2.601432462495813E1    -1.719426912955491E-1    1.270481479823382E2    -1.655569437484944E-1    1.270442054716499E2    -2.833433018478683E1     3.077580138088220E1
 1.054000000000000E9    -2.777104929445943E1     2.480333879091646E1    -1.719084425898542E-1    1.264795943890841E2    -1.648216166778052E-1    1.264770729122883E2    -2.847258775581116E1     3.142297764057382E1
 1.055000000000000E9    -2.791708702271870E1     2.465162513528895E1    -1.648025340992813E-1    1.259286318661304E2    -1.628074727357793E-1    1.258944320674654E2    -2.851295584096938E1     3.013542994341023E1
 1.056000000000000E9    -2.801513537789336E1     2.358756304865734E1    -1.632389990276528E-1    1.253469504049156E2    -1.698291854268003E-1    1.253275327859295E2    -2.863436307721408E1     3.047147844582325E1
 1.057000000000000E9    -2.818370121465701E1     2.338335707463733E1    -1.724099573269583E-1    1.247522488510433E2    -1.587866220762853E-1    1.247568227165996E2    -2.885130664003967E1     2.982734512815236E1
 1.058000000000000E9    -2.835538333844133E1     2.217931872660964E1    -1.666956252237364E-1    1.241930220648779E2    -1.603071412092467E-1    1.242084710984261E2    -2.895840237358240E1     2.886907817582554E1
 1.059000000000000E9    -2.858432683558426E1     2.131452622191551E1    -1.646095493494872E-1    1.236462715180287E2    -1.639664652745547E-1    1.236229888842054E2    -2.924697243550299E1     2.783037897000829E1
 1.060000000000000E9    -2.879677962669027E1     2.021311344730483E1    -1.657279763891120E-1    1.230548582133418E2    -1.641828552544405E-1    1.230756771920220E2    -2.924060856737286E1     2.812457260673719E1
 1.061000000000000E9    -2.888447710795894E1     2.025016636463415E1    -1.674168593580409E-1    1.225293825316633E2    -1.576376750240702E-1    1.225413761371005E2    -2.966151127391674E1     2.699035742739832E1
 1.062000000000000E9    -2.903195824492748E1     1.930393261126302E1    -1.607884241250450E-1    1.219388577869689E2    -1.558732713628108E-1    1.219759149742009E2    -2.968640760592070E1     2.665095255589775E1
 1.063000000000000E9    -2.907628601453351E1     1.837244155765487E1    -1.643706816408820E-1    1.214287028992251E2    -1.511116325573247E-1    1.213984466229779E2    -2.987387979112499E1     2.716462089021369E1
 1.064000000000000E9    -2.930598305230532E1     1.799895575281359E1    -1.657059876087464E-1    1.208255901201785E2    -1.571205852606372E-1    1.208580225032482E2    -3.014723917347177E1     2.724549713039463E1
 1.065000000000000E9    -2.963390619752664E1     1.681309855862333E1    -1.648240262427736E-1    1.202814782061237E2    -1.537849879405717E-1    1.202748730754866E2    -3.040637879427732E1     2.544275028673552E1
 1.066000000000000E9    -2.973202249122709E1     1.592982159582012E1    -1.663236177586324E-1    1.196902402782113E2    -1.488765700670624E-1    1.196962900653898E2    -3.061425646699846E1     2.460655736388273E1
 1.067000000000000E9    -2.986664490553628E1     1.543179929161135E1    -1.562790090447714E-1    1.190704926845578E2    -1.549796342616046E-1    1.191131465297563E2    -3.070284174466153E1     2.449471302965012E1
 1.068000000000000E9    -3.010444802551744E1     1.416810828564733E1    -1.612303470602840E-1    1.185365006867153E2    -1.550673894639524E-1    1.185622553241507E2    -3.082045939280782E1     2.449154131739207E1
 1.069000000000000E9    -3.033707779030844E1     1.379272465727220E1    -1.588409219798620E-1    1.179942079700649E2    -1.583916850447052E-1    1.179796254248795E2    -3.107596725156245E1     2.332165573610380E1
 1.070000000000000E9    -3.042640897766145E1     1.274606550761115E1    -1.625352075772393E-1    1.174146748681123E2    -1.642028864690190E-1    1.174345097842857E2    -3.130860541815881E1     2.215065545131046E1
 1.071000000000000E9    -3.059915089052878E1     1.220764917053963E1    -1.654453699383069E-1    1.168950934603427E2    -1.565812847692037E-1    1.168645365458292E2    -3.163268611526892E1     2.168474175284829E1
 1.072000000000000E9    -3.096200948908973E1     1.225239366163546E1    -1.564466221835412E-1    1.163108686558530E2    -1.446167354658227E-1    1.162527301808452E2    -3.165214639500064E1     1.980647631501156E1
 1.073000000000000E9    -3.116805684465672E1     1.006744178798835E1    -1.534738262311640E-1    1.157046013914201E2    -1.523337570952089E-1    1.157386378121656E2    -3.215188260265334E1     2.110021570996803E1
 1.074000000000000E9    -3.122556625317121E1     1.133484743596365E1    -1.542201616628833E-1    1.151785611491035E2    -1.465416244792674E-1    1.151713789774673E2    -3.222143955855184E1     1.960769822096948E1
 1.075000000000000E9    -3.164629719109203E1     9.790365830805929      -1.597389204961723E-1    1.145729315954785E2    -1.479773517103773E-1    1.146310218849937E2    -3.269963709310692E1     1.845965807707346E1
 1.076000000000000E9    -3.174316822218239E1     7.949174686794685      -1.533304114760324E-1    1.140324126374695E2    -1.522329146004978E-1    1.140560991853574E2    -3.273784147077137E1     1.788401112790470E1
 1.077000000000000E9    -3.201918128055174E1     7.437437850730231      -1.603429743311987E-1    1.135102892064578E2    -1.483419582340169E-1    1.134599246425187E2    -3.316691443934533E1     1.730057177495876E1
 1.078000000000000E9    -3.247171723798817E1     6.967852011251869      -1.557125278557801E-1    1.128998585488766E2    -1.495643158169840E-1    1.129021856019654E2    -3.348007607328047E1     1.441544385066288E1
 1.079000000000000E9    -3.238343559154042E1     5.508402636677833      -1.614499627666253E-1    1.122903107690767E2    -1.456187809656978E-1    1.123756338159026E2    -3.350190737544946E1     1.427898515769145E1
 1.080000000000000E9    -3.279414988294322E1     3.960790128269442      -1.594947771948770E-1    1.117278387451309E2    -1.508521096740638E-1    1.117960252764026E2    -3.387466289788510E1     1.338487260803444E1
 1.081000000000000E9    -3.300588310558509E1     3.980583614480161      -1.573935134789641E-1    1.111970641238449E2    -1.504940692947849E-1    1.112300565076849E2    -3.437949738282676E1     1.482733539079289E1
 1.082000000000000E9    -3.328233733891145E1     4.186436437470214      -1.559509041141250E-1    1.106457976213885E2    -1.505867344563066E-1    1.106375144512100E2    -3.408776419830001E1     1.125831025394676E1
 1.083000000000000E9    -3.355309653397163E1     3.987794552283092      -1.509167270030783E-1    1.100612679447866E2    -1.457632198860296E-1    1.100572386427664E2    -3.495810213011494E1     1.080342472638946E1
 1.084000000000000E9    -3.385716554870085E1     2.264686291136236      -1.599955765333296E-1    1.094991682288550E2    -1.442468677948703E-1    1.094946192031389E2    -3.509284526632320E1     1.068233278901140E1
 1.085000000000000E9    -3.413024319957675E1     2.550445660242315      -1.551143518623507E-1    1.089132362826526E2    -1.531852697696466E-1    1.089682088631825E2    -3.545992689688261E1     7.832761887603213
 1.086000000000000E9    -3.469829007235446E1    -1.007568144531741      -1.559120932215940E-1    1.084187420404600E2    -1.496743909527160E-1    1.084088621858716E2    -3.559980900193531E1     7.418709698254525
 1.087000000000000E9    -3.456210592617788E1    -1.378571730851192      -1.512550860626960E-1    1.077856727114805E2    -1.513622074783079E-1    1.078571661217167E2    -3.604291354082450E1     5.582405628111046
 1.088000000000000E9    -3.506778974938675E1    -2.937874019706144      -1.565173562968033E-1    1.072086604532220E2    -1.481328548692607E-1    1.072609626685150E2    -3.650992770753980E1     5.244108672133679
 1.089000000000000E9    -3.569422294728643E1    -8.343431429071523E-1   -1.561683323943973E-1    1.066744972668916E2    -1.499793641656276E-1    1.066458276191241E2    -3.680434118576086E1     3.398430311538628
 1.090000000000000E9    -3.572824984086014E1    -3.603324476750333      -1.575951286494836E-1    1.061424122976045E2    -1.515178296994351E-1    1.060881621241673E2    -3.661397913655706E1     1.546318528142293
 1.091000000000000E9    -3.641983359707921E1    -5.264713140271390      -1.583591724394793E-1    1.055386824724592E2    -1.456158940844352E-1    1.055758722395363E2    -3.723910547705333E1    -1.658772857031179
