#  HZ   S   DB   R     50.00 
! Rohde & Schwarz Vector Network Analyzer 
! Rohde-Schwarz,ZNB8-4Port,1311601044102961,2.82
! Created: UTC 3/4/2022, 4:06:22 PM
! freq[Hz]                db:S11                  ang:S11                 db:S21                  ang:S21                 db:S12                  ang:S12                 db:S22                  ang:S22
 1.000000000000000E9    -3.243386362571773E1     1.546105923361205E1    -1.871198415590935E-1    1.164100320461776E2    -1.722565496907464E-1    1.163816832696507E2    -3.596984555584091E1     1.773936493504564E1
 1.001000000000000E9    -3.257905961064326E1     1.530688090259392E1    -1.858222190678274E-1    1.158323004732922E2    -1.762531401335058E-1    1.157971403347860E2    -3.636073291919939E1     1.583791126709446E1
 1.002000000000000E9    -3.296803170582947E1     1.491486939201877E1    -1.899470026040575E-1    1.152101773585735E2    -1.748437979495033E-1    1.151897791396507E2    -3.673023205353596E1     1.647134493476874E1
 1.003000000000000E9    -3.311818278486569E1     1.486423561476956E1    -1.872455478279633E-1    1.146017103953380E2    -1.735557292190056E-1    1.145600217927413E2    -3.706392294304588E1     1.400191770210097E1
 1.004000000000000E9    -3.340027551308234E1     1.326687921575095E1    -1.835908737076844E-1    1.139551391949718E2    -1.743650655874542E-1    1.139794042144415E2    -3.753706102369114E1     1.088925824707547E1
 1.005000000000000E9    -3.364542089729077E1     1.188899192917243E1    -1.813843386622062E-1    1.133775306091460E2    -1.755912117155264E-1    1.133456757002756E2    -3.798636611056325E1     1.077883580511034E1
 1.006000000000000E9    -3.403011775013628E1     9.890607243043048      -1.904364021367829E-1    1.128021068693430E2    -1.796056901344848E-1    1.127857560740739E2    -3.796535324393769E1     8.760947539900903
 1.007000000000000E9    -3.439350122881633E1     1.147536694734547E1    -1.849832513289664E-1    1.121658428340236E2    -1.742737651950729E-1    1.121602713922938E2    -3.844580771159106E1     6.742709777587515
 1.008000000000000E9    -3.453414351872394E1     1.032136269589686E1    -1.886753876409821E-1    1.115373570238959E2    -1.705737277328232E-1    1.115611973763327E2    -3.884161360528889E1     6.751724824911879
 1.009000000000000E9    -3.513480200252803E1     8.836985062844649      -1.901977691667718E-1    1.109329694274419E2    -1.720894493323335E-1    1.109358989426373E2    -3.954638829258987E1     6.082241140144854
 1.010000000000000E9    -3.525422460429014E1     5.924251119752056      -1.882072339618192E-1    1.103342754229521E2    -1.736646003535203E-1    1.103650127435059E2    -4.033441626384829E1     1.307728373094560
 1.011000000000000E9    -3.542439976934531E1     4.770919771000719      -1.914902792104544E-1    1.097084113059043E2    -1.750517155346757E-1    1.097633290325858E2    -4.055878946980170E1     1.707272240037697
 1.012000000000000E9    -3.591274136018176E1     6.208095354983076      -1.911771592428853E-1    1.091635742779079E2    -1.719632540619566E-1    1.091628053951047E2    -4.132051898392695E1     1.987341657124892
 1.013000000000000E9    -3.655488364446012E1     4.377084576702623      -1.862404816840895E-1    1.085798233235225E2    -1.767714275255558E-1    1.085456166239804E2    -4.146182421502031E1    -2.351836506108404
 1.014000000000000E9    -3.650610549169652E1     2.372931518542174      -1.867930305796316E-1    1.079450009002190E2    -1.777671760711284E-1    1.079160673323874E2    -4.223496625790814E1    -4.776499125683013
 1.015000000000000E9    -3.704770562151882E1     1.270351114187543      -1.890280668567352E-1    1.073140884417301E2    -1.769866776191893E-1    1.073095027459689E2    -4.301099512904395E1    -7.929669822620825
 1.016000000000000E9    -3.759998583083026E1    -1.989387097524791E-1   -1.838455648392060E-1    1.067016401292251E2    -1.684778196673097E-1    1.067033455479803E2    -4.376792122864597E1    -1.004599220967802E1
 1.017000000000000E9    -3.760820097709703E1    -1.800434344821060      -1.882129414473902E-1    1.060802373893657E2    -1.745895607384376E-1    1.060971115577266E2    -4.446060651333681E1    -1.101861723284653E1
 1.018000000000000E9    -3.823097384581986E1    -5.141290973625192      -1.836397914145940E-1    1.055077321128254E2    -1.803766863092782E-1    1.055359782392055E2    -4.587856451934648E1    -1.170768503431741E1
 1.019000000000000E9    -3.905578975598541E1    -7.380919595260260      -1.827461826338689E-1    1.048809271221663E2    -1.772038713125921E-1    1.049100968531400E2    -4.653474550401288E1    -1.951795790177393E1
 1.020000000000000E9    -3.933040817906600E1    -7.820524390154279      -1.898054003098769E-1    1.042417649861742E2    -1.772196950145496E-1    1.042937541424657E2    -4.863338544600189E1    -2.186310684339344E1
 1.021000000000000E9    -4.012931947424899E1    -1.165898146193318E1    -1.876153292224958E-1    1.036675776584410E2    -1.769880100446010E-1    1.037121857036748E2    -5.131613226889942E1    -2.626601342874811E1
 1.022000000000000E9    -4.047294050984020E1    -1.158057563207176E1    -1.856301813419679E-1    1.030620173312109E2    -1.814189842992458E-1    1.031229938155763E2    -5.154437529291467E1    -2.187850293630669E1
 1.023000000000000E9    -4.043765984395790E1    -1.728837240228106E1    -1.889945166162101E-1    1.024856410090219E2    -1.825204956194346E-1    1.024766005259042E2    -5.247506841622502E1    -4.155952782072586E1
 1.024000000000000E9    -4.125419149041318E1    -2.003139486725340E1    -1.854361143971677E-1    1.018836200837007E2    -1.755954157007140E-1    1.018567792154161E2    -5.473574676347702E1    -6.492479291419582E1
 1.025000000000000E9    -4.221386724353394E1    -2.213951463268621E1    -1.888168455220898E-1    1.012695678798585E2    -1.785320195377884E-1    1.012780087232558E2    -5.516956376101430E1    -8.752803965698851E1
 1.026000000000000E9    -4.309186806930413E1    -2.612332859513708E1    -1.896002458619927E-1    1.006297620963354E2    -1.768604709299181E-1    1.006396426122176E2    -5.593286852655816E1    -1.128995674359957E2
 1.027000000000000E9    -4.329582282085740E1    -3.028665927780498E1    -1.866558300781959E-1    1.000705507208674E2    -1.756588120544642E-1    1.000428400339071E2    -5.378142166166980E1    -1.317728974259082E2
 1.028000000000000E9    -4.478845017380442E1    -3.603854633268551E1    -1.925928869628462E-1    9.946556405645146E1    -1.786701148771235E-1    9.948516334357282E1    -5.206160060756276E1    -1.416040013700997E2
 1.029000000000000E9    -4.464914667734455E1    -4.074313261479492E1    -1.913056677807330E-1    9.881444865092942E1    -1.781657123689649E-1    9.884980621998466E1    -5.121169651090045E1    -1.635820302496693E2
 1.030000000000000E9    -4.486075117384399E1    -4.848036414683326E1    -1.908017895984082E-1    9.823182558441889E1    -1.777351579431568E-1    9.828650030031126E1    -4.936167570451878E1    -1.537539044159742E2
 1.031000000000000E9    -4.617716236209552E1    -5.887214995658102E1    -1.897934845349798E-1    9.761872254292005E1    -1.806573485239136E-1    9.762506601199472E1    -4.587584807760999E1    -1.667467111438339E2
 1.032000000000000E9    -4.635268465418164E1    -7.045125262646118E1    -1.860125143686600E-1    9.702545515018312E1    -1.758852670821867E-1    9.703248863535406E1    -4.680578291875172E1    -1.693837526622176E2
 1.033000000000000E9    -4.588338301087282E1    -8.015647451286780E1    -1.908784429651146E-1    9.639035374429560E1    -1.841700458863918E-1    9.643427496551516E1    -4.489943477807660E1    -1.680128071394667E2
 1.034000000000000E9    -4.639059485893920E1    -9.193096689963153E1    -1.930439569748791E-1    9.582410738778516E1    -1.800647461625988E-1    9.583503198868019E1    -4.361108482963067E1    -1.717619571253784E2
 1.035000000000000E9    -4.492152448464998E1    -1.012039716823724E2    -1.894311354663881E-1    9.518832977506781E1    -1.848591926861441E-1    9.520966976465992E1    -4.300883480295235E1    -1.756566954788532E2
 1.036000000000000E9    -4.523994464834598E1    -1.024975909233664E2    -1.918399325731255E-1    9.462899077411636E1    -1.823310908803891E-1    9.456922228158176E1    -4.134564726477283E1    -1.762741492281448E2
 1.037000000000000E9    -4.478794320380083E1    -1.127226513282177E2    -1.926902064080469E-1    9.400964986499243E1    -1.780621267722225E-1    9.398148296828539E1    -4.127039573470430E1    -1.749384403313230E2
 1.038000000000000E9    -4.481764828496445E1    -1.232982927338169E2    -1.896083613825778E-1    9.334184313437585E1    -1.781268438656221E-1    9.337512090170172E1    -3.981570542089359E1     1.779323429697190E2
 1.039000000000000E9    -4.376137848767240E1    -1.242948802209100E2    -1.889444256338484E-1    9.277039441422623E1    -1.860170885212251E-1    9.276779047340006E1    -3.997860093865467E1     1.793994253529330E2
 1.040000000000000E9    -4.263417068959359E1    -1.290469671450771E2    -1.886445789988370E-1    9.217177374928590E1    -1.793770464782920E-1    9.218667922663218E1    -3.910745684597406E1     1.788301427601715E2
 1.041000000000000E9    -4.231717180215188E1    -1.392847508249413E2    -1.999560153942171E-1    9.153552162465388E1    -1.706084395015434E-1    9.155237053333440E1    -3.824709770302112E1     1.762202346109031E2
 1.042000000000000E9    -4.148311920206421E1    -1.396088583957957E2    -1.905426913992630E-1    9.092496287502833E1    -1.875608180255155E-1    9.097703126478226E1    -3.793691129832606E1     1.748181159984819E2
 1.043000000000000E9    -4.092066800515121E1    -1.437931685297700E2    -1.884363964566312E-1    9.031621594314912E1    -1.895713337116264E-1    9.035257260925746E1    -3.708510479429214E1     1.733526273052778E2
 1.044000000000000E9    -3.984308408982197E1    -1.487912536383980E2    -1.948070874465582E-1    8.971639382662288E1    -1.824937038290792E-1    8.972918586016068E1    -3.664272297883015E1     1.748112068399299E2
 1.045000000000000E9    -3.940459015657918E1    -1.515725200307196E2    -1.973552382996513E-1    8.911434970222217E1    -1.803840008134295E-1    8.916497938731105E1    -3.626035051589001E1     1.753542851212069E2
 1.046000000000000E9    -3.868432988865069E1    -1.523623438539173E2    -1.923615971682829E-1    8.851450101841058E1    -1.781258552441974E-1    8.857244179391337E1    -3.577760466509647E1     1.714353844239519E2
 1.047000000000000E9    -3.850546003492808E1    -1.574254037089698E2    -1.924410323512233E-1    8.790066099566390E1    -1.854722979904226E-1    8.795434877546006E1    -3.541016801493753E1     1.724384997247474E2
 1.048000000000000E9    -3.808118118754931E1    -1.580004485095430E2    -1.951346664024320E-1    8.729361922386072E1    -1.797722311057013E-1    8.730530083902359E1    -3.489361205943293E1     1.719265800698065E2
 1.049000000000000E9    -3.762041959432382E1    -1.616233602191222E2    -1.898162822543628E-1    8.668850100813064E1    -1.865386496123060E-1    8.672818302038240E1    -3.473530503363961E1     1.704006431468560E2
 1.050000000000000E9    -3.663003998510427E1    -1.611920342410578E2    -1.967449482595925E-1    8.611833653361661E1    -1.891911984907542E-1    8.607947369086176E1    -3.400935031233813E1     1.708918829621246E2
 1.051000000000000E9    -3.652423293729066E1    -1.642721494198319E2    -1.937706817717978E-1    8.549128609164264E1    -1.820430450842865E-1    8.551929650330533E1    -3.388067169129467E1     1.692447869774614E2
 1.052000000000000E9    -3.597879359653791E1    -1.661224862018246E2    -2.018144289388266E-1    8.487408014024636E1    -1.823613331181079E-1    8.493616015200865E1    -3.336838918100692E1     1.696463200563077E2
 1.053000000000000E9    -3.531951392791247E1    -1.665410329879241E2    -1.877918745289532E-1    8.427172004923033E1    -1.869713086422595E-1    8.427646299006510E1    -3.281208995554317E1     1.688576468519248E2
 1.054000000000000E9    -3.495929213476018E1    -1.683988034572963E2    -1.994650588580738E-1    8.367848518395294E1    -1.841053318133924E-1    8.368976456849690E1    -3.264546391523086E1     1.674177444932145E2
 1.055000000000000E9    -3.478814780431728E1    -1.709974732701272E2    -1.893468078477067E-1    8.311957237878954E1    -1.831133853976801E-1    8.305291850722078E1    -3.255578821419498E1     1.683817050130248E2
 1.056000000000000E9    -3.451196068976975E1    -1.724866179133004E2    -1.918946608797538E-1    8.246312094318982E1    -1.867425362765289E-1    8.245458847861353E1    -3.236592726654881E1     1.665566730396894E2
 1.057000000000000E9    -3.407032024913450E1    -1.739013503689800E2    -1.952732003288211E-1    8.184024474299811E1    -1.850634698171631E-1    8.189038294598437E1    -3.194822671621050E1     1.669618496529473E2
 1.058000000000000E9    -3.361666645696332E1    -1.760214570792765E2    -1.987346121629464E-1    8.123493128229461E1    -1.937334784110297E-1    8.132216917672217E1    -3.157614916240269E1     1.656019702323555E2
 1.059000000000000E9    -3.327800626399325E1    -1.774701600658287E2    -2.010705922083712E-1    8.066332990945274E1    -1.937908273528080E-1    8.067176856994760E1    -3.125504548766003E1     1.651555512767098E2
 1.060000000000000E9    -3.302105469999908E1    -1.773957154863068E2    -1.983640050528111E-1    8.005544724367773E1    -1.850749710098044E-1    8.007263682178953E1    -3.118421686232329E1     1.650834094488739E2
 1.061000000000000E9    -3.276376872950601E1    -1.796129602377156E2    -1.919630506436912E-1    7.944276970549895E1    -1.886279847880781E-1    7.947238755558499E1    -3.075276614584482E1     1.641093837366386E2
 1.062000000000000E9    -3.251348124047404E1    -1.790972652164754E2    -1.927321418863081E-1    7.881319800945839E1    -1.870692335399259E-1    7.887847791325947E1    -3.059768708643600E1     1.656074279323445E2
 1.063000000000000E9    -3.211185009127043E1     1.787134575859794E2    -1.908719359554271E-1    7.825601757037809E1    -1.868302397419648E-1    7.826924328047228E1    -3.035236497941779E1     1.624252647955211E2
 1.064000000000000E9    -3.184344197957792E1     1.764058503296489E2    -2.067082408683095E-1    7.763940113039091E1    -1.967340910151322E-1    7.764517669603158E1    -3.016708890413486E1     1.628236518196877E2
 1.065000000000000E9    -3.171016986828586E1     1.769277822280249E2    -1.949162963143165E-1    7.701409185012328E1    -1.831019624997099E-1    7.706322778549101E1    -2.979370800819108E1     1.630635027263762E2
 1.066000000000000E9    -3.128870423792360E1     1.753758416491760E2    -1.993347275959803E-1    7.642595226669285E1    -1.909070160699419E-1    7.644632450806027E1    -2.975125056303787E1     1.627966904986766E2
 1.067000000000000E9    -3.124684002684231E1     1.741922519044116E2    -2.011328357866996E-1    7.579477794793294E1    -1.959441614034379E-1    7.585258902599263E1    -2.942957643520061E1     1.620759185812347E2
 1.068000000000000E9    -3.098786843931430E1     1.732075796874140E2    -2.027776759244373E-1    7.520074493679776E1    -1.845758180170450E-1    7.524190500899935E1    -2.941297209888689E1     1.618454260482262E2
 1.069000000000000E9    -3.071288524322060E1     1.714167210340791E2    -2.024378304359488E-1    7.460925231160725E1    -1.893290740278814E-1    7.462220408076928E1    -2.920431505624759E1     1.614407242856841E2
 1.070000000000000E9    -3.047425333536247E1     1.710475932252453E2    -2.015640554693170E-1    7.399145456041413E1    -1.915028764728166E-1    7.399991285211532E1    -2.897243678234138E1     1.609074721644184E2
 1.071000000000000E9    -3.034463571754080E1     1.698155211947475E2    -1.983475592242753E-1    7.337128797905582E1    -1.911761652736303E-1    7.340581343936333E1    -2.886372303942501E1     1.601443278960649E2
 1.072000000000000E9    -3.020986018990800E1     1.683562084605804E2    -1.994208432434627E-1    7.280025453393316E1    -1.930308287863996E-1    7.285419823239589E1    -2.858445721552269E1     1.598735883165948E2
 1.073000000000000E9    -2.994687433278388E1     1.675872329117445E2    -1.988061239762807E-1    7.217011226297696E1    -1.911426383385920E-1    7.220877395014726E1    -2.848265907013633E1     1.598333607938185E2
 1.074000000000000E9    -2.969821267246653E1     1.660125168340658E2    -1.997830221412213E-1    7.161444841869967E1    -1.971925402995152E-1    7.157896482904796E1    -2.835522885816872E1     1.589346253245288E2
 1.075000000000000E9    -2.943806326520748E1     1.655365593548904E2    -2.048538834298619E-1    7.102621515891987E1    -1.939145827631785E-1    7.099995553765660E1    -2.803048657115621E1     1.586599114704593E2
 1.076000000000000E9    -2.930290762367104E1     1.655097864453445E2    -1.974161576602781E-1    7.034062744687802E1    -1.923064622938161E-1    7.037402497725405E1    -2.800360034710152E1     1.584213266593674E2
 1.077000000000000E9    -2.905296795724725E1     1.647043028083118E2    -2.016866981698048E-1    6.976686879372542E1    -1.931507154177634E-1    6.978661003294226E1    -2.783281186825371E1     1.572213792809757E2
 1.078000000000000E9    -2.904746099765646E1     1.625719518835305E2    -2.023513300758454E-1    6.919900248135119E1    -1.925422223300181E-1    6.915673328647733E1    -2.775368744579691E1     1.577128137137034E2
 1.079000000000000E9    -2.882344077533955E1     1.628199697458976E2    -2.019571220414081E-1    6.854771918395927E1    -1.960805803095390E-1    6.861049441829205E1    -2.756200495556810E1     1.571393289881049E2
 1.080000000000000E9    -2.866232598759115E1     1.619182776297015E2    -2.022056622968894E-1    6.794853932838656E1    -1.963841359113968E-1    6.796190620894549E1    -2.741262093883891E1     1.565666179637273E2
 1.081000000000000E9    -2.851454441985070E1     1.596674210207170E2    -2.036741384682227E-1    6.737010998935276E1    -1.981745072008457E-1    6.737356316261702E1    -2.730537090643907E1     1.549457266205572E2
 1.082000000000000E9    -2.832839755759586E1     1.598229294459794E2    -2.091985370572467E-1    6.675819342518651E1    -1.920048951643998E-1    6.675563181846120E1    -2.725636232325482E1     1.558915508363560E2
 1.083000000000000E9    -2.815422787279789E1     1.588726201441320E2    -2.032222805181104E-1    6.615285182836269E1    -1.988064880935504E-1    6.618040109692485E1    -2.707260830322103E1     1.537192136510580E2
 1.084000000000000E9    -2.804941228573082E1     1.586506703287456E2    -2.099237521834346E-1    6.556214684067628E1    -1.980198683701634E-1    6.554240875571482E1    -2.701370396543469E1     1.537797751819653E2
 1.085000000000000E9    -2.793086021591060E1     1.575540598466309E2    -2.069253607576706E-1    6.491221164185758E1    -1.974231891678427E-1    6.495889351433834E1    -2.684475188044238E1     1.533223122087213E2
 1.086000000000000E9    -2.772753824159054E1     1.560580964295441E2    -2.043658993597171E-1    6.428923308281931E1    -2.013862695644567E-1    6.437003212217272E1    -2.670439324046951E1     1.527546965960138E2
 1.087000000000000E9    -2.753335415851641E1     1.564536499272770E2    -2.067373243734745E-1    6.374762291353105E1    -2.045393801365296E-1    6.372327663105978E1    -2.669572241304149E1     1.527702918847646E2
 1.088000000000000E9    -2.750304902949814E1     1.552141528262426E2    -2.021726968159865E-1    6.312937010226596E1    -1.939010636177408E-1    6.314973354486487E1    -2.649920515937360E1     1.516148636618926E2
 1.089000000000000E9    -2.735103022461175E1     1.540639366186424E2    -2.054218307745754E-1    6.255709411293407E1    -2.092436916819176E-1    6.252787109260132E1    -2.641513056372204E1     1.512670146369535E2
 1.090000000000000E9    -2.722746036857401E1     1.536780954939664E2    -2.104043787283483E-1    6.192813504426938E1    -2.065312474744999E-1    6.191768081836653E1    -2.638363079114977E1     1.510360115736811E2
 1.091000000000000E9    -2.708750607941237E1     1.525574356879191E2    -2.094968780743642E-1    6.133833443560327E1    -1.945839992794415E-1    6.134656150363414E1    -2.613729504197670E1     1.501718554428949E2
