#  HZ   S   DB   R     50.00 
! Rohde & Schwarz Vector Network Analyzer 
! Rohde-Schwarz,ZNB8-4Port,1311601044102961,2.82
! Created: UTC 3/4/2022, 4:06:55 PM
! freq[Hz]                db:S11                  ang:S11                 db:S21                  ang:S21                 db:S12                  ang:S12                 db:S22                  ang:S22
 1.000000000000000E9    -3.439933947529859E1    -1.527214073636622E2    -2.012758682515069E-1    9.581571235072850E1    -1.847206619213862E-1    9.581811932542452E1    -4.002009554926354E1     1.571384799341832E2
 1.001000000000000E9    -3.427408989531110E1    -1.545412832494365E2    -2.030349707653162E-1    9.519583616986321E1    -1.942305727034158E-1    9.523063856020596E1    -3.913467939063781E1     1.609107056330471E2
 1.002000000000000E9    -3.385691169810269E1    -1.564998723174496E2    -2.011475554694532E-1    9.458920485255402E1    -1.902978099397044E-1    9.457711013207138E1    -3.868132887770697E1     1.578470951149641E2
 1.003000000000000E9    -3.363685127374048E1    -1.576660916258165E2    -2.044755283678124E-1    9.395919327484474E1    -1.875146412241082E-1    9.391372604686519E1    -3.824229962397281E1     1.609080975353429E2
 1.004000000000000E9    -3.320860374573076E1    -1.579600237151874E2    -2.060199363063605E-1    9.333201151147179E1    -1.932496751229931E-1    9.333131693851104E1    -3.811341809550190E1     1.637465003874434E2
 1.005000000000000E9    -3.301742536374912E1    -1.596320670749192E2    -2.035898068971835E-1    9.270904879097212E1    -1.941858381761737E-1    9.268980412351498E1    -3.730555642559111E1     1.615421681165477E2
 1.006000000000000E9    -3.277848200023045E1    -1.606231042869961E2    -2.069520515984904E-1    9.207532212305932E1    -1.938204789442055E-1    9.210679776948390E1    -3.721844263779861E1     1.632329750319156E2
 1.007000000000000E9    -3.249165982046291E1    -1.614973738566927E2    -2.106761558726488E-1    9.145533422126324E1    -1.934546328649092E-1    9.143392267221159E1    -3.633375117206278E1     1.622826823425720E2
 1.008000000000000E9    -3.244907340475974E1    -1.622470938255742E2    -2.022271967983960E-1    9.083213939674032E1    -2.014807974020756E-1    9.083434594115263E1    -3.653286834105017E1     1.612613231185353E2
 1.009000000000000E9    -3.196509580574128E1    -1.655913898495838E2    -2.013389559641368E-1    9.018328423229437E1    -1.953311414849200E-1    9.017565073675995E1    -3.570110745731459E1     1.609491696253427E2
 1.010000000000000E9    -3.171763106624998E1    -1.653155447266630E2    -2.145756614898550E-1    8.957477274234573E1    -1.945833571656481E-1    8.959842697584242E1    -3.560932545165102E1     1.609837560804162E2
 1.011000000000000E9    -3.152847248904753E1    -1.666328951346280E2    -2.109561024420750E-1    8.893660425782609E1    -2.000330748674093E-1    8.895796469711291E1    -3.527353944227505E1     1.610330143913612E2
 1.012000000000000E9    -3.114269965595318E1    -1.675024516303793E2    -2.073896564901202E-1    8.831468263784493E1    -1.948543562303891E-1    8.830865629038860E1    -3.492761038422147E1     1.618412949539928E2
 1.013000000000000E9    -3.098825375136692E1    -1.691163239534519E2    -2.079954941536132E-1    8.769040957767226E1    -1.957661406967652E-1    8.769907958469878E1    -3.477342009945709E1     1.618910452219074E2
 1.014000000000000E9    -3.083731066466042E1    -1.692394873301813E2    -2.081724247970689E-1    8.706099964546968E1    -1.951947049827802E-1    8.708126096846658E1    -3.429537613584238E1     1.605509709095649E2
 1.015000000000000E9    -3.059005738972434E1    -1.709546897451914E2    -2.134329298255687E-1    8.644503017435497E1    -1.982297606982748E-1    8.644030866716830E1    -3.403316552844480E1     1.605172092899657E2
 1.016000000000000E9    -3.046408523179060E1    -1.714029915001143E2    -2.120970297021811E-1    8.575997341301986E1    -1.945827905325066E-1    8.583291133781421E1    -3.377690854799808E1     1.590981130254602E2
 1.017000000000000E9    -3.032525203497293E1    -1.715067305807557E2    -2.084002837033661E-1    8.513746306655283E1    -2.009544228271442E-1    8.522910357753456E1    -3.363584620649078E1     1.613975977128804E2
 1.018000000000000E9    -2.999373451532683E1    -1.731256672033364E2    -2.118070262324821E-1    8.455587046438718E1    -2.027983245195163E-1    8.459613458609732E1    -3.323278877438339E1     1.595098599950556E2
 1.019000000000000E9    -2.963399482576978E1    -1.737283480692319E2    -2.112389947817822E-1    8.392225266477028E1    -1.936332810456609E-1    8.391550639759801E1    -3.283804795384101E1     1.590893274194287E2
 1.020000000000000E9    -2.957839401141069E1    -1.748067920490737E2    -2.069744825006528E-1    8.331337339328320E1    -2.009952802249911E-1    8.330163904132712E1    -3.238910877117034E1     1.584662602803744E2
 1.021000000000000E9    -2.929469943077074E1    -1.756950230661745E2    -2.109477560935668E-1    8.267119739077309E1    -2.027840199778336E-1    8.270968003285749E1    -3.226523748656837E1     1.571267257324780E2
 1.022000000000000E9    -2.938346328627983E1    -1.774768663205752E2    -2.090333686501514E-1    8.206463814463184E1    -1.979934505678491E-1    8.209470720535404E1    -3.210433129498747E1     1.563851034481740E2
 1.023000000000000E9    -2.907434543021862E1    -1.774459173028184E2    -2.107478031743577E-1    8.145221300769985E1    -1.987520845616667E-1    8.146523333961167E1    -3.171461254485254E1     1.560798563088193E2
 1.024000000000000E9    -2.882897939604630E1    -1.784708306742943E2    -2.095411502286107E-1    8.081219268417017E1    -2.049507825494817E-1    8.080550023676314E1    -3.158628499433550E1     1.555636802459939E2
 1.025000000000000E9    -2.871675229432791E1    -1.790525362880434E2    -2.094070585483968E-1    8.017677989220744E1    -1.984237155104419E-1    8.017425243092926E1    -3.124828015447336E1     1.552597127960126E2
 1.026000000000000E9    -2.844522451682897E1     1.795300316350790E2    -2.100405180703617E-1    7.951876014502948E1    -2.000202913761486E-1    7.958452586139231E1    -3.100631489583085E1     1.548141113607200E2
 1.027000000000000E9    -2.831488489291325E1     1.794176014641940E2    -2.094092969113253E-1    7.891967547279731E1    -2.004033830707357E-1    7.894534380806148E1    -3.084793776598833E1     1.544222696678288E2
 1.028000000000000E9    -2.822465290059026E1     1.784242581927649E2    -2.182568128002804E-1    7.830257696755328E1    -2.039222301835658E-1    7.831686459320251E1    -3.059563735557963E1     1.546343039567046E2
 1.029000000000000E9    -2.802747874505326E1     1.773044110323424E2    -2.172190848964600E-1    7.767170434430159E1    -2.036977731320266E-1    7.770090384274511E1    -3.055794093733402E1     1.530585728974483E2
 1.030000000000000E9    -2.786637472996116E1     1.764363287417168E2    -2.138041376194772E-1    7.705698022717760E1    -2.005656243179006E-1    7.707067511639401E1    -3.027703330485959E1     1.529024105358274E2
 1.031000000000000E9    -2.763105470283400E1     1.759466452487345E2    -2.142300467991798E-1    7.642163657471748E1    -2.049906806182604E-1    7.639332664008747E1    -2.996629726277229E1     1.516183464837665E2
 1.032000000000000E9    -2.756426762354371E1     1.752276725360723E2    -2.190528420330386E-1    7.582298780153955E1    -2.056223495015165E-1    7.579933203869007E1    -2.989497320846546E1     1.505809613259616E2
 1.033000000000000E9    -2.723727272790666E1     1.747894470842408E2    -2.176765787563986E-1    7.515007484287324E1    -2.081117628288647E-1    7.517460634314901E1    -2.957052548022788E1     1.512452243532118E2
 1.034000000000000E9    -2.714746051366275E1     1.733224612381074E2    -2.234689983438713E-1    7.456442957229473E1    -2.080657436339043E-1    7.458310280985428E1    -2.933197724581220E1     1.504422485855289E2
 1.035000000000000E9    -2.690964028951055E1     1.731305362941331E2    -2.162712635258170E-1    7.390561467653976E1    -2.069447315385095E-1    7.395018925881141E1    -2.917740386502952E1     1.493042488992202E2
 1.036000000000000E9    -2.684165608018380E1     1.721250247783781E2    -2.185832726746459E-1    7.325394499808053E1    -2.065193438613837E-1    7.328381340174303E1    -2.889762446834366E1     1.492036395770497E2
 1.037000000000000E9    -2.668980026166329E1     1.711626208250239E2    -2.188839543357526E-1    7.266290226032496E1    -2.085856876166455E-1    7.266762241617261E1    -2.886992055765607E1     1.486498498879922E2
 1.038000000000000E9    -2.653084133599012E1     1.702836968071712E2    -2.172586007142518E-1    7.204607898662262E1    -2.090349628094332E-1    7.207358118393221E1    -2.854250713145214E1     1.473988501855334E2
 1.039000000000000E9    -2.642723501829235E1     1.695842862034606E2    -2.204760171875119E-1    7.141949224998811E1    -2.075499757169078E-1    7.141290457495606E1    -2.849627726017195E1     1.471428533718674E2
 1.040000000000000E9    -2.636882620226670E1     1.691980100148744E2    -2.143386324119247E-1    7.080807264058744E1    -2.076546076226804E-1    7.078132814921123E1    -2.825974121715748E1     1.475122828897628E2
 1.041000000000000E9    -2.614843563358512E1     1.685110403711452E2    -2.186652511017462E-1    7.018180083543936E1    -2.150474082023310E-1    7.015542479035894E1    -2.807590194173449E1     1.457799127839718E2
 1.042000000000000E9    -2.603517887956112E1     1.675304951303815E2    -2.189281807132001E-1    6.946820602230065E1    -2.109799010170885E-1    6.955604927373403E1    -2.785309166962123E1     1.460318652988326E2
 1.043000000000000E9    -2.584474397218653E1     1.668650345739347E2    -2.187510489603028E-1    6.891893938390143E1    -2.123191987417902E-1    6.888081785549436E1    -2.779293663282309E1     1.455175725958112E2
 1.044000000000000E9    -2.561706886860731E1     1.660300278976334E2    -2.205996037317048E-1    6.827022560237671E1    -2.057714506548181E-1    6.828127365898961E1    -2.757870182922864E1     1.448973516709270E2
 1.045000000000000E9    -2.560030626576717E1     1.653111323035655E2    -2.220314295672833E-1    6.765736122236666E1    -2.161291242394493E-1    6.764019244730369E1    -2.742421385485045E1     1.446962294591435E2
 1.046000000000000E9    -2.543900933949201E1     1.646616796102412E2    -2.239772320776416E-1    6.702753977403346E1    -2.117268199473102E-1    6.705951326926801E1    -2.730984990699320E1     1.439142356987934E2
 1.047000000000000E9    -2.533263447967022E1     1.637107985392065E2    -2.235028182028269E-1    6.644908088646561E1    -2.093202850973267E-1    6.639014932507016E1    -2.707823510885565E1     1.437660679394196E2
 1.048000000000000E9    -2.519257394156431E1     1.630574235029020E2    -2.246924693558724E-1    6.577044558252105E1    -2.131872387674764E-1    6.577834946767516E1    -2.695605820851760E1     1.431066280778929E2
 1.049000000000000E9    -2.516871947208970E1     1.617177423489966E2    -2.273991388390477E-1    6.516866864842829E1    -2.160690331903142E-1    6.520612356124416E1    -2.684123158791918E1     1.423700984994596E2
 1.050000000000000E9    -2.489318008835346E1     1.606323776522256E2    -2.229207141365061E-1    6.455931352665031E1    -2.133996387242076E-1    6.456300958151640E1    -2.654282171927317E1     1.418929311251713E2
 1.051000000000000E9    -2.485408850657094E1     1.601945209709001E2    -2.299407129782697E-1    6.390542116205705E1    -2.234156558246163E-1    6.393207334815335E1    -2.647785167845252E1     1.418414383130944E2
 1.052000000000000E9    -2.470577516984585E1     1.598489457752343E2    -2.300661541681334E-1    6.328429771308135E1    -2.205185811337431E-1    6.325843549076181E1    -2.628302220308461E1     1.415116651817337E2
 1.053000000000000E9    -2.462929916485920E1     1.588110029145162E2    -2.193728839259264E-1    6.262057728445913E1    -2.152231138400778E-1    6.265701903674834E1    -2.607732588271108E1     1.410549869150447E2
 1.054000000000000E9    -2.447754742983154E1     1.579712740022794E2    -2.211147430127394E-1    6.206644613913682E1    -2.166716145496312E-1    6.206956260319417E1    -2.609196139559435E1     1.395563487003336E2
 1.055000000000000E9    -2.437386812540087E1     1.568401772387813E2    -2.299620360087717E-1    6.141559230461823E1    -2.151495858690693E-1    6.144486392429488E1    -2.587791466344804E1     1.399994861573456E2
 1.056000000000000E9    -2.428336323715144E1     1.565434195545143E2    -2.242801554435684E-1    6.076012803641169E1    -2.210268704434584E-1    6.078427989794240E1    -2.587655663833821E1     1.394577580561988E2
 1.057000000000000E9    -2.420694267646136E1     1.551395381154114E2    -2.354394106791126E-1    6.017318207569171E1    -2.208179668575580E-1    6.020664851337398E1    -2.574100455349549E1     1.387700709782201E2
 1.058000000000000E9    -2.405583399067395E1     1.546533623044477E2    -2.242170922667263E-1    5.956054241204377E1    -2.222407837925014E-1    5.951220771559447E1    -2.563545349738724E1     1.387676963897252E2
 1.059000000000000E9    -2.399043179396814E1     1.535400294695062E2    -2.326845374068606E-1    5.891443547637076E1    -2.230438619923092E-1    5.892684948897948E1    -2.538137479512225E1     1.375907039146789E2
 1.060000000000000E9    -2.387984538012755E1     1.527404570597555E2    -2.278464353377474E-1    5.827980607397954E1    -2.209844461432821E-1    5.834670176077544E1    -2.531739322824951E1     1.376887394230198E2
 1.061000000000000E9    -2.379785229562701E1     1.519411989804372E2    -2.249052703912931E-1    5.768802048062933E1    -2.190440157617765E-1    5.772283037185644E1    -2.512091336814336E1     1.366463773721242E2
 1.062000000000000E9    -2.367115384471252E1     1.513924435879577E2    -2.334206552256125E-1    5.705923328490675E1    -2.281470322288632E-1    5.706386933746297E1    -2.517038439761041E1     1.367421738036775E2
 1.063000000000000E9    -2.361136463567540E1     1.503371470872804E2    -2.328141060318259E-1    5.643688242608082E1    -2.219333322251813E-1    5.641848594915074E1    -2.497640740420314E1     1.358542748037850E2
 1.064000000000000E9    -2.347570986734009E1     1.499676581341098E2    -2.341417148392885E-1    5.579031846992868E1    -2.240991099337810E-1    5.578823332164337E1    -2.496652975752631E1     1.353786373122065E2
 1.065000000000000E9    -2.344180524756918E1     1.491575069603556E2    -2.318851718743653E-1    5.522519020361286E1    -2.231232012996963E-1    5.520860579173206E1    -2.474686829565682E1     1.352083894100484E2
 1.066000000000000E9    -2.330609435063486E1     1.483297964536159E2    -2.335229344112835E-1    5.457445287830814E1    -2.304022694359177E-1    5.457035566942483E1    -2.480323250428899E1     1.348836546084077E2
 1.067000000000000E9    -2.328711211069707E1     1.476474898466811E2    -2.377557386427751E-1    5.393248144874222E1    -2.238594381002057E-1    5.394540863548655E1    -2.458057597768138E1     1.342832487791584E2
 1.068000000000000E9    -2.318230954237659E1     1.463318544154385E2    -2.322876005840063E-1    5.330181507633153E1    -2.290087776927328E-1    5.335645199923552E1    -2.456148917833702E1     1.341658189493332E2
 1.069000000000000E9    -2.310217120125726E1     1.459052545217751E2    -2.340013881210215E-1    5.267010133147058E1    -2.247217699207511E-1    5.268980501203421E1    -2.448357434575006E1     1.333766379381412E2
 1.070000000000000E9    -2.300899189869981E1     1.453091501457243E2    -2.342024660248244E-1    5.207828104975969E1    -2.341437937861031E-1    5.207218834321099E1    -2.437011498870914E1     1.332968002857251E2
 1.071000000000000E9    -2.300682074727067E1     1.444474926363224E2    -2.363022546609445E-1    5.140580687556557E1    -2.223296155469882E-1    5.143948019801591E1    -2.434328530189275E1     1.325684074768998E2
 1.072000000000000E9    -2.290118471552248E1     1.431585849573349E2    -2.375651193065684E-1    5.081766745263283E1    -2.223760906053931E-1    5.083968580157415E1    -2.415858799926212E1     1.320746997577563E2
 1.073000000000000E9    -2.281543689566048E1     1.424628228746516E2    -2.366200137837764E-1    5.014604064790323E1    -2.258860063922098E-1    5.022226826400002E1    -2.417918381825221E1     1.318125054491749E2
 1.074000000000000E9    -2.274757906726817E1     1.414708262402419E2    -2.343807111820848E-1    4.955890004360537E1    -2.305535553710789E-1    4.958062742292903E1    -2.407830310070463E1     1.309805164423809E2
 1.075000000000000E9    -2.266703504585985E1     1.410783894204000E2    -2.378022422219438E-1    4.895973078650263E1    -2.344312715901765E-1    4.895601894354250E1    -2.392636883035808E1     1.306566942402873E2
 1.076000000000000E9    -2.259001262759391E1     1.404152654922308E2    -2.402034470596277E-1    4.833850754750301E1    -2.290586279112204E-1    4.832462064669883E1    -2.391462530724505E1     1.298583430733635E2
 1.077000000000000E9    -2.252147679756561E1     1.396499198348710E2    -2.441234701835157E-1    4.773502173915818E1    -2.303554305986061E-1    4.772172256195376E1    -2.387946371224547E1     1.290565188507775E2
 1.078000000000000E9    -2.253314805078181E1     1.386625620021529E2    -2.389008616167201E-1    4.710439681541190E1    -2.332667923191359E-1    4.706895815972193E1    -2.383320713402436E1     1.290477126397578E2
 1.079000000000000E9    -2.244337838500722E1     1.382880282651386E2    -2.406093899448202E-1    4.639394803866709E1    -2.321801501927542E-1    4.646327947856788E1    -2.372125167667923E1     1.286350937703325E2
 1.080000000000000E9    -2.236736715715764E1     1.374940333453949E2    -2.481929402301533E-1    4.582361974622238E1    -2.371199811352940E-1    4.585199778270317E1    -2.358628095544353E1     1.284400981231061E2
 1.081000000000000E9    -2.229230008206297E1     1.363279292167836E2    -2.461574485220186E-1    4.523351529729489E1    -2.377505195500380E-1    4.520034356010678E1    -2.359937379552202E1     1.274866603959418E2
 1.082000000000000E9    -2.226479580806103E1     1.360583339570274E2    -2.462758127092282E-1    4.454344578362131E1    -2.319681418319429E-1    4.464045498822301E1    -2.354705426535837E1     1.272404925608895E2
 1.083000000000000E9    -2.219597367216067E1     1.351207541673917E2    -2.388509941523225E-1    4.396943382346147E1    -2.367084672667141E-1    4.400984580018055E1    -2.344125969358841E1     1.265114231103241E2
 1.084000000000000E9    -2.210704206879885E1     1.346744555205043E2    -2.410771279404279E-1    4.336807060215237E1    -2.343204238409761E-1    4.337136413493283E1    -2.342797105002260E1     1.257947451506748E2
 1.085000000000000E9    -2.210327488689792E1     1.339274445771037E2    -2.400708943011270E-1    4.274263827978336E1    -2.354385101365725E-1    4.274608946541924E1    -2.336590714181644E1     1.251787063678274E2
 1.086000000000000E9    -2.200067417810816E1     1.327321003956068E2    -2.496080140227660E-1    4.210731873747498E1    -2.337287605463012E-1    4.210991906081598E1    -2.327903509216074E1     1.247861958627563E2
 1.087000000000000E9    -2.197185111211894E1     1.325196591779396E2    -2.478371703690606E-1    4.144075277429531E1    -2.446555202791599E-1    4.148643041292715E1    -2.329490185878828E1     1.244213301311516E2
 1.088000000000000E9    -2.188678120417840E1     1.314306551594800E2    -2.437731766432727E-1    4.089256475827069E1    -2.412399203665866E-1    4.088204708076923E1    -2.319717021431610E1     1.236232476741679E2
 1.089000000000000E9    -2.185932195792834E1     1.308488212813132E2    -2.437982254739529E-1    4.023982891415192E1    -2.415118580407394E-1    4.018080173715064E1    -2.315865090590296E1     1.228563012201841E2
 1.090000000000000E9    -2.185968211880159E1     1.302669161919309E2    -2.475157626192425E-1    3.961775608033597E1    -2.362805013621527E-1    3.962801224334670E1    -2.307728180708526E1     1.225113235042986E2
 1.091000000000000E9    -2.177602861293132E1     1.293291281473501E2    -2.509574846828823E-1    3.898067438215438E1    -2.388871126024857E-1    3.900230822444257E1    -2.306198998807800E1     1.216216061191282E2
