#  HZ   S   DB   R     50.00 
! Rohde & Schwarz Vector Network Analyzer 
! Rohde-Schwarz,ZNB8-4Port,1311601044102961,2.82
! Created: UTC 3/4/2022, 4:08:11 PM
! freq[Hz]                db:S11                  ang:S11                 db:S21                  ang:S21                 db:S12                  ang:S12                 db:S22                  ang:S22
 1.000000000000000E9    -2.092452900215164E1     1.334063630112615E2    -2.243632207944858E-1    4.566963687051337E1    -2.100478389084726E-1    4.568726646742031E1    -2.125603573585384E1     1.339718385181264E2
 1.001000000000000E9    -2.089744451738689E1     1.327767755189684E2    -2.313206049400529E-1    4.499857013993367E1    -2.174057561191643E-1    4.501237963673067E1    -2.116991287772614E1     1.332070780011254E2
 1.002000000000000E9    -2.087219441778313E1     1.319796574958813E2    -2.283189459018724E-1    4.430746715624768E1    -2.162607709690905E-1    4.432326499259345E1    -2.116997765988362E1     1.321710659939057E2
 1.003000000000000E9    -2.085509223268198E1     1.315006964401979E2    -2.323957390039125E-1    4.366942843150148E1    -2.122209433056956E-1    4.362861229178273E1    -2.110808453143828E1     1.315540441303559E2
 1.004000000000000E9    -2.076816668500342E1     1.307913337259463E2    -2.368046422706778E-1    4.302738549746421E1    -2.210705891757714E-1    4.298522116837597E1    -2.104030775462756E1     1.312250372434144E2
 1.005000000000000E9    -2.069610317621343E1     1.301670609436913E2    -2.256026282144483E-1    4.230388345980079E1    -2.147659875891898E-1    4.226093962416501E1    -2.098398526830163E1     1.304493890404088E2
 1.006000000000000E9    -2.065845047301107E1     1.297718717941743E2    -2.352399831982544E-1    4.161567888883675E1    -2.145288019020027E-1    4.164332849285982E1    -2.093518669497486E1     1.298780599172923E2
 1.007000000000000E9    -2.063062277915686E1     1.288162752944932E2    -2.315491049430392E-1    4.094259082576726E1    -2.162514210313926E-1    4.096448753513990E1    -2.095884807552734E1     1.284517153220427E2
 1.008000000000000E9    -2.061477879917899E1     1.283342500743667E2    -2.342228331676246E-1    4.025554968934841E1    -2.194364109787103E-1    4.031253035171370E1    -2.093757727380113E1     1.279196339102407E2
 1.009000000000000E9    -2.059335528801901E1     1.275347855327559E2    -2.293352239658387E-1    3.965383403599630E1    -2.233031475763350E-1    3.962009281311175E1    -2.084021499295713E1     1.272501386848365E2
 1.010000000000000E9    -2.045569557452375E1     1.271770510857680E2    -2.371389663444965E-1    3.891232332479399E1    -2.235293528087299E-1    3.894537485489369E1    -2.081503923713459E1     1.261119490527720E2
 1.011000000000000E9    -2.043518205094006E1     1.263411624002053E2    -2.372818593643860E-1    3.826553904754363E1    -2.212452440333985E-1    3.827952614320904E1    -2.075644690362986E1     1.255121515123686E2
 1.012000000000000E9    -2.041699097315371E1     1.257171580575363E2    -2.363246422602016E-1    3.757438825331660E1    -2.221648383462168E-1    3.760595540178458E1    -2.070705742069506E1     1.249284740667711E2
 1.013000000000000E9    -2.036923637797850E1     1.249838609237987E2    -2.366377218020927E-1    3.690961032438567E1    -2.241212463577448E-1    3.691131295244022E1    -2.062781432867066E1     1.240720607899960E2
 1.014000000000000E9    -2.033381833144792E1     1.247108203791533E2    -2.376181872046691E-1    3.623412505388594E1    -2.253524776312835E-1    3.623238970955163E1    -2.062846119075154E1     1.231731612601909E2
 1.015000000000000E9    -2.024753079029401E1     1.240582319859198E2    -2.315157286373848E-1    3.558747049332724E1    -2.298672617047590E-1    3.555844662409756E1    -2.058181734986826E1     1.225561207424838E2
 1.016000000000000E9    -2.028416095292158E1     1.233752890610973E2    -2.347171249570987E-1    3.486052449175417E1    -2.273375538826314E-1    3.492481728491583E1    -2.052638805359290E1     1.217476721321147E2
 1.017000000000000E9    -2.025257231872035E1     1.227896190374044E2    -2.401631549145138E-1    3.419338537535689E1    -2.307871986233618E-1    3.423799721944707E1    -2.049023763920204E1     1.213016795718288E2
 1.018000000000000E9    -2.014963522577563E1     1.221550750397714E2    -2.401746495320388E-1    3.353588189511544E1    -2.295487428260433E-1    3.355366159629952E1    -2.047738364274879E1     1.201965838301909E2
 1.019000000000000E9    -2.013971803038742E1     1.213396676622380E2    -2.330665035137788E-1    3.288187158876869E1    -2.335529290131032E-1    3.288953052889141E1    -2.040214006133817E1     1.194795317688161E2
 1.020000000000000E9    -2.006821610052810E1     1.209741925300442E2    -2.329887212279823E-1    3.219947833940952E1    -2.302493934933684E-1    3.219266244501470E1    -2.036588610878709E1     1.187284021152173E2
 1.021000000000000E9    -2.003648188708985E1     1.201018685235423E2    -2.394862857061909E-1    3.147432207166781E1    -2.323632572661570E-1    3.153727723799828E1    -2.033895696979633E1     1.179439085591600E2
 1.022000000000000E9    -2.005137657819064E1     1.195237774250124E2    -2.408036217858773E-1    3.084712451486442E1    -2.304502985491544E-1    3.086747358454864E1    -2.029934501280462E1     1.173488300400909E2
 1.023000000000000E9    -1.999549293624617E1     1.190530283150677E2    -2.406307489409936E-1    3.020133757404510E1    -2.268211115602030E-1    3.020315674342378E1    -2.025128339499261E1     1.166198145700391E2
 1.024000000000000E9    -1.990687540211757E1     1.182373828453739E2    -2.416611752873922E-1    2.950558779652646E1    -2.359900401876520E-1    2.949340213670756E1    -2.020014772980806E1     1.158465809800942E2
 1.025000000000000E9    -1.986967588082146E1     1.175392636723685E2    -2.421441218250131E-1    2.885351022015528E1    -2.281455382004353E-1    2.884007696453434E1    -2.019232285987625E1     1.147806745504242E2
 1.026000000000000E9    -1.987849706249225E1     1.169613483348787E2    -2.452844401685050E-1    2.816078750783530E1    -2.305435711998620E-1    2.816310820733808E1    -2.009492995667667E1     1.140043037233720E2
 1.027000000000000E9    -1.980607140340555E1     1.162457585176522E2    -2.497864492989255E-1    2.748338125294209E1    -2.299368851617376E-1    2.751491096982234E1    -2.007769048018389E1     1.137392262404235E2
 1.028000000000000E9    -1.982771068025698E1     1.156674062256247E2    -2.417935230090543E-1    2.684049170849025E1    -2.318017869534432E-1    2.681812226515254E1    -2.001154735338581E1     1.126537437183741E2
 1.029000000000000E9    -1.975564557066565E1     1.150138032689968E2    -2.471964721810875E-1    2.614288114054805E1    -2.353972748194601E-1    2.615729634970091E1    -2.004497213949090E1     1.123815287431535E2
 1.030000000000000E9    -1.973061727947618E1     1.144397346603832E2    -2.382545696217043E-1    2.548498306934491E1    -2.313542643012315E-1    2.554242219769255E1    -1.995857940142180E1     1.112658815451938E2
 1.031000000000000E9    -1.963773390642592E1     1.137419564677957E2    -2.473888844827933E-1    2.480129978174618E1    -2.368413606125945E-1    2.482618232673529E1    -1.999000539141211E1     1.105406593878423E2
 1.032000000000000E9    -1.965828916116574E1     1.129268939170369E2    -2.427441456721866E-1    2.412584800707298E1    -2.339784432734173E-1    2.414733050088898E1    -1.990228661897483E1     1.103412748102401E2
 1.033000000000000E9    -1.958038043100153E1     1.122411685772902E2    -2.509193658287292E-1    2.341428329960782E1    -2.327114973067881E-1    2.347586721760943E1    -1.983019183670696E1     1.095427631276414E2
 1.034000000000000E9    -1.955985069737596E1     1.113384516315960E2    -2.414499367779894E-1    2.277872142973892E1    -2.414162368595974E-1    2.278120641373593E1    -1.984820693719691E1     1.084884125119885E2
 1.035000000000000E9    -1.950494216883374E1     1.108548721000597E2    -2.486617878236533E-1    2.209302770940174E1    -2.364724814584221E-1    2.209484402066268E1    -1.980618783286692E1     1.078686049263182E2
 1.036000000000000E9    -1.948886288181481E1     1.105171490656075E2    -2.432495450229202E-1    2.143781734360475E1    -2.329638219693645E-1    2.147233659787134E1    -1.977113849451894E1     1.070056091356874E2
 1.037000000000000E9    -1.947579882516945E1     1.096671419495566E2    -2.473295145197789E-1    2.077491419828774E1    -2.454576322708050E-1    2.080400349481590E1    -1.971893239852138E1     1.066555565640278E2
 1.038000000000000E9    -1.942885229850006E1     1.088947191334665E2    -2.504660087945276E-1    2.009199972407471E1    -2.355537227546374E-1    2.008809146866578E1    -1.970442095461153E1     1.058095753971801E2
 1.039000000000000E9    -1.941841822424588E1     1.083055735464395E2    -2.482340214083310E-1    1.939689224578898E1    -2.435561407985724E-1    1.944629649770237E1    -1.972824153361280E1     1.050333296693704E2
 1.040000000000000E9    -1.937524430294175E1     1.074086509370388E2    -2.501382299929514E-1    1.880000038001119E1    -2.401331464152229E-1    1.878474796009773E1    -1.964453529624195E1     1.045118258618279E2
 1.041000000000000E9    -1.938905548433051E1     1.067192975677986E2    -2.476847850519612E-1    1.807756831970835E1    -2.378600622358205E-1    1.810862973150837E1    -1.963413837737916E1     1.037017025261064E2
 1.042000000000000E9    -1.934012547919581E1     1.060493641563739E2    -2.525168311308191E-1    1.740206744821188E1    -2.433034472274405E-1    1.737773076725523E1    -1.958504463271986E1     1.030141795988181E2
 1.043000000000000E9    -1.927812254182306E1     1.054234057920063E2    -2.541831626956875E-1    1.678040525883175E1    -2.454824216961114E-1    1.669517958416907E1    -1.959423955316817E1     1.025241648876696E2
 1.044000000000000E9    -1.926383279193465E1     1.046589668180904E2    -2.557826689131759E-1    1.606313148316805E1    -2.417945266307402E-1    1.608608296143254E1    -1.954094196782199E1     1.015596594313712E2
 1.045000000000000E9    -1.925022661841367E1     1.041347340264544E2    -2.506976113721366E-1    1.541846766773440E1    -2.429217271852973E-1    1.537573300653479E1    -1.951670168098189E1     1.008214323619184E2
 1.046000000000000E9    -1.922760309644043E1     1.032474387327305E2    -2.501566403698494E-1    1.469183128995006E1    -2.385067626777820E-1    1.473214748649554E1    -1.951512902425042E1     1.004413061519806E2
 1.047000000000000E9    -1.919802050206310E1     1.024676011005235E2    -2.568568416951671E-1    1.410098133155692E1    -2.423740569066767E-1    1.405216521878791E1    -1.947572919419833E1     9.966836459805626E1
 1.048000000000000E9    -1.915832995303594E1     1.019262237952130E2    -2.529230056962962E-1    1.338454345527986E1    -2.468254947550954E-1    1.339276536723257E1    -1.950457784930678E1     9.898543734912019E1
 1.049000000000000E9    -1.918365605347745E1     1.010802250941048E2    -2.579728503173681E-1    1.273013603709968E1    -2.443554851938034E-1    1.273594288619355E1    -1.941932142357195E1     9.856649582199140E1
 1.050000000000000E9    -1.912053946195902E1     1.002425535347446E2    -2.547560741928254E-1    1.208146606355469E1    -2.457314406109603E-1    1.207769113048159E1    -1.941012075538863E1     9.780034342726029E1
 1.051000000000000E9    -1.912856351090771E1     9.940985422709154E1    -2.515225322982448E-1    1.139489377286641E1    -2.399207846459684E-1    1.144412738885839E1    -1.940201280204140E1     9.721945452576206E1
 1.052000000000000E9    -1.912002937854081E1     9.894023109140623E1    -2.572345112126447E-1    1.072342124738599E1    -2.436885523959124E-1    1.072951228239988E1    -1.935079877958341E1     9.663962278052884E1
 1.053000000000000E9    -1.907382387928995E1     9.813148862838420E1    -2.477604496095497E-1    9.996264917501932      -2.448037867799638E-1    1.003789186603751E1    -1.932186757274620E1     9.581800944056676E1
 1.054000000000000E9    -1.906125605832441E1     9.745079968272525E1    -2.612678174794830E-1    9.395894169464608      -2.466833629119694E-1    9.410289967061434      -1.934504246476267E1     9.506239154945325E1
 1.055000000000000E9    -1.909469719293461E1     9.660501705274480E1    -2.597054315680447E-1    8.730210714528948      -2.478389939211089E-1    8.718139444523297      -1.930480150839535E1     9.454156622297955E1
 1.056000000000000E9    -1.905848727860740E1     9.595832641185272E1    -2.518256161799863E-1    8.027183447019004      -2.437063863029774E-1    8.023616185909352      -1.931460000416795E1     9.387254946134316E1
 1.057000000000000E9    -1.903572579079496E1     9.533425186880706E1    -2.558874924596848E-1    7.360114786251310      -2.478937131349874E-1    7.386912761643761      -1.930090245171875E1     9.327862427577486E1
 1.058000000000000E9    -1.902947469024662E1     9.447067791695724E1    -2.577066823261913E-1    6.699785653607864      -2.510022052182483E-1    6.743181537933723      -1.929448182584166E1     9.275647115581315E1
 1.059000000000000E9    -1.903101088933060E1     9.372052603424380E1    -2.585795036860973E-1    6.006489119837950      -2.488387172045046E-1    6.055882952385748      -1.927958015695629E1     9.181813491516215E1
 1.060000000000000E9    -1.902790739146737E1     9.279845890944534E1    -2.566263556840370E-1    5.378530894258168      -2.521627916982214E-1    5.351218966151678      -1.926083569516166E1     9.135420708659001E1
 1.061000000000000E9    -1.903165355033914E1     9.206877081640288E1    -2.502014963849132E-1    4.684782562962824      -2.477702494002190E-1    4.717187767794112      -1.926781825673232E1     9.044487374677601E1
 1.062000000000000E9    -1.900825935772419E1     9.162686184400425E1    -2.528226707712088E-1    4.026250964185115      -2.509340077115820E-1    4.037295571552127      -1.925018438795704E1     9.022221597744432E1
 1.063000000000000E9    -1.900247662465183E1     9.082437962576833E1    -2.562799383949470E-1    3.351015759604535      -2.459563585236005E-1    3.377753729849014      -1.925259325126676E1     8.927429660221011E1
 1.064000000000000E9    -1.897293548772220E1     9.008039851775145E1    -2.536495362951297E-1    2.691964807662870      -2.535976018873496E-1    2.727299475412380      -1.932198332847821E1     8.894300522863424E1
 1.065000000000000E9    -1.894891633740618E1     8.940323093391064E1    -2.599668653158000E-1    2.000208845157251      -2.490907531778159E-1    2.010753916392955      -1.926006178857616E1     8.809490120493108E1
 1.066000000000000E9    -1.897879455267188E1     8.836391823488468E1    -2.549086406419853E-1    1.363519211022850      -2.495560853630860E-1    1.307624037897392      -1.928462844404394E1     8.757116625506130E1
 1.067000000000000E9    -1.894365461475428E1     8.784978321007432E1    -2.469142387456670E-1    7.146629952666055E-1   -2.508276951576696E-1    6.708715562288384E-1   -1.925764723765300E1     8.685460451093630E1
 1.068000000000000E9    -1.900477975281439E1     8.719589628975629E1    -2.582048960166098E-1   -4.625889771667974E-3   -2.448150036338492E-1    1.301761154311773E-3   -1.924267491504123E1     8.646299871889914E1
 1.069000000000000E9    -1.899911908699445E1     8.629334488280628E1    -2.602460532808802E-1   -7.007619789890018E-1   -2.513067956132137E-1   -6.653697780378491E-1   -1.926645525695946E1     8.549266992195771E1
 1.070000000000000E9    -1.896600705683073E1     8.593348352959525E1    -2.531640987859637E-1   -1.367939325903920      -2.486570622862265E-1   -1.348438553269487      -1.926046177220898E1     8.483524342893136E1
 1.071000000000000E9    -1.898106602510038E1     8.536118643214316E1    -2.547901782341461E-1   -1.978718888706888      -2.506860887443125E-1   -2.026572193672040      -1.930163554459492E1     8.415977592455377E1
 1.072000000000000E9    -1.901641886216101E1     8.444637986997903E1    -2.560630955283478E-1   -2.710781561450232      -2.526038028122503E-1   -2.700981552184758      -1.925519338863015E1     8.340719259910317E1
 1.073000000000000E9    -1.902249095668864E1     8.357362221815075E1    -2.568671371935856E-1   -3.348895975356180      -2.439517878073580E-1   -3.345352650462097      -1.930352621740609E1     8.297573993532612E1
 1.074000000000000E9    -1.904051550651752E1     8.297002145809674E1    -2.603126433253379E-1   -4.056308515423052      -2.450024229378525E-1   -4.026132134166950      -1.929279863742393E1     8.219332990232049E1
 1.075000000000000E9    -1.903772075023841E1     8.233867321568006E1    -2.565346841120420E-1   -4.665195365847389      -2.508119730421507E-1   -4.671501931890351      -1.927918074246002E1     8.147212285550725E1
 1.076000000000000E9    -1.903019712590596E1     8.152192887317142E1    -2.593047497458146E-1   -5.375371900449995      -2.448253033268299E-1   -5.381426386352509      -1.933907437920923E1     8.092184069741975E1
 1.077000000000000E9    -1.900117217571448E1     8.086084935332431E1    -2.562607715629773E-1   -6.029710121974786      -2.474768344086760E-1   -6.051477707175427      -1.937148156838179E1     8.017992172008742E1
 1.078000000000000E9    -1.906128268271405E1     8.023417964176852E1    -2.548253684775796E-1   -6.774132103205202      -2.530460564301539E-1   -6.705299698974119      -1.936154387830231E1     7.943480748519446E1
 1.079000000000000E9    -1.906916384922238E1     7.957478475524596E1    -2.632441788221369E-1   -7.413348960154038      -2.507653872797441E-1   -7.340930081228944      -1.932526129808958E1     7.885962782179500E1
 1.080000000000000E9    -1.908051054216241E1     7.879494609588579E1    -2.593333255412630E-1   -8.068605487845547      -2.537191651034894E-1   -8.065593708631234      -1.935020539536580E1     7.788634266041574E1
 1.081000000000000E9    -1.908689716106084E1     7.800481873626784E1    -2.548395752705431E-1   -8.758192187352206      -2.477619534979126E-1   -8.746873938030573      -1.938376461567550E1     7.752423060960888E1
 1.082000000000000E9    -1.911148123337301E1     7.754421216132838E1    -2.535990696440090E-1   -9.398750735860549      -2.545535715184968E-1   -9.363098947783666      -1.941387874138642E1     7.691770045057372E1
 1.083000000000000E9    -1.911203309676512E1     7.677376216793724E1    -2.540592228555909E-1   -1.005429213315146E1    -2.525764460533172E-1   -1.000812759509276E1    -1.947968407080830E1     7.601852247557667E1
 1.084000000000000E9    -1.909570964617026E1     7.622639424529653E1    -2.561527722964299E-1   -1.073346803461697E1    -2.424710132372670E-1   -1.070411184212034E1    -1.943124681492346E1     7.517541767242334E1
 1.085000000000000E9    -1.912371586208779E1     7.573014057625537E1    -2.575399552169485E-1   -1.145293094116830E1    -2.483604537841049E-1   -1.138560896826770E1    -1.950922747656096E1     7.449188188868146E1
 1.086000000000000E9    -1.914896049780459E1     7.462366504616229E1    -2.581324704386050E-1   -1.205355909660094E1    -2.436680166272969E-1   -1.206934950771039E1    -1.946500460251070E1     7.378322897432449E1
 1.087000000000000E9    -1.912905609824541E1     7.423887931221007E1    -2.516379667409137E-1   -1.276159165850030E1    -2.522374514406442E-1   -1.274078688870509E1    -1.951154499425617E1     7.308687852071999E1
 1.088000000000000E9    -1.915967435074544E1     7.347180512171440E1    -2.571614677567876E-1   -1.343274820385346E1    -2.448297158393737E-1   -1.336139174399088E1    -1.954793584264805E1     7.254608428190744E1
 1.089000000000000E9    -1.921634186350120E1     7.302979832829797E1    -2.517485684817670E-1   -1.407657472181475E1    -2.461966172487246E-1   -1.407075163458350E1    -1.955519274362705E1     7.167385324011521E1
 1.090000000000000E9    -1.925034864517591E1     7.217666254114181E1    -2.579227313957715E-1   -1.475499530838363E1    -2.538544894106732E-1   -1.475688351500142E1    -1.950597271565492E1     7.074092448663964E1
 1.091000000000000E9    -1.926076394362584E1     7.137031355435822E1    -2.536904907350148E-1   -1.542508585427017E1    -2.462486785894522E-1   -1.538200884453357E1    -1.956111279577917E1     7.011383630571875E1
