#  HZ   S   DB   R     50.00 
! Rohde & Schwarz Vector Network Analyzer 
! Rohde-Schwarz,ZNB8-4Port,1311601044102961,2.82
! Created: UTC 3/4/2022, 4:05:08 PM
! freq[Hz]                db:S11                  ang:S11                 db:S21                  ang:S21                 db:S12                  ang:S12                 db:S22                  ang:S22
 1.000000000000000E9    -2.251666368118842E1     7.347247042568390E1    -1.731488534412768E-1    1.665770122777609E2    -1.574922506919823E-1    1.665889085026734E2    -2.296277563829968E1     7.369128775518050E1
 1.001000000000000E9    -2.255218658167879E1     7.345337446299195E1    -1.746110041271143E-1    1.660414469016816E2    -1.583904389713908E-1    1.660113972182549E2    -2.298162907302894E1     7.285355097309645E1
 1.002000000000000E9    -2.262698112661212E1     7.289516625968994E1    -1.739290726817566E-1    1.654805699166365E2    -1.634399443091123E-1    1.655118614120877E2    -2.302447972796742E1     7.237569071641963E1
 1.003000000000000E9    -2.266291490854600E1     7.223787035209465E1    -1.722663208123604E-1    1.649200083411783E2    -1.624164469997533E-1    1.649148772612090E2    -2.300566768382526E1     7.132117500146205E1
 1.004000000000000E9    -2.266990469087583E1     7.169702174984795E1    -1.725788508749579E-1    1.643974130262893E2    -1.589118294158121E-1    1.643334743942343E2    -2.312406338905293E1     7.058750595757823E1
 1.005000000000000E9    -2.271067416520951E1     7.122185087580759E1    -1.722640132839403E-1    1.638300158553646E2    -1.577867551783438E-1    1.638036798189051E2    -2.311295227252175E1     7.013564375034470E1
 1.006000000000000E9    -2.271800337620590E1     7.043018592888605E1    -1.771788165947038E-1    1.632842658142972E2    -1.595470919150586E-1    1.632804355652724E2    -2.312201464399466E1     6.925614631517611E1
 1.007000000000000E9    -2.279536169133192E1     7.013097213883755E1    -1.795061655656068E-1    1.627171036351682E2    -1.646205483247523E-1    1.627325559723454E2    -2.321639897326578E1     6.871455746001288E1
 1.008000000000000E9    -2.276862146438004E1     6.986382970167890E1    -1.676746062493109E-1    1.621365867985670E2    -1.643370890596255E-1    1.621851043319391E2    -2.320063027046106E1     6.799848815463619E1
 1.009000000000000E9    -2.288471665448671E1     6.905822595529014E1    -1.736331223807942E-1    1.616140938075396E2    -1.628712279558564E-1    1.615984678351915E2    -2.316772223062811E1     6.769948782499097E1
 1.010000000000000E9    -2.284638125112861E1     6.878995493396494E1    -1.804421121737787E-1    1.610072036272733E2    -1.604451482816768E-1    1.610695669405970E2    -2.329861586183605E1     6.677909536801413E1
 1.011000000000000E9    -2.289349279419852E1     6.810037428160541E1    -1.783809766851064E-1    1.605076299803235E2    -1.643772351957043E-1    1.604992117948273E2    -2.334334857993068E1     6.623587086722905E1
 1.012000000000000E9    -2.294890146823639E1     6.715002882848248E1    -1.813530600573085E-1    1.599258541220305E2    -1.637261254333908E-1    1.599118061716613E2    -2.329040254775995E1     6.534379151463212E1
 1.013000000000000E9    -2.303026103293306E1     6.698280576218451E1    -1.718010928960468E-1    1.593903168492200E2    -1.684052558543816E-1    1.594089128569851E2    -2.333163049297633E1     6.454348634383179E1
 1.014000000000000E9    -2.297869711369093E1     6.591096596429854E1    -1.735631654266878E-1    1.588147585830028E2    -1.636814158736041E-1    1.588624855418041E2    -2.335816811052638E1     6.393570752500228E1
 1.015000000000000E9    -2.302154769498472E1     6.547184586095909E1    -1.748764413472910E-1    1.582961093587066E2    -1.629456502259157E-1    1.583214468615027E2    -2.341660529218970E1     6.321167986800099E1
 1.016000000000000E9    -2.308972335849692E1     6.548445753218310E1    -1.734840542843064E-1    1.576793670218952E2    -1.627191211490723E-1    1.577323115322845E2    -2.343530118696474E1     6.290940727355626E1
 1.017000000000000E9    -2.306344797844336E1     6.489259943478663E1    -1.740228308677385E-1    1.571494751780987E2    -1.631178389388391E-1    1.571573233736741E2    -2.343480649229719E1     6.227951922641744E1
 1.018000000000000E9    -2.313401281691623E1     6.388233238868843E1    -1.796581509088625E-1    1.566125966881262E2    -1.657733157296867E-1    1.566476033293899E2    -2.355662540251288E1     6.142647376455224E1
 1.019000000000000E9    -2.324557656149217E1     6.314115872986670E1    -1.780538328161953E-1    1.560940085882605E2    -1.669180707510000E-1    1.560632509140036E2    -2.344585379951350E1     6.074891228877402E1
 1.020000000000000E9    -2.319555598412950E1     6.271188677459172E1    -1.775662183273084E-1    1.554920170055971E2    -1.665885887060069E-1    1.555300106148844E2    -2.358202358890400E1     5.981745471430762E1
 1.021000000000000E9    -2.328664868637006E1     6.199682877618974E1    -1.656622082579602E-1    1.549800223596703E2    -1.618274343827150E-1    1.549986039281052E2    -2.364686842587153E1     5.953204419037843E1
 1.022000000000000E9    -2.329803336500978E1     6.229460687024976E1    -1.728591126415430E-1    1.543919075673886E2    -1.625091869503671E-1    1.544272535044333E2    -2.364955779272533E1     5.949712761555767E1
 1.023000000000000E9    -2.331540243863731E1     6.126165878891020E1    -1.656523943107991E-1    1.538422507788857E2    -1.602724836224801E-1    1.538566344062856E2    -2.365143857394783E1     5.860284238636255E1
 1.024000000000000E9    -2.338254972686131E1     6.065293607576211E1    -1.725725809396648E-1    1.532660956441251E2    -1.673752923818201E-1    1.533036443135731E2    -2.371641754327381E1     5.819828699874135E1
 1.025000000000000E9    -2.337051594841386E1     6.006604014902812E1    -1.750140058545290E-1    1.527411399496223E2    -1.644659025873952E-1    1.527427036987330E2    -2.379319066566236E1     5.761357776204731E1
 1.026000000000000E9    -2.347223702542625E1     5.935399410923983E1    -1.789605318515080E-1    1.522256670511167E2    -1.682157597733637E-1    1.522357132203061E2    -2.377574833125009E1     5.653025191226814E1
 1.027000000000000E9    -2.348047190636834E1     5.843630033590050E1    -1.728304482353922E-1    1.516269104200522E2    -1.683787115600929E-1    1.516601611918645E2    -2.377423419199618E1     5.587216999861302E1
 1.028000000000000E9    -2.360254328348729E1     5.814390011374270E1    -1.740019624861584E-1    1.510906574348265E2    -1.596854926656019E-1    1.510563824666375E2    -2.383552919449364E1     5.544063435283917E1
 1.029000000000000E9    -2.360146961689986E1     5.767512076095539E1    -1.728607304649634E-1    1.505064282512053E2    -1.674759119175427E-1    1.505623923594110E2    -2.392013824701904E1     5.534753618591873E1
 1.030000000000000E9    -2.370003889847187E1     5.693835965843216E1    -1.784224395658337E-1    1.499834724047484E2    -1.628817836207117E-1    1.500064946526333E2    -2.389680315473854E1     5.439328836785446E1
 1.031000000000000E9    -2.366299625293582E1     5.627421060677906E1    -1.761889482478166E-1    1.494359812624791E2    -1.594552643381654E-1    1.494351446122980E2    -2.401120768379604E1     5.374521403007949E1
 1.032000000000000E9    -2.369656455458010E1     5.513422680661896E1    -1.805019398810169E-1    1.488424910304921E2    -1.647837643846672E-1    1.488586714055104E2    -2.402222858957634E1     5.385956340256668E1
 1.033000000000000E9    -2.372224362133991E1     5.479831173301333E1    -1.700965626373564E-1    1.483133132739029E2    -1.579891017008983E-1    1.483521828206220E2    -2.399924315703215E1     5.282426083161995E1
 1.034000000000000E9    -2.388611708752453E1     5.366198086366254E1    -1.725550549783294E-1    1.477704978417123E2    -1.668587256842460E-1    1.478036631047944E2    -2.410616711347039E1     5.226132858171009E1
 1.035000000000000E9    -2.387896383367623E1     5.301153033792178E1    -1.751706520597313E-1    1.471547487853259E2    -1.662140613233418E-1    1.472307179566945E2    -2.414093966259771E1     5.199649220855288E1
 1.036000000000000E9    -2.393306847766142E1     5.265203455047888E1    -1.718222962826711E-1    1.466344217866152E2    -1.631776880491455E-1    1.466423653975213E2    -2.424857502792154E1     5.112215085694261E1
 1.037000000000000E9    -2.398101813221915E1     5.192302159383851E1    -1.747965949145441E-1    1.460793889394770E2    -1.648881601341345E-1    1.461349909785371E2    -2.423164187327453E1     5.154001424633771E1
 1.038000000000000E9    -2.405356573222575E1     5.143335425684809E1    -1.729727087547739E-1    1.455342738760870E2    -1.668286588224421E-1    1.455354400185117E2    -2.435627727941089E1     5.042198971576418E1
 1.039000000000000E9    -2.405106751444411E1     5.094871898466928E1    -1.698613768209691E-1    1.450146172832488E2    -1.641173882018561E-1    1.449976204295658E2    -2.431221385891416E1     5.052475977310354E1
 1.040000000000000E9    -2.412936355108871E1     4.963046637192290E1    -1.718298328225236E-1    1.444093010649041E2    -1.692257022105360E-1    1.444253733139924E2    -2.434805158609257E1     4.941387579033361E1
 1.041000000000000E9    -2.421784334814704E1     4.926683737135227E1    -1.781236675634315E-1    1.438777616242911E2    -1.581457158473668E-1    1.438819816552189E2    -2.447263069222579E1     4.862740199261613E1
 1.042000000000000E9    -2.423736033091195E1     4.867787271304199E1    -1.719587286070324E-1    1.433054802065634E2    -1.669620031960925E-1    1.433387326059276E2    -2.445457349824074E1     4.826846275515568E1
 1.043000000000000E9    -2.430090641920394E1     4.801517423843279E1    -1.701174972969745E-1    1.427724446099243E2    -1.658138550741896E-1    1.427294953514182E2    -2.459910195315131E1     4.777895364016047E1
 1.044000000000000E9    -2.439378672316789E1     4.660591144095383E1    -1.728035829018450E-1    1.422236472836515E2    -1.646487975219046E-1    1.422093501066386E2    -2.473175611072797E1     4.704317423865597E1
 1.045000000000000E9    -2.440085640158213E1     4.642860478997490E1    -1.732296959695346E-1    1.416705848900247E2    -1.642038696009528E-1    1.416815462315171E2    -2.473006854599769E1     4.667460254880463E1
 1.046000000000000E9    -2.446209689676532E1     4.547917351277562E1    -1.697888877874760E-1    1.410762943828170E2    -1.614358890801761E-1    1.411240266615034E2    -2.489186690663999E1     4.640175794269285E1
 1.047000000000000E9    -2.455056706757045E1     4.513629426415144E1    -1.706416910277672E-1    1.405693368617151E2    -1.597533422848762E-1    1.405685097189456E2    -2.489281433400645E1     4.563569533717973E1
 1.048000000000000E9    -2.460745920554597E1     4.468797622504953E1    -1.762206042209404E-1    1.400249571304854E2    -1.622561358971596E-1    1.400102323436022E2    -2.490177952061807E1     4.523385563300140E1
 1.049000000000000E9    -2.472214571995361E1     4.386700802323852E1    -1.757713481016815E-1    1.394826370368107E2    -1.692718227581333E-1    1.394223658555454E2    -2.501983711584222E1     4.476916231984214E1
 1.050000000000000E9    -2.475613629412946E1     4.232340231742002E1    -1.751337771646218E-1    1.389058085321920E2    -1.628976576277309E-1    1.388745789328839E2    -2.518831956604193E1     4.420283093586739E1
 1.051000000000000E9    -2.485430842343711E1     4.138011592886388E1    -1.732715406283768E-1    1.383549180156909E2    -1.647287189613831E-1    1.383804741625010E2    -2.525704228216903E1     4.346804898383807E1
 1.052000000000000E9    -2.489940326430266E1     4.113966335256892E1    -1.712162202470409E-1    1.377738352540974E2    -1.636740324949420E-1    1.377829444647205E2    -2.525092768221074E1     4.273251337040871E1
 1.053000000000000E9    -2.500109992933293E1     4.038714215166077E1    -1.765971001375982E-1    1.372172915254452E2    -1.642533612348747E-1    1.372305303854376E2    -2.542646066763972E1     4.248790623882281E1
 1.054000000000000E9    -2.501185287429941E1     3.965292249720454E1    -1.743782892154060E-1    1.367099825653628E2    -1.594341324446474E-1    1.366475337983630E2    -2.562288605315576E1     4.241035844184096E1
 1.055000000000000E9    -2.518298231912470E1     3.907326676628116E1    -1.787741694884691E-1    1.361531747365284E2    -1.623630455342412E-1    1.361456040807867E2    -2.550383050093200E1     4.111220327010828E1
 1.056000000000000E9    -2.526871018408619E1     3.829674906801122E1    -1.763555812943959E-1    1.355631146295844E2    -1.648104030033977E-1    1.355784523454645E2    -2.560462277338693E1     4.097408681744097E1
 1.057000000000000E9    -2.533789287928573E1     3.737377149459712E1    -1.718851131208994E-1    1.349908885586575E2    -1.650401537694161E-1    1.350016498411638E2    -2.577753881820274E1     4.063040809124195E1
 1.058000000000000E9    -2.547645479390354E1     3.643160991662921E1    -1.777154162202663E-1    1.344334337694641E2    -1.662929113260167E-1    1.344705776076572E2    -2.585326749400513E1     4.003786494574558E1
 1.059000000000000E9    -2.546947983745859E1     3.567470413815604E1    -1.800411746429037E-1    1.338928827949526E2    -1.652447521956570E-1    1.339171013699079E2    -2.600520366198332E1     3.955545434653062E1
 1.060000000000000E9    -2.559256434735992E1     3.486806313078761E1    -1.752704118199130E-1    1.333179030991851E2    -1.660497825436531E-1    1.333753940455293E2    -2.603177965114325E1     3.907675880801516E1
 1.061000000000000E9    -2.577257225126950E1     3.449080189741690E1    -1.766539895166485E-1    1.327756314745899E2    -1.661903523913459E-1    1.327886919050502E2    -2.623590406915507E1     3.815550220151480E1
 1.062000000000000E9    -2.574900872898598E1     3.327876713676368E1    -1.715864501699625E-1    1.322039707296104E2    -1.732581988480805E-1    1.322855848152744E2    -2.628391325023509E1     3.711595476095725E1
 1.063000000000000E9    -2.601094528432709E1     3.248625517379040E1    -1.747246152505904E-1    1.316454100776594E2    -1.620003653371385E-1    1.316950559307396E2    -2.648102338862918E1     3.705458997209669E1
 1.064000000000000E9    -2.589962303631936E1     3.230112261081457E1    -1.712208275375424E-1    1.311454177114095E2    -1.679522871901676E-1    1.310884705087968E2    -2.655137465985769E1     3.705119139047876E1
 1.065000000000000E9    -2.613529491924077E1     3.085093912522830E1    -1.732991468000726E-1    1.305822939092655E2    -1.707264104208311E-1    1.305537656235587E2    -2.666741085807132E1     3.509708090876632E1
 1.066000000000000E9    -2.622954893362050E1     3.040523892229443E1    -1.770620663911624E-1    1.300459019066302E2    -1.686210975099099E-1    1.300161504089724E2    -2.680956902107788E1     3.545498103360923E1
 1.067000000000000E9    -2.625211831665556E1     2.986055230599676E1    -1.670382882795423E-1    1.294269350521459E2    -1.647855130184128E-1    1.294637707441720E2    -2.688243807728082E1     3.433017791904022E1
 1.068000000000000E9    -2.643197375349436E1     2.876589425178909E1    -1.808606990318987E-1    1.288672189979298E2    -1.689164034608238E-1    1.289032478516633E2    -2.692736360589563E1     3.359250027400934E1
 1.069000000000000E9    -2.664343669478346E1     2.805026118088734E1    -1.804271117126163E-1    1.283213113041877E2    -1.725285595837701E-1    1.283934203759901E2    -2.705514024834573E1     3.317685394330390E1
 1.070000000000000E9    -2.660772162310672E1     2.717827558784364E1    -1.789019366965753E-1    1.277914932108817E2    -1.663630568534207E-1    1.278040747797618E2    -2.723484931586546E1     3.240018098386361E1
 1.071000000000000E9    -2.677960856865155E1     2.658921588135934E1    -1.752058926315474E-1    1.272404589190937E2    -1.700876968222183E-1    1.272762994717203E2    -2.737097617732674E1     3.123001103986302E1
 1.072000000000000E9    -2.696180332891053E1     2.567324801828978E1    -1.798707352871770E-1    1.266899780666615E2    -1.636748675091778E-1    1.266782295679751E2    -2.741517315006328E1     2.992669155221385E1
 1.073000000000000E9    -2.707182950197030E1     2.465551647549078E1    -1.807391629571974E-1    1.261608384614313E2    -1.665581032166941E-1    1.261243399081893E2    -2.761159897077309E1     3.059051229253148E1
 1.074000000000000E9    -2.722514457091798E1     2.429506114901477E1    -1.780184954294767E-1    1.255842492283818E2    -1.684193873796346E-1    1.255970970763706E2    -2.774303522154050E1     2.911323702957514E1
 1.075000000000000E9    -2.741154002801297E1     2.391975355707125E1    -1.811050395786015E-1    1.250264016601455E2    -1.754769386651635E-1    1.250277588182288E2    -2.793237254473903E1     2.784196507948296E1
 1.076000000000000E9    -2.748263752928876E1     2.187559124903206E1    -1.798654230264659E-1    1.244880922422252E2    -1.689334871355849E-1    1.244954531445279E2    -2.801981475621579E1     2.728925808600867E1
 1.077000000000000E9    -2.752437683394014E1     2.139024054639355E1    -1.844306322852630E-1    1.239580442680614E2    -1.748227119004284E-1    1.239297094180279E2    -2.821307895371003E1     2.658360515662812E1
 1.078000000000000E9    -2.780190654405114E1     2.098265452533748E1    -1.829137768556123E-1    1.233420838996682E2    -1.749750132621016E-1    1.233455177856026E2    -2.823827220587079E1     2.495777915449669E1
 1.079000000000000E9    -2.784359396290187E1     1.974016405036352E1    -1.842400929087576E-1    1.227839036804925E2    -1.701633446818854E-1    1.228072150157512E2    -2.834541882183846E1     2.436652616843749E1
 1.080000000000000E9    -2.803159351736495E1     1.868391185532410E1    -1.880953660115035E-1    1.222414341205465E2    -1.764093251181860E-1    1.222283491710056E2    -2.866911387906707E1     2.242116744161048E1
 1.081000000000000E9    -2.820469586080747E1     1.803086157341065E1    -1.873696350969419E-1    1.217007324015258E2    -1.749943534219243E-1    1.217150488888334E2    -2.882962280811439E1     2.258433185885518E1
 1.082000000000000E9    -2.832637731538225E1     1.734672934222916E1    -1.865025857791024E-1    1.211925239794256E2    -1.780863281104176E-1    1.212014179505147E2    -2.881450529740922E1     2.156774006058391E1
 1.083000000000000E9    -2.858637243677635E1     1.685579560947789E1    -1.840238783190134E-1    1.206034494749669E2    -1.762552564061066E-1    1.206019279206673E2    -2.918355110666657E1     2.133640449783842E1
 1.084000000000000E9    -2.863596519036172E1     1.580137200666306E1    -1.888866016890942E-1    1.200567228763117E2    -1.777749127166960E-1    1.200727463189917E2    -2.934977217624215E1     1.986248903255092E1
 1.085000000000000E9    -2.879960665250962E1     1.473797756684921E1    -1.824379150343021E-1    1.194562699364734E2    -1.802926911518484E-1    1.195103492097484E2    -2.954725204704363E1     1.797892972313091E1
 1.086000000000000E9    -2.904172534874897E1     1.316559879688954E1    -1.934564266693659E-1    1.189923043970962E2    -1.829626934371495E-1    1.189693743931404E2    -2.953220140487026E1     1.788249743020679E1
 1.087000000000000E9    -2.905613127898180E1     1.274427306785910E1    -1.862239364319571E-1    1.184434984611738E2    -1.828471489211960E-1    1.184415125296387E2    -2.970636177638914E1     1.601133480609974E1
 1.088000000000000E9    -2.931466046298979E1     1.153263903994710E1    -1.930557310755007E-1    1.178541871641113E2    -1.838899742906028E-1    1.178707317024923E2    -3.014111453713668E1     1.525779959537836E1
 1.089000000000000E9    -2.964701298174721E1     1.096846279925108E1    -1.896613050481737E-1    1.173374179378897E2    -1.753351010847974E-1    1.173012210042011E2    -3.015100216826211E1     1.472929101366434E1
 1.090000000000000E9    -2.976451655446983E1     9.831571343067104      -1.926582323871212E-1    1.167585966824019E2    -1.838412337629551E-1    1.167545011193100E2    -3.022815105728925E1     1.211695849627854E1
 1.091000000000000E9    -3.010588693671350E1     9.096028535624821      -1.908329658183857E-1    1.162545140113487E2    -1.788952279337805E-1    1.162329449582087E2    -3.055991810603161E1     1.187180906746638E1
