#  HZ   S   DB   R     50.00 
! Rohde & Schwarz Vector Network Analyzer 
! Rohde-Schwarz,ZNB8-4Port,1311601044102961,2.82
! Created: UTC 3/4/2022, 4:04:52 PM
! freq[Hz]                db:S11                  ang:S11                 db:S21                  ang:S21                 db:S12                  ang:S12                 db:S22                  ang:S22
 1.000000000000000E9    -2.204282508952076E1     8.421997558676999E1    -1.791013519873512E-1    1.765728843689344E2    -1.660276847430254E-1    1.765768306245760E2    -2.264510907403579E1     8.378327599822066E1
 1.001000000000000E9    -2.202028141325899E1     8.385709112630748E1    -1.780751706810502E-1    1.759963658414101E2    -1.651014479484322E-1    1.760661602792873E2    -2.269087471674894E1     8.306109279484211E1
 1.002000000000000E9    -2.208109538208793E1     8.350418401816977E1    -1.776409934749014E-1    1.754844842085956E2    -1.607557552820135E-1    1.754431527869113E2    -2.271533478887683E1     8.223279596925269E1
 1.003000000000000E9    -2.210634191848761E1     8.308634896601970E1    -1.740323094736265E-1    1.749341771908083E2    -1.644942832408078E-1    1.749441011414039E2    -2.268416248262728E1     8.151805444753190E1
 1.004000000000000E9    -2.210046946299647E1     8.243219722206257E1    -1.762950276335286E-1    1.744011204885495E2    -1.681873299040600E-1    1.743744534214359E2    -2.267415684761899E1     8.070796424968427E1
 1.005000000000000E9    -2.210501443055539E1     8.157412560131455E1    -1.759317808927274E-1    1.738498572015156E2    -1.677157358505790E-1    1.739000437960142E2    -2.274537839225782E1     8.025547577873667E1
 1.006000000000000E9    -2.217232000523698E1     8.144792449512930E1    -1.756062176918570E-1    1.732982755928090E2    -1.662797835194363E-1    1.733033743015333E2    -2.276156125019020E1     7.983184154332383E1
 1.007000000000000E9    -2.221598583727677E1     8.122708964442806E1    -1.783065590936231E-1    1.728012225990833E2    -1.674951592376840E-1    1.727676702961336E2    -2.282160810869123E1     7.879396922219061E1
 1.008000000000000E9    -2.217156235054110E1     8.078489369274882E1    -1.739905519964686E-1    1.722294185005229E2    -1.660432675736727E-1    1.722278535308843E2    -2.285259440539506E1     7.859611646735560E1
 1.009000000000000E9    -2.226574880107334E1     7.972247456243588E1    -1.728473401117888E-1    1.717150176054289E2    -1.633949635494622E-1    1.716888710775636E2    -2.278748573331323E1     7.778061720363802E1
 1.010000000000000E9    -2.218807989144356E1     7.923373994321435E1    -1.713720238625293E-1    1.711344704035331E2    -1.655714579392034E-1    1.711750837371625E2    -2.288359281180540E1     7.695803526335060E1
 1.011000000000000E9    -2.222575237139747E1     7.898797990331258E1    -1.771107093537863E-1    1.706229117696724E2    -1.655142447909547E-1    1.705996566066210E2    -2.287508700555849E1     7.591655381942913E1
 1.012000000000000E9    -2.226289213161201E1     7.806182128672442E1    -1.787331227001519E-1    1.700734066583868E2    -1.645648020004707E-1    1.700545904741129E2    -2.290278030531660E1     7.539100734738079E1
 1.013000000000000E9    -2.232681115179920E1     7.791140634869484E1    -1.795857020935803E-1    1.694825006214870E2    -1.650589254104352E-1    1.695031182722154E2    -2.293345976267453E1     7.495039935519252E1
 1.014000000000000E9    -2.230614346179575E1     7.706109054699854E1    -1.821450104627305E-1    1.689441139250813E2    -1.626619946849998E-1    1.689582798551447E2    -2.292640217050037E1     7.449568828934000E1
 1.015000000000000E9    -2.233458325676259E1     7.631099307895062E1    -1.775679581264456E-1    1.684213662374104E2    -1.687283433531815E-1    1.684505488979126E2    -2.290695613338831E1     7.363587085756174E1
 1.016000000000000E9    -2.236182890622047E1     7.649807755298591E1    -1.810559030210542E-1    1.678468526919746E2    -1.666771538375394E-1    1.679056212310942E2    -2.289632031448594E1     7.310822227837801E1
 1.017000000000000E9    -2.233522276723109E1     7.605177819019971E1    -1.757425628643089E-1    1.673018103806286E2    -1.748156493184445E-1    1.673378930001268E2    -2.293674152707493E1     7.247110704241183E1
 1.018000000000000E9    -2.235679525017207E1     7.531483509695244E1    -1.788220913427602E-1    1.667749241978940E2    -1.659092777327883E-1    1.668021686584418E2    -2.301796407319955E1     7.204217442289934E1
 1.019000000000000E9    -2.243306575828922E1     7.453508701332983E1    -1.760617507060785E-1    1.662201776996539E2    -1.634903563616771E-1    1.662580706367287E2    -2.299070758217643E1     7.154131460655468E1
 1.020000000000000E9    -2.241869555528797E1     7.411252727186120E1    -1.756748955081125E-1    1.656886525348449E2    -1.666824736407453E-1    1.657306643594589E2    -2.305537478168251E1     7.053956795591103E1
 1.021000000000000E9    -2.248617844567289E1     7.319488650884816E1    -1.751564646511002E-1    1.651378873508876E2    -1.626265313688626E-1    1.651705891602976E2    -2.307834848444411E1     6.998704780465312E1
 1.022000000000000E9    -2.246046688913711E1     7.301498492011415E1    -1.803577820434071E-1    1.646290642876644E2    -1.662104890923682E-1    1.645970433249322E2    -2.309057741374950E1     6.964588889323053E1
 1.023000000000000E9    -2.251008550351118E1     7.230871632956527E1    -1.779949640162399E-1    1.640760532638202E2    -1.700299021179169E-1    1.640914339926093E2    -2.309792744018961E1     6.915679721715365E1
 1.024000000000000E9    -2.254820551030772E1     7.172823323945855E1    -1.761282558297836E-1    1.635439585002584E2    -1.645160918833590E-1    1.635576844911471E2    -2.313183462484574E1     6.874679725380808E1
 1.025000000000000E9    -2.260575628916682E1     7.126630059430370E1    -1.809211647444295E-1    1.630138514891893E2    -1.615135296008600E-1    1.629788626471243E2    -2.313534578121750E1     6.743191438984805E1
 1.026000000000000E9    -2.255480985859266E1     7.067052378904769E1    -1.805214930441897E-1    1.624212128601796E2    -1.647539087537226E-1    1.624606802986501E2    -2.315324562763712E1     6.720939603726158E1
 1.027000000000000E9    -2.255810432671144E1     7.008633682086554E1    -1.785575711488800E-1    1.618778624362883E2    -1.672079145618991E-1    1.619278238520847E2    -2.319409098475714E1     6.701802512699496E1
 1.028000000000000E9    -2.267893982777978E1     6.968575527943612E1    -1.730259819227319E-1    1.613968018864321E2    -1.593191777204722E-1    1.613452059580178E2    -2.316660221339335E1     6.622130904048940E1
 1.029000000000000E9    -2.264751006330357E1     6.908179996776599E1    -1.768419654063870E-1    1.608718280238509E2    -1.620568030554571E-1    1.608122886559877E2    -2.320971606473145E1     6.566962882992954E1
 1.030000000000000E9    -2.268831197683341E1     6.856712552186464E1    -1.795954955444783E-1    1.602456973050578E2    -1.638521610114208E-1    1.602999845225708E2    -2.323088481324049E1     6.499039739382195E1
 1.031000000000000E9    -2.266743669622678E1     6.753028915410376E1    -1.767710744141937E-1    1.597057891705401E2    -1.610120420993650E-1    1.597648347165250E2    -2.335453071473249E1     6.442354728804187E1
 1.032000000000000E9    -2.272399020966077E1     6.662813962360539E1    -1.796795432266235E-1    1.591955472467809E2    -1.707309890648547E-1    1.591991015879431E2    -2.334249958583697E1     6.446397787143876E1
 1.033000000000000E9    -2.280746017870132E1     6.609717019253519E1    -1.702398722213183E-1    1.586753796744749E2    -1.622245894914494E-1    1.586520524713378E2    -2.330251205172550E1     6.352109547542204E1
 1.034000000000000E9    -2.286849170170253E1     6.574653631894118E1    -1.750558473934985E-1    1.580793439600606E2    -1.634396991956692E-1    1.581378619028195E2    -2.338641814549547E1     6.278579382654880E1
 1.035000000000000E9    -2.284198224752175E1     6.468653604146880E1    -1.775064618418752E-1    1.575480188215788E2    -1.724659657409359E-1    1.575638229214595E2    -2.339725070046362E1     6.217300447396156E1
 1.036000000000000E9    -2.287066130445056E1     6.444041606639624E1    -1.777448737660672E-1    1.570414169194945E2    -1.716678876344251E-1    1.570297142020050E2    -2.349132655516435E1     6.156960795206373E1
 1.037000000000000E9    -2.289509852535521E1     6.420704850260300E1    -1.706234173753232E-1    1.564855957104138E2    -1.597493481299070E-1    1.564999215212055E2    -2.351493329829433E1     6.176556954328142E1
 1.038000000000000E9    -2.297484041340917E1     6.332793538805292E1    -1.738217426263634E-1    1.559397162891132E2    -1.639457407524196E-1    1.559032404053021E2    -2.351391672980278E1     6.064233079911959E1
 1.039000000000000E9    -2.299182322761946E1     6.235331598237233E1    -1.784314596057844E-1    1.553740616545722E2    -1.672794145514588E-1    1.554018305476035E2    -2.357477334920504E1     6.068286675680527E1
 1.040000000000000E9    -2.299632692790308E1     6.196158505036743E1    -1.743265807105780E-1    1.548622804580049E2    -1.714016167636770E-1    1.548543230494898E2    -2.350758909209507E1     6.001267587202083E1
 1.041000000000000E9    -2.305939703093220E1     6.136038683200451E1    -1.759872223743171E-1    1.543325211327227E2    -1.658947151402989E-1    1.543115804088878E2    -2.365927579505321E1     5.944340558327931E1
 1.042000000000000E9    -2.314713575337855E1     6.085412525096026E1    -1.763245582909592E-1    1.537580474673746E2    -1.674947608798654E-1    1.537935833316065E2    -2.366965974577107E1     5.900107843990011E1
 1.043000000000000E9    -2.313358290349553E1     5.978274648279353E1    -1.747624759772788E-1    1.532147965265667E2    -1.686106277747394E-1    1.531947703948241E2    -2.375348322730583E1     5.871305553296660E1
 1.044000000000000E9    -2.316134629421734E1     5.897496206691267E1    -1.725512147635724E-1    1.526639951923019E2    -1.647551414968294E-1    1.526772770104675E2    -2.377477067880998E1     5.808342894587244E1
 1.045000000000000E9    -2.322420201166540E1     5.855834844394079E1    -1.751035667033430E-1    1.521204037186314E2    -1.662860151242949E-1    1.521580697262385E2    -2.382213678504785E1     5.710383142045965E1
 1.046000000000000E9    -2.326198379712514E1     5.806757080881879E1    -1.752947467247230E-1    1.515654668487502E2    -1.607030238883017E-1    1.516100844769989E2    -2.389035016501117E1     5.708711145934052E1
 1.047000000000000E9    -2.331654217592875E1     5.712524572969796E1    -1.717737360155232E-1    1.510538349566745E2    -1.596210561413308E-1    1.510194336152775E2    -2.390570382580899E1     5.631098872679208E1
 1.048000000000000E9    -2.337174665400015E1     5.691668332774741E1    -1.732765345346392E-1    1.505091619521231E2    -1.640039664813333E-1    1.504893789208137E2    -2.395128097957833E1     5.597850100929637E1
 1.049000000000000E9    -2.341548723188818E1     5.593404166097651E1    -1.840143789699906E-1    1.499504309473586E2    -1.659005302502465E-1    1.499710634183791E2    -2.403591793080621E1     5.579567086036204E1
 1.050000000000000E9    -2.349935710286550E1     5.494172446350468E1    -1.741204295788992E-1    1.494395131557130E2    -1.663161314515453E-1    1.494112181703985E2    -2.410719058490205E1     5.553224573399466E1
 1.051000000000000E9    -2.348386338766476E1     5.446450830016718E1    -1.723896440014074E-1    1.488509635591552E2    -1.621682714352224E-1    1.488701716401482E2    -2.419670796646475E1     5.468025146697446E1
 1.052000000000000E9    -2.352306530185050E1     5.338078849906540E1    -1.756152316674490E-1    1.483383713209957E2    -1.657102140649399E-1    1.483295217488498E2    -2.414728634856801E1     5.410265212675267E1
 1.053000000000000E9    -2.359480465909238E1     5.332355691154058E1    -1.772216720634971E-1    1.477652755856194E2    -1.616874624984260E-1    1.477949120606604E2    -2.427999037932959E1     5.348677480804020E1
 1.054000000000000E9    -2.363506738058855E1     5.224087981195488E1    -1.736436776814065E-1    1.472404657180424E2    -1.631716578395027E-1    1.472364524237667E2    -2.435813187240305E1     5.321975475844526E1
 1.055000000000000E9    -2.377844274964143E1     5.209646522058548E1    -1.781381109515785E-1    1.466969199473965E2    -1.639446601240463E-1    1.466857305914055E2    -2.436564154093151E1     5.264286935217057E1
 1.056000000000000E9    -2.378399034115498E1     5.157738218600341E1    -1.693006331378426E-1    1.461470986616149E2    -1.687894456598313E-1    1.461537763262684E2    -2.442266250174703E1     5.268717130781907E1
 1.057000000000000E9    -2.387507661505230E1     5.082189667797483E1    -1.738171041838509E-1    1.455622309359043E2    -1.662133634536175E-1    1.456342257176625E2    -2.456124483350962E1     5.167299617838381E1
 1.058000000000000E9    -2.394434809893582E1     4.990172089961658E1    -1.713787576794744E-1    1.450744941415395E2    -1.630420479292487E-1    1.450625949627684E2    -2.464140734325119E1     5.109448495373462E1
 1.059000000000000E9    -2.398996413355070E1     4.933598842249953E1    -1.720473986176467E-1    1.445236129275411E2    -1.667637360579535E-1    1.445286331578704E2    -2.470210191297906E1     5.067234468610023E1
 1.060000000000000E9    -2.407464355759528E1     4.849574452270581E1    -1.684906405504956E-1    1.439900623410607E2    -1.653847396037275E-1    1.439852357679667E2    -2.474656613540402E1     5.055286393232407E1
 1.061000000000000E9    -2.417603549330499E1     4.814262437735207E1    -1.689172996733721E-1    1.434533035827867E2    -1.638346624234885E-1    1.434008842640519E2    -2.491446140101752E1     4.933266223432040E1
 1.062000000000000E9    -2.422028686685433E1     4.739133671277748E1    -1.738028028130926E-1    1.428871367999831E2    -1.737532169218099E-1    1.429187098125966E2    -2.485489713177924E1     4.917423079512437E1
 1.063000000000000E9    -2.432673422331667E1     4.669569891169319E1    -1.742473176930110E-1    1.423428454268011E2    -1.696165293657708E-1    1.423893922942463E2    -2.500404126522329E1     4.852996176179314E1
 1.064000000000000E9    -2.432692253251938E1     4.599828737337037E1    -1.721157586099700E-1    1.418348146523888E2    -1.625906433334813E-1    1.418172197512207E2    -2.511385394260444E1     4.849671683965784E1
 1.065000000000000E9    -2.444685109918670E1     4.521558381719691E1    -1.740938114948147E-1    1.412589495842720E2    -1.620170382178188E-1    1.412959397071904E2    -2.513242703585551E1     4.705828506986110E1
 1.066000000000000E9    -2.452650100936324E1     4.438700876607927E1    -1.640348376266035E-1    1.407335535272288E2    -1.544034101106277E-1    1.407473602368548E2    -2.524114172068204E1     4.748971729105635E1
 1.067000000000000E9    -2.458379023992701E1     4.409434467643425E1    -1.720434316061300E-1    1.401622192141358E2    -1.558198450269645E-1    1.401614777355989E2    -2.537784828779981E1     4.690795935654386E1
 1.068000000000000E9    -2.470543300743685E1     4.317930001389220E1    -1.760328255479448E-1    1.395868228865167E2    -1.520961266379895E-1    1.396638999958556E2    -2.530277369107719E1     4.610038374242606E1
 1.069000000000000E9    -2.480707456326200E1     4.253681605674680E1    -1.756242222829254E-1    1.390662446475376E2    -1.618745721413998E-1    1.391113932445651E2    -2.547952116213348E1     4.546279718666024E1
 1.070000000000000E9    -2.480185275571213E1     4.234475246693211E1    -1.672069712951217E-1    1.385577904033700E2    -1.695860436144149E-1    1.385456512522878E2    -2.558557989287630E1     4.472069365516823E1
 1.071000000000000E9    -2.491799592508457E1     4.188150698177145E1    -1.699808790885641E-1    1.380247140626098E2    -1.601124117741743E-1    1.379968852540116E2    -2.574202603363512E1     4.461646154677749E1
 1.072000000000000E9    -2.507261531747439E1     4.133548557776730E1    -1.687834846307122E-1    1.374481469727936E2    -1.652297678594825E-1    1.374606386400924E2    -2.577832768548327E1     4.344716631470352E1
 1.073000000000000E9    -2.517438986502404E1     4.055486301597421E1    -1.669722844049345E-1    1.369305975824881E2    -1.627530238054421E-1    1.369149310536583E2    -2.579565867989630E1     4.333888680713042E1
 1.074000000000000E9    -2.524763056924682E1     4.010433525033692E1    -1.684155548229219E-1    1.363519635028169E2    -1.631416363250808E-1    1.363850200741742E2    -2.602761264894306E1     4.225124068366237E1
 1.075000000000000E9    -2.533724771292111E1     3.906603717628633E1    -1.648064154256860E-1    1.357923241327119E2    -1.691807068041851E-1    1.358375669047023E2    -2.606501651846827E1     4.100882684448933E1
 1.076000000000000E9    -2.534902383109331E1     3.835975633172783E1    -1.664628765994072E-1    1.352890901333817E2    -1.627162997239078E-1    1.352740825717730E2    -2.617452037209899E1     4.116463875667343E1
 1.077000000000000E9    -2.551966425293560E1     3.788000493302264E1    -1.692983111830545E-1    1.347766015225692E2    -1.596108296387597E-1    1.347005007160511E2    -2.634560373608488E1     4.020667868452837E1
 1.078000000000000E9    -2.561365156832729E1     3.822834919985091E1    -1.707273525067367E-1    1.342027249327014E2    -1.577686421610436E-1    1.341841852363355E2    -2.637256602187368E1     3.947970896732299E1
 1.079000000000000E9    -2.564155066682674E1     3.669573133869250E1    -1.753340063227679E-1    1.336450827686064E2    -1.654348273617653E-1    1.336713430313556E2    -2.644209222556960E1     3.875150556561687E1
 1.080000000000000E9    -2.577407267626462E1     3.625433076763543E1    -1.652479341477228E-1    1.331099952116530E2    -1.596630363346303E-1    1.331161471965807E2    -2.661329799809447E1     3.776268350442317E1
 1.081000000000000E9    -2.590817947656353E1     3.599136816007568E1    -1.686512359491937E-1    1.325559737353673E2    -1.667269212487799E-1    1.325656784127497E2    -2.674685429340592E1     3.758673812817458E1
 1.082000000000000E9    -2.593285556241632E1     3.537736914032178E1    -1.657370449959681E-1    1.320242467842040E2    -1.595796936611507E-1    1.320002218923596E2    -2.669114595412260E1     3.692047922350059E1
 1.083000000000000E9    -2.608220911282438E1     3.493792632248911E1    -1.676948904035818E-1    1.314737876736554E2    -1.590984386826656E-1    1.314442608883328E2    -2.696281926848890E1     3.608629012865558E1
 1.084000000000000E9    -2.614909839775534E1     3.421821670189964E1    -1.729038962635693E-1    1.309361662818958E2    -1.613937001375864E-1    1.309531096861392E2    -2.702658201352290E1     3.524403806799654E1
 1.085000000000000E9    -2.628522083046150E1     3.375469341113421E1    -1.703614862545350E-1    1.303641626386002E2    -1.634129302382395E-1    1.303858168771148E2    -2.717470840555439E1     3.451227108073392E1
 1.086000000000000E9    -2.641282533157668E1     3.264356858234961E1    -1.702496262186279E-1    1.298541103328587E2    -1.588164212703335E-1    1.298612541837571E2    -2.726836747416343E1     3.434699833815695E1
 1.087000000000000E9    -2.635732207417720E1     3.177037036025970E1    -1.685047482061218E-1    1.293095034912276E2    -1.572668079934106E-1    1.293122297255475E2    -2.734879674809715E1     3.319515160820419E1
 1.088000000000000E9    -2.656248569106434E1     3.173081183830135E1    -1.723193493157890E-1    1.287155914281414E2    -1.613514010611931E-1    1.287610681896410E2    -2.752957393813557E1     3.240317867892821E1
 1.089000000000000E9    -2.679045568534638E1     3.154172290183783E1    -1.696326998062194E-1    1.282076353976598E2    -1.539456559894004E-1    1.281840042749257E2    -2.762998724331381E1     3.167627726689247E1
 1.090000000000000E9    -2.680144952042486E1     3.102582008989947E1    -1.646693596398317E-1    1.276844199893317E2    -1.681857510186322E-1    1.276572431185517E2    -2.759793561927006E1     3.028119188102956E1
 1.091000000000000E9    -2.697071069328859E1     3.067732731685623E1    -1.710957526796696E-1    1.270857604948386E2    -1.631932162255365E-1    1.271362659313285E2    -2.786009425475857E1     2.949090920554732E1
