#  HZ   S   DB   R     50.00 
! Rohde & Schwarz Vector Network Analyzer 
! Rohde-Schwarz,ZNB8-4Port,1311601044102961,2.82
! Created: UTC 3/4/2022, 4:08:24 PM
! freq[Hz]                db:S11                  ang:S11                 db:S21                  ang:S21                 db:S12                  ang:S12                 db:S22                  ang:S22
 1.000000000000000E9    -2.062740720131288E1     1.247080697238836E2    -2.235004213288578E-1    3.588251790090990E1    -2.099776116380527E-1    3.590407858920896E1    -2.103782078099357E1     1.228159034621370E2
 1.001000000000000E9    -2.062413763022409E1     1.243267814596702E2    -2.239199639223657E-1    3.517857867547163E1    -2.166153213806985E-1    3.519337083123494E1    -2.099586394061020E1     1.224201127920590E2
 1.002000000000000E9    -2.059506469420990E1     1.234181383671443E2    -2.289172258990072E-1    3.449980744186556E1    -2.118122056234253E-1    3.451115703953339E1    -2.096526086670374E1     1.214764723550728E2
 1.003000000000000E9    -2.054312592403257E1     1.226218984692123E2    -2.264607320015450E-1    3.385152482783231E1    -2.084788687592315E-1    3.377971890914629E1    -2.086004362960063E1     1.208351091033068E2
 1.004000000000000E9    -2.046509004899948E1     1.222780498491567E2    -2.292424972468692E-1    3.314672198305263E1    -2.143309066566811E-1    3.314651179482848E1    -2.083776712028893E1     1.204571909540580E2
 1.005000000000000E9    -2.045879689477186E1     1.214384151071163E2    -2.275370970899425E-1    3.245879334746533E1    -2.200258958246417E-1    3.249165762761112E1    -2.083195700875680E1     1.193237256604726E2
 1.006000000000000E9    -2.048561486669200E1     1.208851544622183E2    -2.275918831396007E-1    3.177078313747654E1    -2.142258089218747E-1    3.179402106437107E1    -2.075805547414037E1     1.186969752958002E2
 1.007000000000000E9    -2.039675036034391E1     1.202926134580297E2    -2.284344632367499E-1    3.112601878637515E1    -2.136887588262898E-1    3.111958441586081E1    -2.079883515396663E1     1.180669256530194E2
 1.008000000000000E9    -2.037251844970356E1     1.199237315155914E2    -2.290926387095938E-1    3.040449640723844E1    -2.161362702214058E-1    3.039185422248319E1    -2.074413877105645E1     1.171983318706362E2
 1.009000000000000E9    -2.037288260541704E1     1.188092319815205E2    -2.253673389891722E-1    2.975821437221959E1    -2.223144630121240E-1    2.973511812849902E1    -2.067823228770525E1     1.165624337877825E2
 1.010000000000000E9    -2.031002649844518E1     1.183659706527908E2    -2.294388935850125E-1    2.903836941477377E1    -2.182442384698099E-1    2.909268237998197E1    -2.068268149733086E1     1.156643867142534E2
 1.011000000000000E9    -2.028853314093446E1     1.177501658244372E2    -2.316720888752007E-1    2.836378914807015E1    -2.206298723699097E-1    2.838387244448155E1    -2.067450610751724E1     1.150943257920336E2
 1.012000000000000E9    -2.026276727812721E1     1.169261971588366E2    -2.320634292617011E-1    2.768267944309586E1    -2.199640963192341E-1    2.769705554156460E1    -2.058378021946858E1     1.139615472208089E2
 1.013000000000000E9    -2.027058322526676E1     1.163839850882420E2    -2.274054044387505E-1    2.702915608113868E1    -2.203111578391349E-1    2.702869730265347E1    -2.055112009674467E1     1.132712553547320E2
 1.014000000000000E9    -2.016422665807593E1     1.156733937211563E2    -2.277050455368452E-1    2.633215463639841E1    -2.159009457322642E-1    2.632351713998435E1    -2.055655031450547E1     1.127496948492752E2
 1.015000000000000E9    -2.016031279820827E1     1.150667135663822E2    -2.324382685562536E-1    2.567387622709261E1    -2.218385473522816E-1    2.565392765266016E1    -2.052605119807890E1     1.118095304564959E2
 1.016000000000000E9    -2.017172958792731E1     1.146281139382748E2    -2.265276483882594E-1    2.499018282615599E1    -2.231479039690742E-1    2.492935887234978E1    -2.046183421716750E1     1.109936976253582E2
 1.017000000000000E9    -2.010771849598226E1     1.142095218854764E2    -2.324017248958007E-1    2.426668218567864E1    -2.228975771194877E-1    2.429923583618729E1    -2.046302848140924E1     1.102468154190669E2
 1.018000000000000E9    -2.010166900866679E1     1.131772136134381E2    -2.364283896568708E-1    2.360088951489132E1    -2.237783063642202E-1    2.358677991755422E1    -2.047939032034202E1     1.094142010775718E2
 1.019000000000000E9    -2.004983995120671E1     1.124075962149196E2    -2.349438225575529E-1    2.290455112827664E1    -2.240741338464359E-1    2.290469005988984E1    -2.037549127255776E1     1.090329153370841E2
 1.020000000000000E9    -2.003549354314216E1     1.118661715537522E2    -2.283421795941255E-1    2.222990584778462E1    -2.209035135543096E-1    2.226803140594418E1    -2.037401987507719E1     1.082937394610756E2
 1.021000000000000E9    -2.000015104727067E1     1.109243358991398E2    -2.311661791169170E-1    2.156316612245356E1    -2.218969469152058E-1    2.155674463571211E1    -2.035675282405004E1     1.070952503226625E2
 1.022000000000000E9    -2.002314877514799E1     1.105933480175280E2    -2.370266303746316E-1    2.084588853434969E1    -2.239320221130271E-1    2.092161375338506E1    -2.029620736718142E1     1.067873237229271E2
 1.023000000000000E9    -1.993170946314738E1     1.098321297985484E2    -2.368766953700513E-1    2.018525303420520E1    -2.234910516782311E-1    2.020418553038208E1    -2.026025591219184E1     1.058982067294114E2
 1.024000000000000E9    -1.994861974450938E1     1.090978107737217E2    -2.357296618151472E-1    1.951422271772684E1    -2.239547787385446E-1    1.954421627420767E1    -2.025631073880530E1     1.054938547332820E2
 1.025000000000000E9    -1.990049411347358E1     1.084455469930082E2    -2.325922888160268E-1    1.881349043101934E1    -2.216468327162997E-1    1.886188127791971E1    -2.022903437121961E1     1.042039696128604E2
 1.026000000000000E9    -1.982587997497465E1     1.078214702358872E2    -2.396302176669109E-1    1.809766632435186E1    -2.228776000455937E-1    1.815605810381236E1    -2.017244155131094E1     1.035563054282757E2
 1.027000000000000E9    -1.982816632699553E1     1.070692039764083E2    -2.371587957263237E-1    1.747665745366838E1    -2.227827632876296E-1    1.744765139750033E1    -2.016838029120844E1     1.030215884151476E2
 1.028000000000000E9    -1.988478259157452E1     1.067495908461287E2    -2.344599536301923E-1    1.677302216633389E1    -2.238786751025783E-1    1.676372409139774E1    -2.012440720333455E1     1.022398698214211E2
 1.029000000000000E9    -1.979137143510732E1     1.056469888865219E2    -2.365496402091712E-1    1.606412075472598E1    -2.238381408242683E-1    1.614569070289973E1    -2.016836212649053E1     1.016084427291154E2
 1.030000000000000E9    -1.979955496208991E1     1.050906257789829E2    -2.375690282890089E-1    1.541614053353067E1    -2.248009853599092E-1    1.543910902106224E1    -2.006561709335099E1     1.008317997645144E2
 1.031000000000000E9    -1.976984191388557E1     1.043216573317886E2    -2.295956851302715E-1    1.473318563785909E1    -2.281224439944922E-1    1.474357065722262E1    -1.999563663756781E1     9.997998193264525E1
 1.032000000000000E9    -1.975024608339843E1     1.034527074437648E2    -2.409824576857851E-1    1.405091539306427E1    -2.225509870685752E-1    1.404352474722107E1    -2.007456768592938E1     9.957022312929941E1
 1.033000000000000E9    -1.971677408260918E1     1.029690966490612E2    -2.362533671143268E-1    1.334691274381460E1    -2.282811845891973E-1    1.337913666252835E1    -1.998949559736963E1     9.892886334036308E1
 1.034000000000000E9    -1.970340980468678E1     1.019548449558157E2    -2.400771840202954E-1    1.268714847049033E1    -2.247455714070850E-1    1.269261909069388E1    -1.998612888596642E1     9.797527856641526E1
 1.035000000000000E9    -1.967191298765060E1     1.014528820609153E2    -2.411373033756871E-1    1.198671569569535E1    -2.249336850724433E-1    1.206103236502426E1    -1.996743096207834E1     9.749314608984003E1
 1.036000000000000E9    -1.967125967045038E1     1.008226133996471E2    -2.383770813386866E-1    1.132364176266030E1    -2.235290324166021E-1    1.134838968758829E1    -1.998623291695589E1     9.633362124273641E1
 1.037000000000000E9    -1.963855796662671E1     1.001805872814840E2    -2.414507631868496E-1    1.062507493941749E1    -2.304019586784605E-1    1.066693193535022E1    -1.993927601556199E1     9.606517088142903E1
 1.038000000000000E9    -1.960981918058731E1     9.925430709969203E1    -2.405365849288248E-1    9.967681815129396      -2.295608701086249E-1    9.968638070200141      -1.991690465962356E1     9.534312589757658E1
 1.039000000000000E9    -1.960876582083653E1     9.863882291537442E1    -2.406562435858102E-1    9.291683339424111      -2.325394512161642E-1    9.240694554979823      -1.989860926904171E1     9.513688161543878E1
 1.040000000000000E9    -1.960263366358934E1     9.779665769128096E1    -2.383419242134709E-1    8.572912581091190      -2.251939062896888E-1    8.627835492066085      -1.983366707222464E1     9.436813478989859E1
 1.041000000000000E9    -1.959683187945874E1     9.706671059859531E1    -2.402473947673453E-1    7.918309194599569      -2.263594043771871E-1    7.932437385478251      -1.983594533158730E1     9.322001852189257E1
 1.042000000000000E9    -1.956034980585748E1     9.652167042650228E1    -2.371503064422537E-1    7.227104236746828      -2.273587488158960E-1    7.231508082285900      -1.982177670567407E1     9.275446807736712E1
 1.043000000000000E9    -1.952628686422706E1     9.573748123630352E1    -2.414387622374824E-1    6.540528456874148      -2.340099046642820E-1    6.593744116801279      -1.982166566999929E1     9.201731395980832E1
 1.044000000000000E9    -1.953100486629222E1     9.482071874645919E1    -2.440101630902344E-1    5.892599618294426      -2.302518186077992E-1    5.866738905514580      -1.982600065152234E1     9.128599242749318E1
 1.045000000000000E9    -1.951218325092303E1     9.435152283920318E1    -2.414212809295243E-1    5.212589484758599      -2.326435364576158E-1    5.191690701958097      -1.977970203989536E1     9.085685118221738E1
 1.046000000000000E9    -1.947893296976689E1     9.350899110246274E1    -2.423520877613706E-1    4.488909419340305      -2.219676928093419E-1    4.478847573095737      -1.978201321471307E1     8.989200478825221E1
 1.047000000000000E9    -1.951724726134839E1     9.261997035063585E1    -2.393820163936525E-1    3.845155432961818      -2.231740279648276E-1    3.880900455900083      -1.976939887421975E1     8.936327600265973E1
 1.048000000000000E9    -1.947515066040742E1     9.211964431826205E1    -2.440620660718055E-1    3.132829944255872      -2.296414599208959E-1    3.121561068373288      -1.978629082884990E1     8.871696319793055E1
 1.049000000000000E9    -1.947813190675211E1     9.142332159936214E1    -2.384424537954041E-1    2.486677476800385      -2.327010129221566E-1    2.461653686418285      -1.976923618749628E1     8.821677843397690E1
 1.050000000000000E9    -1.949164534084125E1     9.030782747564319E1    -2.402377361020016E-1    1.817903675539959      -2.333832062031921E-1    1.814037871463246      -1.973710568580061E1     8.758894240322370E1
 1.051000000000000E9    -1.946685780237002E1     8.973753498784879E1    -2.383909781211668E-1    1.125533853330436      -2.317404763586864E-1    1.129010298293594      -1.979490330585194E1     8.666002232769547E1
 1.052000000000000E9    -1.947034824506826E1     8.910011149270592E1    -2.417271794338300E-1    4.068721078652147E-1   -2.318394362106429E-1    4.720864179681638E-1   -1.971723753393512E1     8.614471459410636E1
 1.053000000000000E9    -1.947496524246328E1     8.820878453013162E1    -2.370945247591756E-1   -2.438604950309608E-1   -2.270291941969737E-1   -2.409009397150029E-1   -1.974590955386259E1     8.557650130688126E1
 1.054000000000000E9    -1.943815159429255E1     8.762487449333000E1    -2.397641092019001E-1   -8.916415228115405E-1   -2.357985603219517E-1   -9.191570547763156E-1   -1.975989281945601E1     8.483854808501616E1
 1.055000000000000E9    -1.948577386882032E1     8.684442117009694E1    -2.390749250178298E-1   -1.610615364963131      -2.327909439146838E-1   -1.609219331765621      -1.971931366945660E1     8.430219013667724E1
 1.056000000000000E9    -1.948196389139454E1     8.608036695152971E1    -2.461814810567964E-1   -2.295316164219261      -2.349713456413524E-1   -2.294592113223286      -1.974693770682363E1     8.386341971250558E1
 1.057000000000000E9    -1.951082904526833E1     8.536066319827637E1    -2.430804323874916E-1   -2.963642510332689      -2.376183084864142E-1   -2.957388252019820      -1.978703974298388E1     8.295897850865026E1
 1.058000000000000E9    -1.946663319311763E1     8.431695457501746E1    -2.433932652083476E-1   -3.647482741561273      -2.302197704384839E-1   -3.629222308593183      -1.975661734767867E1     8.253418737830482E1
 1.059000000000000E9    -1.948576218570679E1     8.382149435963959E1    -2.467741167049572E-1   -4.348799730491762      -2.354223042760137E-1   -4.338835244219530      -1.976048770411148E1     8.153872763360198E1
 1.060000000000000E9    -1.949515922640074E1     8.312414595528676E1    -2.443882565075027E-1   -5.031446730093483      -2.337761690987407E-1   -4.976476227062041      -1.973693749287116E1     8.126650275794391E1
 1.061000000000000E9    -1.951863199261048E1     8.236808102514361E1    -2.381319644398957E-1   -5.661413848906344      -2.258909023821138E-1   -5.654516087102384      -1.977952310230528E1     8.037188664328411E1
 1.062000000000000E9    -1.950030377530199E1     8.178861957234697E1    -2.364052989078692E-1   -6.388614711272304      -2.357829759857301E-1   -6.334962537629248      -1.975672482199089E1     7.995875010349749E1
 1.063000000000000E9    -1.949975534473335E1     8.067821702027889E1    -2.429400249221969E-1   -7.040391035698239      -2.285757230877313E-1   -7.031782006532323      -1.983089916771015E1     7.916161908477397E1
 1.064000000000000E9    -1.951587163215354E1     7.986383083112499E1    -2.388688526374114E-1   -7.734665519422908      -2.417738992885045E-1   -7.696843521959750      -1.984347249302238E1     7.856144451092223E1
 1.065000000000000E9    -1.956310693857519E1     7.931902899425342E1    -2.370593456002027E-1   -8.432311842946453      -2.326920272529351E-1   -8.393732947169026      -1.983098946590390E1     7.784654823721209E1
 1.066000000000000E9    -1.952697518517702E1     7.824749799454715E1    -2.384429127821113E-1   -9.064489784239740      -2.340945805716867E-1   -9.086504987167942      -1.985697624517591E1     7.763430932189890E1
 1.067000000000000E9    -1.954940236067932E1     7.774982862157093E1    -2.416256611820841E-1   -9.725079069767949      -2.285429747566526E-1   -9.750024617905707      -1.987168556015743E1     7.671785538552608E1
 1.068000000000000E9    -1.959248179211731E1     7.713043019267983E1    -2.378243503882785E-1   -1.046202709229352E1    -2.317501467032000E-1   -1.044925561904468E1    -1.988372646457255E1     7.632998330572444E1
 1.069000000000000E9    -1.964079901896344E1     7.612761634661642E1    -2.427441438094684E-1   -1.114191918904398E1    -2.336663164712394E-1   -1.113551668750079E1    -1.987921775609610E1     7.540339691729714E1
 1.070000000000000E9    -1.960903017245727E1     7.571206594068387E1    -2.446641652618306E-1   -1.183626424682396E1    -2.306660433718651E-1   -1.177687601975959E1    -1.988340088304165E1     7.492479933402555E1
 1.071000000000000E9    -1.965574474723664E1     7.496109315361824E1    -2.410603536150080E-1   -1.252512709960555E1    -2.300386546801823E-1   -1.246488620352129E1    -1.989808890841134E1     7.420825505050134E1
 1.072000000000000E9    -1.968613314394451E1     7.410301576424143E1    -2.375453357891478E-1   -1.319091786560185E1    -2.252382666049349E-1   -1.319196549016032E1    -1.990746606580007E1     7.323707369143484E1
 1.073000000000000E9    -1.971647381141992E1     7.359035917869572E1    -2.485527166142481E-1   -1.380928813850750E1    -2.289103103181233E-1   -1.383879441287103E1    -1.999610711589170E1     7.300998503572764E1
 1.074000000000000E9    -1.971765946842505E1     7.291018716491533E1    -2.316184465990067E-1   -1.450629304093295E1    -2.265212479684416E-1   -1.447425883537731E1    -1.996463274633736E1     7.202899963670939E1
 1.075000000000000E9    -1.976088513203984E1     7.211219586625468E1    -2.357900692734262E-1   -1.525385682424550E1    -2.296540650232292E-1   -1.517408523616026E1    -1.997169884066988E1     7.121058267531254E1
 1.076000000000000E9    -1.973252934052244E1     7.089442327407620E1    -2.388649608680823E-1   -1.590962457282376E1    -2.265086420762415E-1   -1.589323315307869E1    -2.004015690019913E1     7.053830318245946E1
 1.077000000000000E9    -1.973591740462587E1     7.062089699845075E1    -2.387576505778571E-1   -1.654424717904917E1    -2.323203349513331E-1   -1.655674367647723E1    -2.012066630244922E1     6.988158594394734E1
 1.078000000000000E9    -1.983442176040022E1     7.009618392800118E1    -2.408478847206219E-1   -1.725467801677214E1    -2.274124616089974E-1   -1.722497593159309E1    -2.010654828518969E1     6.938577586490221E1
 1.079000000000000E9    -1.979728928167439E1     6.925256666688644E1    -2.321063436686763E-1   -1.791531197061079E1    -2.310195190575611E-1   -1.793228947998645E1    -2.011508875078471E1     6.862923760801225E1
 1.080000000000000E9    -1.985313111263019E1     6.861201185749619E1    -2.381080466089747E-1   -1.861557461590994E1    -2.308669841248087E-1   -1.865963164069563E1    -2.016067956290766E1     6.764338383626109E1
 1.081000000000000E9    -1.985017241747976E1     6.775354127400469E1    -2.335729060141076E-1   -1.931310446253513E1    -2.277819965361481E-1   -1.928957347718407E1    -2.018371798597088E1     6.714006234466289E1
 1.082000000000000E9    -1.993306291646655E1     6.722285183475735E1    -2.392837894913245E-1   -2.000463333222789E1    -2.276081186505752E-1   -2.000615087030432E1    -2.018819913904916E1     6.652685503775984E1
 1.083000000000000E9    -1.994518923787228E1     6.646742258527355E1    -2.329315968899308E-1   -2.071162700186249E1    -2.250199873237968E-1   -2.064319298260472E1    -2.028650770717461E1     6.566813057337033E1
 1.084000000000000E9    -1.993053296185150E1     6.612028098611276E1    -2.412176742716679E-1   -2.134650022776461E1    -2.256542520022369E-1   -2.129799232000767E1    -2.025860205382731E1     6.504757653141671E1
 1.085000000000000E9    -1.998502222328624E1     6.519809802907564E1    -2.378373467205371E-1   -2.204635408769302E1    -2.246709370201647E-1   -2.198696787026121E1    -2.034805298912630E1     6.413688996677104E1
 1.086000000000000E9    -2.001450008461817E1     6.409130066017616E1    -2.364035003709209E-1   -2.270463807465948E1    -2.219814517393749E-1   -2.269077110891898E1    -2.029486955310711E1     6.357639400781135E1
 1.087000000000000E9    -2.005018621817087E1     6.391004352124357E1    -2.366268951497440E-1   -2.336999847551186E1    -2.362772767496879E-1   -2.337515974277268E1    -2.038530969123618E1     6.284045425093353E1
 1.088000000000000E9    -2.006138978243944E1     6.296940503236422E1    -2.381830669813875E-1   -2.406587282995240E1    -2.250974481376896E-1   -2.407712303840226E1    -2.046023522084332E1     6.193317810608309E1
 1.089000000000000E9    -2.013877527151296E1     6.243211133934364E1    -2.337856988398101E-1   -2.474973346292806E1    -2.251903095192330E-1   -2.475419306670882E1    -2.044673524513360E1     6.129111399409202E1
 1.090000000000000E9    -2.013965204288749E1     6.201282024958231E1    -2.364706575771035E-1   -2.544141426902777E1    -2.338619292935912E-1   -2.545544143133550E1    -2.045585303987147E1     6.041996133625392E1
 1.091000000000000E9    -2.020958009475110E1     6.093928163412971E1    -2.378839759493027E-1   -2.612659575694612E1    -2.283185034633882E-1   -2.605199410234641E1    -2.052625232172065E1     5.995043779378582E1
