#  HZ   S   DB   R     50.00 
! Rohde & Schwarz Vector Network Analyzer 
! Rohde-Schwarz,ZNB8-4Port,1311601044102961,2.82
! Created: UTC 3/4/2022, 4:05:36 PM
! freq[Hz]                db:S11                  ang:S11                 db:S21                  ang:S21                 db:S12                  ang:S12                 db:S22                  ang:S22
 1.000000000000000E9    -2.472882097783759E1     5.068473494485389E1    -1.754838591290698E-1    1.468438500412295E2    -1.623575492111825E-1    1.468267358108464E2    -2.561267612594282E1     5.302346501971142E1
 1.001000000000000E9    -2.476719352302684E1     5.033190240619483E1    -1.728182739453169E-1    1.462485663333123E2    -1.641724163916089E-1    1.462314074520265E2    -2.565203900161713E1     5.204182663985302E1
 1.002000000000000E9    -2.493877779496991E1     5.010459614785997E1    -1.752524269954396E-1    1.456754296541446E2    -1.660973628366774E-1    1.456893906217566E2    -2.574787499386087E1     5.159240213162291E1
 1.003000000000000E9    -2.491038581537769E1     4.946094368549057E1    -1.747757136576822E-1    1.450941398564271E2    -1.599495881080721E-1    1.450766260705847E2    -2.571596324297889E1     5.049289480159791E1
 1.004000000000000E9    -2.497993105316462E1     4.892739897765471E1    -1.734143822679630E-1    1.445272814358260E2    -1.644786199730081E-1    1.445200791346918E2    -2.588913723674334E1     4.989574906071840E1
 1.005000000000000E9    -2.509213288897330E1     4.857244330502034E1    -1.716578818348259E-1    1.439253409425348E2    -1.604235971567174E-1    1.439461729828878E2    -2.599262654469537E1     4.917897853154258E1
 1.006000000000000E9    -2.514201279210933E1     4.751025049767095E1    -1.758899641895670E-1    1.433777294374351E2    -1.633896921901638E-1    1.433596407007677E2    -2.598310288964125E1     4.841344222732616E1
 1.007000000000000E9    -2.524647279732227E1     4.739432451761772E1    -1.664785655602660E-1    1.428430943927740E2    -1.610605594640331E-1    1.427988913637099E2    -2.616079335021728E1     4.750980298715582E1
 1.008000000000000E9    -2.529835110423832E1     4.666578878152421E1    -1.707008113246082E-1    1.422319202974108E2    -1.678691989657832E-1    1.422180181504519E2    -2.612688214209737E1     4.712733106400140E1
 1.009000000000000E9    -2.543370473608704E1     4.606277649651381E1    -1.774618179906718E-1    1.416333337418250E2    -1.609528531058753E-1    1.416469512655432E2    -2.616678042069492E1     4.639431108172642E1
 1.010000000000000E9    -2.543123345544359E1     4.548853880781223E1    -1.750317035732199E-1    1.410816658576232E2    -1.556903757738656E-1    1.410731810949445E2    -2.628388526658835E1     4.552381722892800E1
 1.011000000000000E9    -2.555165212248947E1     4.456954279966214E1    -1.761139477915936E-1    1.404809303241098E2    -1.594780020893248E-1    1.405026042273460E2    -2.638245650271591E1     4.447323557712679E1
 1.012000000000000E9    -2.565249528948915E1     4.424312501439133E1    -1.706545631799030E-1    1.399549945196810E2    -1.544540563757592E-1    1.399184352322967E2    -2.641574121468132E1     4.411331312755501E1
 1.013000000000000E9    -2.572740257574013E1     4.359724971210598E1    -1.705986850648924E-1    1.393157918631858E2    -1.574939075376895E-1    1.393388463215087E2    -2.648668062533407E1     4.365455622641331E1
 1.014000000000000E9    -2.568830928027823E1     4.318591836337314E1    -1.703577548903351E-1    1.387440342921625E2    -1.590482523130134E-1    1.387746886310230E2    -2.666052354477298E1     4.344271199983734E1
 1.015000000000000E9    -2.585092640039916E1     4.246570764933667E1    -1.666445769051845E-1    1.382153010519963E2    -1.590671956612852E-1    1.381959599797795E2    -2.668402069337260E1     4.220046887297591E1
 1.016000000000000E9    -2.592225304087514E1     4.206426282655215E1    -1.691032358492027E-1    1.376072057454867E2    -1.561599400437413E-1    1.376510652506572E2    -2.670943193212821E1     4.151142765272272E1
 1.017000000000000E9    -2.591319814053123E1     4.159101308603671E1    -1.705273585495906E-1    1.370317626997715E2    -1.603032206368277E-1    1.370363200804769E2    -2.669091448331535E1     4.082611398646201E1
 1.018000000000000E9    -2.608221954802283E1     4.085333630788649E1    -1.648650314136541E-1    1.364852588875953E2    -1.524910979461559E-1    1.364632147985577E2    -2.690950386566109E1     4.095728075599256E1
 1.019000000000000E9    -2.618060962929550E1     3.993026375300625E1    -1.661700862253666E-1    1.359118327707581E2    -1.542341633685681E-1    1.358703800909153E2    -2.690007662717400E1     4.022904256192706E1
 1.020000000000000E9    -2.616718762452267E1     3.907317860641209E1    -1.727748612554461E-1    1.353531522023282E2    -1.564514091505721E-1    1.353219641562302E2    -2.708087778058095E1     3.935608078439140E1
 1.021000000000000E9    -2.634647762699222E1     3.843571331685076E1    -1.716364338038841E-1    1.347173601022438E2    -1.539718259161660E-1    1.347465089632894E2    -2.711775069180418E1     3.895097539311762E1
 1.022000000000000E9    -2.635346754060338E1     3.845558758937636E1    -1.694396058651382E-1    1.341518810367307E2    -1.552250933754889E-1    1.341851585014910E2    -2.712043903194437E1     3.894039567359319E1
 1.023000000000000E9    -2.651698632367728E1     3.715712764429052E1    -1.655571533075405E-1    1.335998461048725E2    -1.562313731991495E-1    1.336314669926074E2    -2.726563121581592E1     3.777091225416301E1
 1.024000000000000E9    -2.659537954013949E1     3.666329064744120E1    -1.704087206407017E-1    1.330363057899899E2    -1.607285440701322E-1    1.330365164248441E2    -2.732633344298469E1     3.793420878546506E1
 1.025000000000000E9    -2.671917616621148E1     3.602322678108128E1    -1.693051051895236E-1    1.324488330377214E2    -1.554834422471002E-1    1.324495562804673E2    -2.762595874929727E1     3.636624177497504E1
 1.026000000000000E9    -2.675567374889328E1     3.570218818493937E1    -1.631018289000401E-1    1.318666331019283E2    -1.564693407704898E-1    1.319063692468353E2    -2.759232255730641E1     3.591606958783897E1
 1.027000000000000E9    -2.691382881617645E1     3.407300120908489E1    -1.625577887360662E-1    1.313200509262514E2    -1.567405745105119E-1    1.312970355291662E2    -2.762840783708026E1     3.566173533782646E1
 1.028000000000000E9    -2.699351944375729E1     3.428533164008692E1    -1.681206371268684E-1    1.307106174856593E2    -1.512767941076142E-1    1.307111450780851E2    -2.774664381738251E1     3.486168762091183E1
 1.029000000000000E9    -2.699555319913820E1     3.317867927364573E1    -1.660468740743461E-1    1.301620437522775E2    -1.597096052996573E-1    1.301226011064690E2    -2.793419085218851E1     3.592270985789532E1
 1.030000000000000E9    -2.715479213913771E1     3.261326712095136E1    -1.651085564596510E-1    1.295305053579044E2    -1.586781407790637E-1    1.295497778556022E2    -2.784704049156861E1     3.492523361567162E1
 1.031000000000000E9    -2.722827225993668E1     3.187998511820243E1    -1.704614677770148E-1    1.289766289622957E2    -1.595137033512591E-1    1.289739288351457E2    -2.814027701166197E1     3.379359521626546E1
 1.032000000000000E9    -2.738000209973663E1     3.062520890468338E1    -1.640388612612772E-1    1.284251309364422E2    -1.507633729391655E-1    1.283937977645939E2    -2.813404472752395E1     3.431324667576777E1
 1.033000000000000E9    -2.746771221940786E1     2.925445040731258E1    -1.665815769163344E-1    1.278489824167665E2    -1.534584951589011E-1    1.278158787029518E2    -2.833353556704845E1     3.235559261591294E1
 1.034000000000000E9    -2.765738226162939E1     2.922895020069087E1    -1.686368398954712E-1    1.272783370461113E2    -1.490621614565056E-1    1.272450407857951E2    -2.839566892345056E1     3.266394664508473E1
 1.035000000000000E9    -2.779404877355345E1     2.782772728204055E1    -1.686377248656751E-1    1.266806031088756E2    -1.538568287372019E-1    1.267155970390687E2    -2.859587919686682E1     3.221921804190947E1
 1.036000000000000E9    -2.782628339385658E1     2.732795667268832E1    -1.611696755144631E-1    1.261279208031909E2    -1.581881524267481E-1    1.260963173212678E2    -2.877587871861955E1     3.086248486783698E1
 1.037000000000000E9    -2.808180676721823E1     2.655450304367024E1    -1.621071888073150E-1    1.255430840766319E2    -1.558253011385814E-1    1.255527043779358E2    -2.876408790212402E1     3.198146745453568E1
 1.038000000000000E9    -2.804316066641775E1     2.646052409474320E1    -1.641295915263969E-1    1.249784265154158E2    -1.526213987423516E-1    1.249244100321252E2    -2.897114128458671E1     3.119076813278407E1
 1.039000000000000E9    -2.827515244919344E1     2.492323743980927E1    -1.613179511669379E-1    1.243791170664561E2    -1.555251044187523E-1    1.243803050430679E2    -2.903200646979135E1     3.094548208401890E1
 1.040000000000000E9    -2.829817379014290E1     2.404899877039446E1    -1.589964875971772E-1    1.237704284188942E2    -1.499437934127689E-1    1.238357145985240E2    -2.911840090217290E1     3.021566023031274E1
 1.041000000000000E9    -2.860330653303915E1     2.312674170705759E1    -1.655609245525492E-1    1.232243040884393E2    -1.509320073818721E-1    1.232526886404356E2    -2.941192014602716E1     2.984622994792055E1
 1.042000000000000E9    -2.868474137687972E1     2.220149131728530E1    -1.650068891836140E-1    1.226847312862943E2    -1.481420859232289E-1    1.226766677765510E2    -2.951137041633656E1     2.961883284861009E1
 1.043000000000000E9    -2.876507166250888E1     2.106135471828202E1    -1.599076711329566E-1    1.220898168517451E2    -1.553182175732975E-1    1.220469312354786E2    -2.975184753745997E1     2.941912514084530E1
 1.044000000000000E9    -2.899404852768580E1     1.987263137937315E1    -1.657630069268753E-1    1.214997489118930E2    -1.495212734676718E-1    1.215200924119858E2    -2.994298674769567E1     2.937375299800835E1
 1.045000000000000E9    -2.910680137546530E1     1.974441142693580E1    -1.601956031641109E-1    1.209348108602988E2    -1.499369999953630E-1    1.209315833224492E2    -3.006636860807598E1     2.740151126691004E1
 1.046000000000000E9    -2.918959075182809E1     1.876586405272228E1    -1.566208152673398E-1    1.202979259335207E2    -1.493708074677055E-1    1.203404691597071E2    -3.030169170398949E1     2.835448245000097E1
 1.047000000000000E9    -2.938632952088931E1     1.748548230801228E1    -1.590809396954704E-1    1.197614963940432E2    -1.503735756014088E-1    1.198241068591764E2    -3.049278266002126E1     2.674634334792086E1
 1.048000000000000E9    -2.951154093500454E1     1.645531844368048E1    -1.615637499362791E-1    1.192180706020979E2    -1.517271662877781E-1    1.191982879428111E2    -3.067369826138643E1     2.712700418950043E1
 1.049000000000000E9    -2.981813652834563E1     1.666915923122378E1    -1.634895526224667E-1    1.186149320584593E2    -1.486956392688086E-1    1.186790921707851E2    -3.076798184573788E1     2.720010285352439E1
 1.050000000000000E9    -3.000149086578301E1     1.462647577750768E1    -1.627024920387866E-1    1.180574705480938E2    -1.460059215437017E-1    1.180672289249593E2    -3.110090030485109E1     2.623016998006413E1
 1.051000000000000E9    -3.011480019989780E1     1.393503853450074E1    -1.645696151261282E-1    1.174705060666328E2    -1.500733139206697E-1    1.174783328275226E2    -3.138907495997186E1     2.563409772042410E1
 1.052000000000000E9    -3.030662109812905E1     1.287142651141022E1    -1.523773145089266E-1    1.168878050141635E2    -1.468431267697843E-1    1.169067858098973E2    -3.132299604973408E1     2.481382862255071E1
 1.053000000000000E9    -3.067694262007687E1     1.171860886266517E1    -1.569333275403750E-1    1.163650033142225E2    -1.521335459238501E-1    1.163671060954017E2    -3.190470579421288E1     2.458674765687822E1
 1.054000000000000E9    -3.075721027777370E1     1.057311791391430E1    -1.568704029207128E-1    1.157902130220796E2    -1.495709370929020E-1    1.157735038328737E2    -3.198351514058923E1     2.488758691052295E1
 1.055000000000000E9    -3.104877908668652E1     1.029557837955393E1    -1.620028237178049E-1    1.152241921142440E2    -1.479761743218773E-1    1.151558005168684E2    -3.218810354862646E1     2.393521254879811E1
 1.056000000000000E9    -3.123326678195494E1     8.680948193409687      -1.551763390613927E-1    1.146113299380809E2    -1.506472747089773E-1    1.145905475344475E2    -3.236777346020306E1     2.351639906608661E1
 1.057000000000000E9    -3.147771346827395E1     8.182206765356208      -1.601747984113441E-1    1.140150509610327E2    -1.476277896432051E-1    1.140550697425633E2    -3.264450964886872E1     2.313866104066459E1
 1.058000000000000E9    -3.161713848377033E1     6.593491066753590      -1.555629582567569E-1    1.134355534384845E2    -1.462954754637020E-1    1.134162375196501E2    -3.307403545451635E1     2.261297982866719E1
 1.059000000000000E9    -3.201076062811244E1     5.412050720009526      -1.523874844268864E-1    1.128666194769440E2    -1.519211364674759E-1    1.128434581889211E2    -3.331951878073198E1     2.225640440780025E1
 1.060000000000000E9    -3.215222762695083E1     4.180640418849621      -1.571498380923420E-1    1.122952470318182E2    -1.597084309430583E-1    1.122932453379447E2    -3.356148808800490E1     2.051640302842331E1
 1.061000000000000E9    -3.249191614525782E1     3.790732259473762      -1.501255876936282E-1    1.117404511669659E2    -1.544199198293184E-1    1.117225285538070E2    -3.405358717802486E1     2.134003427318848E1
 1.062000000000000E9    -3.278397420873312E1     2.349230617113137      -1.527291734569682E-1    1.112122241199220E2    -1.482218149282786E-1    1.111431119672411E2    -3.412489904322467E1     1.933791914643541E1
 1.063000000000000E9    -3.316973352443709E1    -5.243956487106168E-2   -1.635826815784672E-1    1.105569338560586E2    -1.450011825919285E-1    1.105682056234714E2    -3.475479070056876E1     1.946499900830160E1
 1.064000000000000E9    -3.312715485922533E1     9.263493486065795E-2   -1.626876564807298E-1    1.100183677636539E2    -1.435975545308413E-1    1.099879856227081E2    -3.484025305696109E1     2.147478637867702E1
 1.065000000000000E9    -3.371462640562023E1    -1.223480290070740      -1.564269239975036E-1    1.094324847097567E2    -1.460588627701822E-1    1.094691116253098E2    -3.530269255557571E1     1.876979596129769E1
 1.066000000000000E9    -3.394176146237318E1    -2.665805275390013      -1.536872349355828E-1    1.088912564213933E2    -1.447691192282483E-1    1.088154070801013E2    -3.575971469364010E1     1.808246450524146E1
 1.067000000000000E9    -3.420413803228177E1    -3.374670208736221      -1.521666125543003E-1    1.082918354064679E2    -1.485272354076541E-1    1.082357297427278E2    -3.615721397770928E1     1.820817635768858E1
 1.068000000000000E9    -3.443548893091813E1    -4.795189612489677      -1.535565592490442E-1    1.076779295440549E2    -1.452619391583487E-1    1.076874891598772E2    -3.632636477100155E1     1.677007416180431E1
 1.069000000000000E9    -3.507054060906626E1    -6.624093955614421      -1.506081489510190E-1    1.071346115895191E2    -1.403274302335600E-1    1.071292151107035E2    -3.657992381519941E1     1.682498468587119E1
 1.070000000000000E9    -3.523607130301880E1    -7.241314945309942      -1.526713040648649E-1    1.065629721489241E2    -1.419690847347956E-1    1.065607584114136E2    -3.724066145699296E1     1.532613220443424E1
 1.071000000000000E9    -3.556811509625329E1    -8.087784699747481      -1.536615974701429E-1    1.059902340713025E2    -1.378767316087934E-1    1.059878927345122E2    -3.781158240125568E1     1.415808009348719E1
 1.072000000000000E9    -3.625750694616763E1    -1.044710711938613E1    -1.523395725969396E-1    1.053849040938552E2    -1.482855407995466E-1    1.053947992130284E2    -3.801208920783863E1     1.186344190899375E1
 1.073000000000000E9    -3.653190531196674E1    -1.148800243825385E1    -1.529640746690101E-1    1.048225861537259E2    -1.413611561376413E-1    1.048686806114391E2    -3.860503603068548E1     1.259074149885586E1
 1.074000000000000E9    -3.727968654976735E1    -1.382582997104459E1    -1.453799452472418E-1    1.042376813103088E2    -1.457576631654187E-1    1.042625501233926E2    -3.923369685479420E1     1.067882598042876E1
 1.075000000000000E9    -3.776645012674725E1    -1.586018918190309E1    -1.538197254387644E-1    1.036421934143921E2    -1.470423948587046E-1    1.036656949521945E2    -3.979160650278233E1     9.211306304009813
 1.076000000000000E9    -3.779394580955616E1    -1.995702295118863E1    -1.518363481201825E-1    1.030968804767522E2    -1.469922598656523E-1    1.031010384459662E2    -4.033652398022556E1     1.058896897007311E1
 1.077000000000000E9    -3.814776439296301E1    -2.158362865093196E1    -1.513518620752641E-1    1.025187587004916E2    -1.499893347193791E-1    1.025485504028961E2    -4.127258993752622E1     7.728461881527425
 1.078000000000000E9    -3.914616902834860E1    -1.912861523715299E1    -1.542282136902570E-1    1.019134339915267E2    -1.419174214125979E-1    1.019800419331877E2    -4.135815279403441E1     8.216746078869729
 1.079000000000000E9    -3.913365260485333E1    -2.295430681771550E1    -1.517216141806053E-1    1.013791169762278E2    -1.374203236131308E-1    1.013820236668870E2    -4.231982358115656E1     2.346275142851467
 1.080000000000000E9    -3.957916919474555E1    -2.829247686760324E1    -1.525042988828112E-1    1.007967993130824E2    -1.399269609460593E-1    1.008094009518624E2    -4.286804654632763E1     7.401789203602757E-1
 1.081000000000000E9    -4.088139356219418E1    -2.907108976221075E1    -1.548823420443636E-1    1.001728940861795E2    -1.405138067602375E-1    1.002413722195631E2    -4.483692668828275E1     4.177601486141175
 1.082000000000000E9    -4.105132453897017E1    -3.263306029217335E1    -1.528812831783709E-1    9.966276945083826E1    -1.448951781044925E-1    9.964297762472057E1    -4.421824701693944E1    -2.258673485364799
 1.083000000000000E9    -4.222627130384066E1    -3.480626784122013E1    -1.485205156121165E-1    9.907861379150745E1    -1.420103857903715E-1    9.907510385781445E1    -4.652223133836002E1    -1.824166632488501
 1.084000000000000E9    -4.225989095048456E1    -3.955756939208744E1    -1.517274074844145E-1    9.846446828929631E1    -1.426316060059075E-1    9.852704809590109E1    -4.745776354898638E1    -1.131279958758971E1
 1.085000000000000E9    -4.245315047670827E1    -4.057368595790273E1    -1.446095003365273E-1    9.791689284568156E1    -1.487764610496077E-1    9.793482057983957E1    -4.967020206580978E1    -1.377386172951149E1
 1.086000000000000E9    -4.396296802962476E1    -5.495658152010554E1    -1.500185538268918E-1    9.733366616630575E1    -1.407230043867548E-1    9.736553076534943E1    -4.980892459139055E1    -1.746437563102601E1
 1.087000000000000E9    -4.414284440921705E1    -5.412604202453129E1    -1.470197197183502E-1    9.676122109887642E1    -1.429248551616412E-1    9.675751106766012E1    -5.093165936500346E1    -3.218975990452555E1
 1.088000000000000E9    -4.522522559154538E1    -5.990958950178587E1    -1.496834623746829E-1    9.616015799017242E1    -1.395179029944485E-1    9.617421705674637E1    -5.468579254786474E1    -4.230030716323983E1
 1.089000000000000E9    -4.567965474278765E1    -6.808959582261265E1    -1.517332449836714E-1    9.560183729728931E1    -1.389800027287161E-1    9.559083902008518E1    -5.535503886212553E1    -5.722394761508883E1
 1.090000000000000E9    -4.516959437614011E1    -7.797369343775954E1    -1.534855488860422E-1    9.499396865530615E1    -1.416736077732417E-1    9.503171289523159E1    -5.151952383822965E1    -7.395342642990504E1
 1.091000000000000E9    -4.667476432128488E1    -8.717266326271574E1    -1.527294113473424E-1    9.442742538233081E1    -1.415770920929869E-1    9.444957000800335E1    -5.204385839567905E1    -9.814023564951738E1
