#  HZ   S   DB   R     50.00 
! Rohde & Schwarz Vector Network Analyzer 
! Rohde-Schwarz,ZNB8-4Port,1311601044102961,2.82
! Created: UTC 3/4/2022, 4:07:57 PM
! freq[Hz]                db:S11                  ang:S11                 db:S21                  ang:S21                 db:S12                  ang:S12                 db:S22                  ang:S22
 1.000000000000000E9    -2.296118921359998E1     1.459290637094311E2    -2.141006817156824E-1    5.595932118246915E1    -2.002285903885520E-1    5.596778425223629E1    -2.328261390328811E1     1.426083679888333E2
 1.001000000000000E9    -2.292559981870424E1     1.454724414865820E2    -2.160154025911023E-1    5.530602578750744E1    -2.023566975305982E-1    5.531050562765758E1    -2.319990842767945E1     1.422146447333518E2
 1.002000000000000E9    -2.285611165115575E1     1.441567105079086E2    -2.090976242261507E-1    5.463213593499285E1    -2.004095597126114E-1    5.461738528979117E1    -2.310955518834985E1     1.406109866947651E2
 1.003000000000000E9    -2.281386803849334E1     1.439146895664048E2    -2.169541306407309E-1    5.394544348711690E1    -2.024640855564480E-1    5.396975363219384E1    -2.301656104725392E1     1.405281143977909E2
 1.004000000000000E9    -2.266968013967032E1     1.433860519846405E2    -2.208683243928352E-1    5.330607503274679E1    -2.042542516507096E-1    5.331070276365822E1    -2.299460507700309E1     1.397768753436964E2
 1.005000000000000E9    -2.265302939930535E1     1.426017768988280E2    -2.180457082119075E-1    5.263098572603505E1    -2.014238020989325E-1    5.269254200277041E1    -2.293141758999781E1     1.390561206866748E2
 1.006000000000000E9    -2.257947436309403E1     1.422986204914489E2    -2.192216056540725E-1    5.197920447468929E1    -2.049840070261753E-1    5.199192714562961E1    -2.283942339329656E1     1.383220179821320E2
 1.007000000000000E9    -2.252003122842157E1     1.413551513456272E2    -2.100761789963914E-1    5.137274077698340E1    -1.977985743641558E-1    5.129461744034379E1    -2.282775196563165E1     1.372655609849120E2
 1.008000000000000E9    -2.246870377242080E1     1.409792425817854E2    -2.105493488522865E-1    5.066340266564205E1    -2.049306685968655E-1    5.065852896936008E1    -2.277510717644540E1     1.369935819060476E2
 1.009000000000000E9    -2.241034764765062E1     1.396818531531706E2    -2.159408292644065E-1    4.999161028657373E1    -2.002941120719883E-1    5.005258015364601E1    -2.268614481086270E1     1.362218099703202E2
 1.010000000000000E9    -2.228319659977685E1     1.394944019371703E2    -2.153454444050401E-1    4.930186275779727E1    -2.036140095018312E-1    4.934015890395926E1    -2.264521430604657E1     1.350585193045251E2
 1.011000000000000E9    -2.227231356426075E1     1.385912694230348E2    -2.190990950201763E-1    4.868100203201952E1    -2.123231181062611E-1    4.865431651416934E1    -2.257531406149689E1     1.344004352380023E2
 1.012000000000000E9    -2.218864416373329E1     1.379128385578838E2    -2.233054191710564E-1    4.801347076761192E1    -2.078936109001733E-1    4.800239578447219E1    -2.248468212836998E1     1.339346325424563E2
 1.013000000000000E9    -2.213864300973768E1     1.375378007895355E2    -2.153097850531290E-1    4.731237092237779E1    -2.045807533099985E-1    4.734760323737504E1    -2.244568319258558E1     1.333921573573342E2
 1.014000000000000E9    -2.207376769900793E1     1.368266383369857E2    -2.221282801920588E-1    4.666549046365016E1    -2.103275937194702E-1    4.666084172670190E1    -2.245323269867206E1     1.325846609819434E2
 1.015000000000000E9    -2.201173647517724E1     1.361388562369234E2    -2.192344510847090E-1    4.601938618437453E1    -2.138827383397046E-1    4.604525119552670E1    -2.228548624634241E1     1.321656300331050E2
 1.016000000000000E9    -2.196373258510636E1     1.358158798638920E2    -2.150180330232012E-1    4.532710612529365E1    -2.109310639921018E-1    4.535774654784990E1    -2.219938715587822E1     1.307328592347077E2
 1.017000000000000E9    -2.190157304057870E1     1.351627327728080E2    -2.177447163956683E-1    4.465153392736477E1    -2.119971650399924E-1    4.470637148351785E1    -2.223086872661033E1     1.303756942921327E2
 1.018000000000000E9    -2.181466776686515E1     1.343616972977513E2    -2.212973221354277E-1    4.399833965272929E1    -2.099778995067214E-1    4.400948473977410E1    -2.214459045637900E1     1.294324427016656E2
 1.019000000000000E9    -2.178804981290286E1     1.336629247808725E2    -2.221971860667408E-1    4.331034388091747E1    -2.140477809313665E-1    4.335274007188865E1    -2.210872701994508E1     1.288670092022563E2
 1.020000000000000E9    -2.171360362136850E1     1.329869874183956E2    -2.226995434429136E-1    4.265627671495657E1    -2.140618438741187E-1    4.272829740192967E1    -2.206604494507798E1     1.280633181243071E2
 1.021000000000000E9    -2.167687062270020E1     1.320908910196545E2    -2.236667560084325E-1    4.202652023805249E1    -2.103581966733382E-1    4.206347710054809E1    -2.197399587825165E1     1.271521799302004E2
 1.022000000000000E9    -2.167074581887594E1     1.312677628989852E2    -2.233838705276730E-1    4.136645280475704E1    -2.092062493736960E-1    4.139138973442973E1    -2.193201917534920E1     1.265470280927935E2
 1.023000000000000E9    -2.160012322569719E1     1.314208155508372E2    -2.166643778620664E-1    4.072133422866280E1    -2.103793891531708E-1    4.072633442221486E1    -2.188249086086356E1     1.263193657797125E2
 1.024000000000000E9    -2.149830736077978E1     1.305124627473208E2    -2.250785994576407E-1    4.004429504809829E1    -2.148961457585661E-1    4.004608870982838E1    -2.177616226559455E1     1.253450363904938E2
 1.025000000000000E9    -2.146587575719810E1     1.299174042362990E2    -2.242018081978681E-1    3.939286112096620E1    -2.117009712336864E-1    3.941055706975790E1    -2.175679779754408E1     1.241716950903327E2
 1.026000000000000E9    -2.135086912298332E1     1.291415879068561E2    -2.268201924259005E-1    3.868797658086528E1    -2.142089265394498E-1    3.872083076750825E1    -2.169201761230853E1     1.232872783427800E2
 1.027000000000000E9    -2.132848207276760E1     1.287506343223346E2    -2.275643305173754E-1    3.803937630886683E1    -2.201402374911861E-1    3.806592288047779E1    -2.167623722872602E1     1.229380105861684E2
 1.028000000000000E9    -2.132172175804347E1     1.279833896516568E2    -2.281194729646526E-1    3.738317025985348E1    -2.108129689585109E-1    3.737609167496876E1    -2.153990245331596E1     1.221198188675761E2
 1.029000000000000E9    -2.122373938676770E1     1.270452399822402E2    -2.268196083672955E-1    3.670456308193232E1    -2.154250519205301E-1    3.672023866294037E1    -2.156955334999950E1     1.217286712459668E2
 1.030000000000000E9    -2.121990460843489E1     1.266641700200253E2    -2.243645675123884E-1    3.605363650183745E1    -2.138160667383662E-1    3.607016735683346E1    -2.144769465156690E1     1.207916647974550E2
 1.031000000000000E9    -2.113303727323647E1     1.259691806202952E2    -2.300448983843757E-1    3.540678103598052E1    -2.222192438028712E-1    3.540933311165140E1    -2.141671762531038E1     1.196813903608650E2
 1.032000000000000E9    -2.106993842808703E1     1.247728685519873E2    -2.229877234852517E-1    3.470065615053793E1    -2.164755707106042E-1    3.473001574201471E1    -2.143862686279481E1     1.198171069541699E2
 1.033000000000000E9    -2.104745842613719E1     1.243089181077578E2    -2.276367417591633E-1    3.403564278068833E1    -2.223602449088817E-1    3.406896176429981E1    -2.132037254132369E1     1.189298882150340E2
 1.034000000000000E9    -2.098304362026219E1     1.234338160724443E2    -2.361769758295250E-1    3.341866429091828E1    -2.263222641242013E-1    3.344826576652491E1    -2.126626320760171E1     1.179376053365295E2
 1.035000000000000E9    -2.094825816342807E1     1.227623976327803E2    -2.255644009081916E-1    3.276320479281696E1    -2.211460670642162E-1    3.275074414122511E1    -2.123380366346677E1     1.173394181497913E2
 1.036000000000000E9    -2.085295860934102E1     1.227228843552640E2    -2.346459222833620E-1    3.210443222334133E1    -2.231145194603557E-1    3.206505374578674E1    -2.120518939178963E1     1.165048350727486E2
 1.037000000000000E9    -2.087283904220183E1     1.218072673124108E2    -2.345053870356162E-1    3.141551558251872E1    -2.250004950356968E-1    3.143252639920007E1    -2.113619406964943E1     1.161045256884110E2
 1.038000000000000E9    -2.079137175547664E1     1.209860191194268E2    -2.340224702416384E-1    3.074460646598224E1    -2.215040981254859E-1    3.081794505234480E1    -2.104670258384758E1     1.152409377606398E2
 1.039000000000000E9    -2.077979158859591E1     1.201887455161410E2    -2.307051549291669E-1    3.009321583298986E1    -2.222391649311578E-1    3.010068794869610E1    -2.106254761617646E1     1.146875006093383E2
 1.040000000000000E9    -2.070725664360892E1     1.194521767044871E2    -2.386543634136568E-1    2.949969171533855E1    -2.243151981800929E-1    2.942928179344713E1    -2.092040350835315E1     1.142722829579729E2
 1.041000000000000E9    -2.071722789566117E1     1.187663583083181E2    -2.309339199747082E-1    2.877271594145005E1    -2.171985995860300E-1    2.873924620914743E1    -2.090695388145802E1     1.133608526722258E2
 1.042000000000000E9    -2.067410916817815E1     1.182214230794308E2    -2.367155184213220E-1    2.813436650202307E1    -2.300505603674624E-1    2.810144152384114E1    -2.090211683409048E1     1.127749719066151E2
 1.043000000000000E9    -2.056807096577412E1     1.174570305312790E2    -2.373887332669131E-1    2.748504715485636E1    -2.245600223115012E-1    2.743587039199708E1    -2.085157880344525E1     1.120726718383891E2
 1.044000000000000E9    -2.049807948010022E1     1.167569885897381E2    -2.321774419956777E-1    2.681875082714169E1    -2.258684845145138E-1    2.680114454644539E1    -2.083169356245842E1     1.115093316638940E2
 1.045000000000000E9    -2.050966090392183E1     1.161381572449646E2    -2.372430855003787E-1    2.609229133701528E1    -2.229728019944244E-1    2.609337843901061E1    -2.073622255501570E1     1.108112670264140E2
 1.046000000000000E9    -2.044179926282054E1     1.153227040984111E2    -2.332046680447054E-1    2.543229650844090E1    -2.259339685745586E-1    2.545883294666381E1    -2.076616271250000E1     1.103165779787550E2
 1.047000000000000E9    -2.040974522326199E1     1.144758689360456E2    -2.354855777679566E-1    2.480432132111603E1    -2.280685893013067E-1    2.482265744971302E1    -2.064338091588581E1     1.095062858352367E2
 1.048000000000000E9    -2.038479013264363E1     1.140042265885664E2    -2.387329888647314E-1    2.418673895591495E1    -2.235245508127408E-1    2.414876131967037E1    -2.067993166851489E1     1.089269481913661E2
 1.049000000000000E9    -2.037356514401164E1     1.130356988369803E2    -2.424552342519843E-1    2.347165124821270E1    -2.256004791381688E-1    2.345236245683160E1    -2.065103731598502E1     1.081286253636739E2
 1.050000000000000E9    -2.028349181565570E1     1.123154599317125E2    -2.357820295889254E-1    2.286510526441478E1    -2.137393176884598E-1    2.283895889835102E1    -2.055456852484319E1     1.074523907499487E2
 1.051000000000000E9    -2.029247531478971E1     1.114876606270890E2    -2.454238504781202E-1    2.215453184542204E1    -2.278329468126830E-1    2.218555496824328E1    -2.053863113275126E1     1.070864804351738E2
 1.052000000000000E9    -2.027665148499807E1     1.107359125273983E2    -2.349142692631921E-1    2.147053274800901E1    -2.260036538911450E-1    2.150597079647739E1    -2.052446117294089E1     1.066689250491082E2
 1.053000000000000E9    -2.020206250236330E1     1.103358773098499E2    -2.343466509906877E-1    2.085225848132170E1    -2.340693941743778E-1    2.085421690093806E1    -2.045533727529888E1     1.058566336687345E2
 1.054000000000000E9    -2.016854087047674E1     1.094527057312304E2    -2.429925474655457E-1    2.022634543264330E1    -2.302705348702667E-1    2.023199081523733E1    -2.048673587376706E1     1.050819524490431E2
 1.055000000000000E9    -2.017870006530696E1     1.087567719986479E2    -2.361450520082140E-1    1.948752765814299E1    -2.302565598080933E-1    1.952237711068464E1    -2.038975391564453E1     1.044947540246565E2
 1.056000000000000E9    -2.014903229944803E1     1.080494017404103E2    -2.380873040267419E-1    1.887149596668658E1    -2.290944960813238E-1    1.884867614051350E1    -2.038492217671522E1     1.042470130573139E2
 1.057000000000000E9    -2.012953834195152E1     1.073255311655025E2    -2.344696265077939E-1    1.817553816910553E1    -2.324413234493225E-1    1.821707058593916E1    -2.042931905587690E1     1.036392175548843E2
 1.058000000000000E9    -2.008339316379960E1     1.064725462589876E2    -2.363816373213701E-1    1.751321393124790E1    -2.300491008396390E-1    1.754374550433245E1    -2.035077868103990E1     1.027559862951280E2
 1.059000000000000E9    -2.004163305565511E1     1.056708434508595E2    -2.356623430975563E-1    1.687580026269654E1    -2.304146334141459E-1    1.685846559510209E1    -2.034324417192114E1     1.020631696920390E2
 1.060000000000000E9    -2.006722134533424E1     1.049700681361379E2    -2.383551558621234E-1    1.621226396195559E1    -2.355155846427468E-1    1.623238714841938E1    -2.035504240050862E1     1.017559424686720E2
 1.061000000000000E9    -2.002346219183330E1     1.039676180494858E2    -2.348701022756251E-1    1.552223266467670E1    -2.366686477907550E-1    1.557653620032369E1    -2.030901072124064E1     1.008140640017245E2
 1.062000000000000E9    -1.999840499063605E1     1.036118811796711E2    -2.373063744797571E-1    1.489067550531390E1    -2.340054564943476E-1    1.492426209794696E1    -2.024813423465317E1     1.008124277548672E2
 1.063000000000000E9    -1.996051376461061E1     1.026109246824369E2    -2.397551708814864E-1    1.425143536494553E1    -2.287259474841691E-1    1.423974762863635E1    -2.025405117944425E1     9.974096830951004E1
 1.064000000000000E9    -1.994535314203602E1     1.020304149893873E2    -2.452042238126730E-1    1.358976231818698E1    -2.291564168275936E-1    1.357182787175244E1    -2.026340207691703E1     9.917008704840973E1
 1.065000000000000E9    -1.994827852707402E1     1.013222725687834E2    -2.389163456814989E-1    1.293273309285521E1    -2.303396348782985E-1    1.290847052005871E1    -2.021864943723985E1     9.851169377683438E1
 1.066000000000000E9    -1.990837453344129E1     1.003331333322182E2    -2.389919460334234E-1    1.230423154447935E1    -2.301875952807836E-1    1.222620791439217E1    -2.027694505085193E1     9.810313575504173E1
 1.067000000000000E9    -1.995803530974709E1     9.954397856517107E1    -2.400335664414131E-1    1.159200071893534E1    -2.293607810152615E-1    1.161297274954193E1    -2.021347899601366E1     9.739299207833442E1
 1.068000000000000E9    -1.993132617698053E1     9.899234660367304E1    -2.395403904841251E-1    1.090570920363393E1    -2.285077456751377E-1    1.093778693373533E1    -2.022904081663330E1     9.691391635330224E1
 1.069000000000000E9    -1.991375757071089E1     9.823209371157027E1    -2.344092761587086E-1    1.026923488147893E1    -2.252469665956200E-1    1.030469066014568E1    -2.014996382929540E1     9.629622406068400E1
 1.070000000000000E9    -1.988341981974157E1     9.773914963143479E1    -2.387587182588274E-1    9.613562787878172      -2.369060733706902E-1    9.624217326101693      -2.019521109223042E1     9.568368928649787E1
 1.071000000000000E9    -1.988649423778836E1     9.703519563276068E1    -2.388897453719563E-1    8.937648346269533      -2.335118651550914E-1    8.936182334529924      -2.017817504722041E1     9.519202186820345E1
 1.072000000000000E9    -1.990613386216154E1     9.613740996350455E1    -2.436501820541641E-1    8.303695624189098      -2.319644157686593E-1    8.282757621665297      -2.017649034605247E1     9.420681960815610E1
 1.073000000000000E9    -1.987487607209955E1     9.522390052495136E1    -2.411043625206230E-1    7.625564948590603      -2.309213726740472E-1    7.634328187869411      -2.016318564920528E1     9.377817333115696E1
 1.074000000000000E9    -1.987744202886520E1     9.470685491732903E1    -2.397260921706566E-1    7.006820780365711      -2.313006011228504E-1    6.927553803285280      -2.012651129595820E1     9.276001800372004E1
 1.075000000000000E9    -1.990206434814419E1     9.403306478540668E1    -2.398866805829067E-1    6.311183980204469      -2.361739240599534E-1    6.346632505302063      -2.020048021910373E1     9.263122723814023E1
 1.076000000000000E9    -1.983630062621354E1     9.313649059431941E1    -2.404390913674389E-1    5.630891718980339      -2.324246739346081E-1    5.682632581932308      -2.016837877503059E1     9.210357739489815E1
 1.077000000000000E9    -1.985204114062588E1     9.264264549536530E1    -2.453597177219860E-1    5.047707208652867      -2.348692864526003E-1    4.998230297133292      -2.023942446124999E1     9.122450639996498E1
 1.078000000000000E9    -1.989977530231938E1     9.182322636967770E1    -2.406344718397691E-1    4.323075735908438      -2.342592823280474E-1    4.332616286063155      -2.016635274079728E1     9.057847184167389E1
 1.079000000000000E9    -1.988465050437482E1     9.132380630187643E1    -2.467571804626749E-1    3.635684167721419      -2.352108289144646E-1    3.683312043015423      -2.016099244344511E1     9.007728904542333E1
 1.080000000000000E9    -1.984086281918071E1     9.048363832042371E1    -2.493688453449562E-1    3.024122225371749      -2.369637755851668E-1    3.010976427467605      -2.017468761067931E1     8.909623272438455E1
 1.081000000000000E9    -1.984635891445134E1     8.956765917076680E1    -2.408980758224867E-1    2.360532541462775      -2.307349238142426E-1    2.348849260165140      -2.024315386930199E1     8.819378891647472E1
 1.082000000000000E9    -1.988111442807676E1     8.909785240787531E1    -2.417544878183223E-1    1.665595847861475      -2.400149728145493E-1    1.695770854155543      -2.017937509526769E1     8.843406029102921E1
 1.083000000000000E9    -1.987264117433453E1     8.841305498857929E1    -2.320907389500088E-1    1.047176766054951      -2.356598595953767E-1    1.068388833207999      -2.021032543986129E1     8.709603527447204E1
 1.084000000000000E9    -1.982055631139182E1     8.801707031613397E1    -2.459119162320811E-1    3.679880502015986E-1   -2.279248626145157E-1    3.698428884708069E-1   -2.021575780441693E1     8.640598614430148E1
 1.085000000000000E9    -1.986846709555607E1     8.723098998259304E1    -2.364736109618733E-1   -3.188114213158962E-1   -2.436027388588863E-1   -2.762085709806916E-1   -2.025278680161705E1     8.584074779149647E1
 1.086000000000000E9    -1.989170460482263E1     8.602813092599079E1    -2.422787670192530E-1   -9.800325393546577E-1   -2.336046236743213E-1   -9.595776159561862E-1   -2.020396192779419E1     8.511786108746421E1
 1.087000000000000E9    -1.984106976349825E1     8.561645070566078E1    -2.395377857709496E-1   -1.616247125087571      -2.345612334258318E-1   -1.590560959892314      -2.018958533675522E1     8.467333975175704E1
 1.088000000000000E9    -1.988599786165132E1     8.508136314948365E1    -2.442452697253653E-1   -2.234320287849704      -2.351777900083178E-1   -2.258777211939578      -2.026044693501968E1     8.370705190033343E1
 1.089000000000000E9    -1.994105016963665E1     8.436295925269505E1    -2.417691552949844E-1   -2.941972126629344      -2.367371324817661E-1   -2.927921853293342      -2.025486012724132E1     8.322743668268510E1
 1.090000000000000E9    -1.991837477821225E1     8.379598411677554E1    -2.376244630944694E-1   -3.596331602485744      -2.389097036250396E-1   -3.567541901662211      -2.021081383051595E1     8.249084480213408E1
 1.091000000000000E9    -1.994552987250769E1     8.290811450319897E1    -2.410682980739979E-1   -4.282904148707379      -2.307467024761865E-1   -4.275756628270914      -2.023322881575080E1     8.173495583254633E1
