#  HZ   S   DB   R     50.00 
! Rohde & Schwarz Vector Network Analyzer 
! Rohde-Schwarz,ZNB8-4Port,1311601044102961,2.82
! Created: UTC 3/4/2022, 4:04:32 PM
! freq[Hz]                db:S11                  ang:S11                 db:S21                  ang:S21                 db:S12                  ang:S12                 db:S22                  ang:S22
 1.000000000000000E9    -2.194252842249347E1     9.528802766746732E1    -1.726368205071416E-1   -1.733971999342298E2    -1.579260294116194E-1   -1.734259608017764E2    -2.254427907565514E1     9.423675283139065E1
 1.001000000000000E9    -2.192372564833280E1     9.507948690885917E1    -1.749369541218582E-1   -1.739395203932532E2    -1.661679796612170E-1   -1.739480847671844E2    -2.253845695579820E1     9.350084331643663E1
 1.002000000000000E9    -2.197179862932476E1     9.438205736812981E1    -1.714743639078691E-1   -1.744692596822238E2    -1.625602382589036E-1   -1.744785050686407E2    -2.253626808177845E1     9.291227379628694E1
 1.003000000000000E9    -2.201097812669037E1     9.386189551083163E1    -1.734043132786564E-1   -1.750307217930992E2    -1.524682252438206E-1   -1.749988801734168E2    -2.256928517461085E1     9.225768437606514E1
 1.004000000000000E9    -2.195579303847674E1     9.356657605063933E1    -1.667540143898046E-1   -1.755350301284991E2    -1.575642269593477E-1   -1.754910485621252E2    -2.248593554102842E1     9.166725079952109E1
 1.005000000000000E9    -2.203655216333120E1     9.315323096810099E1    -1.728010227727246E-1   -1.760789576979647E2    -1.569953241558946E-1   -1.760555545729962E2    -2.257935297451532E1     9.095653300701390E1
 1.006000000000000E9    -2.200536005688391E1     9.251581830691330E1    -1.744273726036819E-1   -1.766034913729604E2    -1.633228078401376E-1   -1.765988430112695E2    -2.253224712484349E1     9.007643251323648E1
 1.007000000000000E9    -2.203769785246402E1     9.191592526240595E1    -1.676769488348663E-1   -1.771596648093997E2    -1.619170502640961E-1   -1.771179706124346E2    -2.257075870909777E1     8.961569603047786E1
 1.008000000000000E9    -2.202236527035250E1     9.172510654183103E1    -1.725866081983983E-1   -1.776979329332298E2    -1.605529611069271E-1   -1.776786368176851E2    -2.267295677690371E1     8.860847424452130E1
 1.009000000000000E9    -2.207854148186529E1     9.064400650838265E1    -1.727172105189343E-1   -1.781827562738807E2    -1.648690000316018E-1   -1.781851287209551E2    -2.258578585052798E1     8.844638648239885E1
 1.010000000000000E9    -2.198942473667466E1     9.058510461786358E1    -1.709079011140456E-1   -1.787137690931268E2    -1.639350960975793E-1   -1.787194504934548E2    -2.266379051432703E1     8.765162822440109E1
 1.011000000000000E9    -2.202449208789950E1     9.012315714334090E1    -1.761026778973075E-1   -1.792847939634011E2    -1.587536446797506E-1   -1.792687469541428E2    -2.264919437559330E1     8.711766467137015E1
 1.012000000000000E9    -2.206555333220273E1     8.958079008497219E1    -1.713081893167243E-1   -1.798143513585999E2    -1.596640840352261E-1   -1.797977598933327E2    -2.264263250303269E1     8.647612363585562E1
 1.013000000000000E9    -2.209542719988726E1     8.871226300192765E1    -1.724449306137832E-1    1.796500934720624E2    -1.581438846480601E-1    1.796787413149484E2    -2.260563570878052E1     8.582198827580056E1
 1.014000000000000E9    -2.207830297493054E1     8.841381473700059E1    -1.758296737973580E-1    1.791295211807953E2    -1.615144889078977E-1    1.791240054904117E2    -2.267105887398252E1     8.502214529193509E1
 1.015000000000000E9    -2.205846035575557E1     8.793703473905522E1    -1.733950909400037E-1    1.785824297175371E2    -1.609449268721939E-1    1.785867706014115E2    -2.263793069069444E1     8.419880871803922E1
 1.016000000000000E9    -2.213391560762040E1     8.731111040804260E1    -1.711164112344583E-1    1.780575221126794E2    -1.586173882084275E-1    1.780757615915537E2    -2.261933809821705E1     8.378544731387234E1
 1.017000000000000E9    -2.210989408186285E1     8.708441415394300E1    -1.753681416083520E-1    1.775257009502595E2    -1.622284277154669E-1    1.775324847406569E2    -2.264233701187523E1     8.336787987042365E1
 1.018000000000000E9    -2.209718014205390E1     8.631675725448903E1    -1.717559321541139E-1    1.770321593582488E2    -1.645057206033905E-1    1.770155139509622E2    -2.268064709491611E1     8.277642700248394E1
 1.019000000000000E9    -2.214714198632422E1     8.587248666009771E1    -1.740459106584193E-1    1.765136313551313E2    -1.549793937304987E-1    1.765290852947363E2    -2.264100546506815E1     8.172853833387950E1
 1.020000000000000E9    -2.209811491467187E1     8.555500177820510E1    -1.723914198377813E-1    1.759054062473697E2    -1.585582150219653E-1    1.759145679848943E2    -2.270300235432438E1     8.152304852452440E1
 1.021000000000000E9    -2.214495444087390E1     8.454839715252055E1    -1.729462780852708E-1    1.754334980405609E2    -1.606752604792061E-1    1.754169884615654E2    -2.266378871509146E1     8.066284832553751E1
 1.022000000000000E9    -2.217316854621053E1     8.440208831990140E1    -1.784012435009627E-1    1.748904352030583E2    -1.638059620791979E-1    1.748617770231610E2    -2.269013529264808E1     8.066610470766999E1
 1.023000000000000E9    -2.216224723278183E1     8.370887922514430E1    -1.701684204771986E-1    1.743586786956336E2    -1.617764348850599E-1    1.743534676747576E2    -2.267609966884155E1     7.977311774316694E1
 1.024000000000000E9    -2.223045904520383E1     8.326598274606624E1    -1.727613844665099E-1    1.738320656221878E2    -1.604616289544069E-1    1.738285500594839E2    -2.273187561413555E1     7.889809920624856E1
 1.025000000000000E9    -2.219406445963031E1     8.296300899942537E1    -1.734220222634882E-1    1.732698080764265E2    -1.603116902492579E-1    1.733187667129031E2    -2.278245395969328E1     7.838333457582660E1
 1.026000000000000E9    -2.216223919489048E1     8.196675744269433E1    -1.772805431842490E-1    1.727542388705487E2    -1.623861238873808E-1    1.727577478877647E2    -2.272117897513201E1     7.766803129693133E1
 1.027000000000000E9    -2.224113134183952E1     8.146918528228677E1    -1.752004535539259E-1    1.722007298975301E2    -1.616945367766446E-1    1.722315637799266E2    -2.283613393248962E1     7.747863212578420E1
 1.028000000000000E9    -2.229014056653896E1     8.112700350374507E1    -1.762852590409157E-1    1.716755052718243E2    -1.589503374957070E-1    1.716931991249561E2    -2.270332992846469E1     7.689836485012710E1
 1.029000000000000E9    -2.222871198214358E1     8.056016418619505E1    -1.694186675265872E-1    1.711129146988768E2    -1.597743303491385E-1    1.711562612060300E2    -2.281050592074032E1     7.642647020981799E1
 1.030000000000000E9    -2.229965240844549E1     8.019823797329039E1    -1.787549208518079E-1    1.705991973024452E2    -1.619218812178858E-1    1.706467029545213E2    -2.279235529465787E1     7.580337752217595E1
 1.031000000000000E9    -2.225778137148833E1     7.959862807224535E1    -1.722507608614286E-1    1.700546070426398E2    -1.644629440350505E-1    1.700806905283129E2    -2.281220929235794E1     7.495955322987740E1
 1.032000000000000E9    -2.232282067904710E1     7.854038189481726E1    -1.739607231544633E-1    1.695017388900454E2    -1.624823312016729E-1    1.695597616186579E2    -2.280425904056510E1     7.536585235760207E1
 1.033000000000000E9    -2.229528238829978E1     7.816085515187889E1    -1.716170325763851E-1    1.689785882620324E2    -1.657106260150405E-1    1.690045042073150E2    -2.275060469954597E1     7.447533789460529E1
 1.034000000000000E9    -2.235425863095117E1     7.724133412392938E1    -1.732819000004467E-1    1.684966510656108E2    -1.636279223360599E-1    1.685057451334104E2    -2.282565412752815E1     7.385536572322731E1
 1.035000000000000E9    -2.234637417599578E1     7.642812463113910E1    -1.706333419569966E-1    1.679294989537681E2    -1.629445079062131E-1    1.679985792523814E2    -2.289497429765266E1     7.316889816526948E1
 1.036000000000000E9    -2.237517447034277E1     7.631416838628228E1    -1.726920127116473E-1    1.673858563477006E2    -1.602601178125133E-1    1.674555597753354E2    -2.293689294926735E1     7.258234233321343E1
 1.037000000000000E9    -2.238439404745970E1     7.568033995867795E1    -1.730575418591981E-1    1.668996860542810E2    -1.655038318828558E-1    1.669054883676963E2    -2.288614434474697E1     7.236616992586626E1
 1.038000000000000E9    -2.237161090362045E1     7.515177277100121E1    -1.712712169130626E-1    1.663480643165086E2    -1.628661923218839E-1    1.663146467804679E2    -2.292917543449608E1     7.221693181980206E1
 1.039000000000000E9    -2.245990962757652E1     7.451013782263473E1    -1.712773708062932E-1    1.658060379596844E2    -1.639971698255317E-1    1.657816955941874E2    -2.294777621786053E1     7.202444184468739E1
 1.040000000000000E9    -2.246942659463891E1     7.358468940584848E1    -1.722219928419448E-1    1.652908445006470E2    -1.636876892392564E-1    1.653382858845454E2    -2.291705980084549E1     7.081677129343139E1
 1.041000000000000E9    -2.255372985474889E1     7.313049618556471E1    -1.671002663040619E-1    1.647717988594297E2    -1.629066379132729E-1    1.647676959594362E2    -2.299818947243328E1     7.007797513320190E1
 1.042000000000000E9    -2.249614107138332E1     7.277097956001755E1    -1.718342555691027E-1    1.642015796956099E2    -1.595796858447092E-1    1.642028829095361E2    -2.299691209138652E1     6.964597267831951E1
 1.043000000000000E9    -2.246811946742399E1     7.185458132327858E1    -1.747034215537175E-1    1.637202780457559E2    -1.632470677769334E-1    1.636247296008371E2    -2.300955369907587E1     6.965212895704487E1
 1.044000000000000E9    -2.252720276183890E1     7.103237258242974E1    -1.728910633243694E-1    1.631611448208282E2    -1.543527605444941E-1    1.631664406660943E2    -2.306265892038754E1     6.893574181716352E1
 1.045000000000000E9    -2.257455952136183E1     7.076444829998302E1    -1.731822261821847E-1    1.626146235463916E2    -1.652816759561344E-1    1.626292282625544E2    -2.303702265914638E1     6.814682088535552E1
 1.046000000000000E9    -2.258942945973312E1     7.003969521906224E1    -1.697367825953822E-1    1.620587030332368E2    -1.558112608639880E-1    1.620669978064188E2    -2.322791618558862E1     6.783908628362472E1
 1.047000000000000E9    -2.261144131331850E1     6.929787864402830E1    -1.693272208995396E-1    1.615659771162680E2    -1.623712855969324E-1    1.615290739038401E2    -2.319439113855434E1     6.734825125813119E1
 1.048000000000000E9    -2.263911783131109E1     6.866886365584730E1    -1.710061289603149E-1    1.610320338775164E2    -1.593071635364809E-1    1.610395241091861E2    -2.314795544761914E1     6.689245811319471E1
 1.049000000000000E9    -2.273638844627564E1     6.838327730138875E1    -1.769023593478674E-1    1.605000053202181E2    -1.585438372595543E-1    1.604935607415588E2    -2.320426162277651E1     6.660962296211255E1
 1.050000000000000E9    -2.273330419969220E1     6.741422350722843E1    -1.738350707979953E-1    1.599454819489864E2    -1.566113649713009E-1    1.599656535514073E2    -2.326618293951933E1     6.592730221034945E1
 1.051000000000000E9    -2.276061199306480E1     6.694505298763880E1    -1.729831516641990E-1    1.594440300699246E2    -1.592796965011349E-1    1.594381600990105E2    -2.335926610214181E1     6.563406559139614E1
 1.052000000000000E9    -2.281624262149899E1     6.599706937985241E1    -1.684793669308705E-1    1.588852191261411E2    -1.626999880725634E-1    1.589230847999511E2    -2.329444511086287E1     6.523480072654442E1
 1.053000000000000E9    -2.283834407875538E1     6.531784400853211E1    -1.684360446321484E-1    1.583352144647269E2    -1.564284928855173E-1    1.583389866750558E2    -2.340669976418184E1     6.449989454027029E1
 1.054000000000000E9    -2.285658224669249E1     6.483544890058836E1    -1.753968923119044E-1    1.578641894601688E2    -1.579572592019100E-1    1.578087292919232E2    -2.342006828367848E1     6.400101004075528E1
 1.055000000000000E9    -2.301650204517222E1     6.417742272946630E1    -1.678981182331329E-1    1.572905063964974E2    -1.610332936555025E-1    1.573191749149046E2    -2.342733503887051E1     6.357838588098767E1
 1.056000000000000E9    -2.297289095754995E1     6.384238541914303E1    -1.672153439349104E-1    1.567591317734678E2    -1.627350884657043E-1    1.567873861413758E2    -2.351003176063097E1     6.346104003539158E1
 1.057000000000000E9    -2.299142618273032E1     6.299143354986039E1    -1.697463744328191E-1    1.562314945004812E2    -1.598559023157442E-1    1.562111394169031E2    -2.358230735759030E1     6.261968383269360E1
 1.058000000000000E9    -2.308221908194229E1     6.212493656749704E1    -1.667286742101695E-1    1.556768494949284E2    -1.601184798438739E-1    1.557733865146324E2    -2.361544520804797E1     6.241553033245115E1
 1.059000000000000E9    -2.313812625779157E1     6.162500243429498E1    -1.673826938225682E-1    1.551186995117917E2    -1.610459238914855E-1    1.551784421244912E2    -2.365047560361518E1     6.173047589750992E1
 1.060000000000000E9    -2.315794557177622E1     6.101929579416258E1    -1.657179996384540E-1    1.546602513006075E2    -1.633394171443192E-1    1.546513627226394E2    -2.372963328251125E1     6.157350170011440E1
 1.061000000000000E9    -2.327063438858254E1     6.044931258578056E1    -1.689096111098944E-1    1.540685395136256E2    -1.624184434566487E-1    1.541065120350068E2    -2.381264332415147E1     6.067670566927497E1
 1.062000000000000E9    -2.328631562543502E1     5.992515036500775E1    -1.732310207104690E-1    1.535698451812090E2    -1.620229804152648E-1    1.535794647479983E2    -2.382235855529325E1     6.023265559051871E1
 1.063000000000000E9    -2.335283217427767E1     5.925339621399633E1    -1.697149126017435E-1    1.530342511582941E2    -1.641351577319181E-1    1.530237973875318E2    -2.393874764986803E1     5.977350737476635E1
 1.064000000000000E9    -2.329079708958201E1     5.874063866310878E1    -1.625573202019568E-1    1.525168327414035E2    -1.618627426121404E-1    1.525153139061373E2    -2.402564879261206E1     5.951304686871038E1
 1.065000000000000E9    -2.340854803209307E1     5.802099237770344E1    -1.691372692019843E-1    1.519716963663656E2    -1.572033616570323E-1    1.519827953400558E2    -2.402089081275324E1     5.851086169034748E1
 1.066000000000000E9    -2.351203174627791E1     5.725725119749301E1    -1.735983242710636E-1    1.514249445665672E2    -1.619896845062025E-1    1.514384289102937E2    -2.410385318416067E1     5.844327543678791E1
 1.067000000000000E9    -2.356695751012645E1     5.681838371975957E1    -1.698225067337205E-1    1.508719545259437E2    -1.646140843130116E-1    1.509071462523900E2    -2.416528108476742E1     5.780104724138288E1
 1.068000000000000E9    -2.362783442557065E1     5.599641195850678E1    -1.742142987923764E-1    1.503443788847703E2    -1.554526385763745E-1    1.503662578977690E2    -2.417142668436268E1     5.753408205273222E1
 1.069000000000000E9    -2.366424596295713E1     5.565844826157254E1    -1.667588305472650E-1    1.498541701327065E2    -1.638712980014155E-1    1.498352414690839E2    -2.424304750790695E1     5.668830071399205E1
 1.070000000000000E9    -2.366358100682661E1     5.518386521283924E1    -1.715635850721507E-1    1.493341505873733E2    -1.616226310270989E-1    1.493435959079387E2    -2.432833236521425E1     5.657598148057613E1
 1.071000000000000E9    -2.374256377215997E1     5.453104575794401E1    -1.694510602211865E-1    1.487658429881031E2    -1.524741445520595E-1    1.487980222255049E2    -2.441469871484945E1     5.537023020346927E1
 1.072000000000000E9    -2.388970301182962E1     5.416856567772872E1    -1.685618229533850E-1    1.482454630861234E2    -1.582574410271373E-1    1.481879378287288E2    -2.437550628228076E1     5.454233140429043E1
 1.073000000000000E9    -2.398368552577381E1     5.306624349219014E1    -1.694041350465777E-1    1.476843722958368E2    -1.610694642252399E-1    1.477276598780138E2    -2.458114758322380E1     5.469379340039657E1
 1.074000000000000E9    -2.404898879288500E1     5.290623015976338E1    -1.654973147390424E-1    1.471657092243387E2    -1.593865937043848E-1    1.471389969291109E2    -2.459501387249970E1     5.428746706387484E1
 1.075000000000000E9    -2.414075235977590E1     5.236924403557413E1    -1.680895511663939E-1    1.466354872692557E2    -1.585925795425370E-1    1.467172560317968E2    -2.475667364859602E1     5.304831952821701E1
 1.076000000000000E9    -2.409369887769444E1     5.119984655798719E1    -1.653281395758119E-1    1.460947507778796E2    -1.589542200391288E-1    1.461131985185257E2    -2.475449150975441E1     5.277250997518047E1
 1.077000000000000E9    -2.418587520057008E1     5.078143457825417E1    -1.665052832557580E-1    1.455958285492388E2    -1.524584585664897E-1    1.455576104018847E2    -2.492508081786824E1     5.243702462403908E1
 1.078000000000000E9    -2.428745614485548E1     5.067245300246130E1    -1.673734710973450E-1    1.450143570538264E2    -1.572309541687232E-1    1.450494801036005E2    -2.493732199371509E1     5.138929669595589E1
 1.079000000000000E9    -2.431980436515946E1     5.021565985849686E1    -1.613463517961869E-1    1.445029136172460E2    -1.657039405818262E-1    1.445151021681336E2    -2.499436801361116E1     5.067949156262252E1
 1.080000000000000E9    -2.439842085501018E1     4.926126941599477E1    -1.671820630173947E-1    1.439750071998323E2    -1.581718076631207E-1    1.439756917251572E2    -2.508091713525298E1     4.998501105669099E1
 1.081000000000000E9    -2.449201062499078E1     4.904844996581139E1    -1.711010140412098E-1    1.434309943881582E2    -1.576892866976748E-1    1.434416891461902E2    -2.525173328109757E1     4.981398995685886E1
 1.082000000000000E9    -2.456200540267597E1     4.862279086562912E1    -1.645838197899426E-1    1.429068539613738E2    -1.628270072642480E-1    1.429132129840645E2    -2.520298792730998E1     4.952199545635850E1
 1.083000000000000E9    -2.470116194629436E1     4.806108899688011E1    -1.572308944095164E-1    1.423776797314324E2    -1.514253146084144E-1    1.423760975137662E2    -2.532200836017668E1     4.849920876375418E1
 1.084000000000000E9    -2.463931433012466E1     4.728398564090973E1    -1.668760086026075E-1    1.418674368292244E2    -1.684848757287920E-1    1.418917542227412E2    -2.538805610731955E1     4.761595015561156E1
 1.085000000000000E9    -2.469051689614993E1     4.694784186387621E1    -1.675579981958771E-1    1.413076305065370E2    -1.599838390570104E-1    1.413376182540646E2    -2.555382827015718E1     4.709844901846693E1
 1.086000000000000E9    -2.488133408357916E1     4.580237029969108E1    -1.665184311772694E-1    1.407732680696747E2    -1.533786855692524E-1    1.407779994120556E2    -2.549181963479546E1     4.625574495488549E1
 1.087000000000000E9    -2.489457332035845E1     4.563221277624145E1    -1.642815245581097E-1    1.402399855536513E2    -1.599679805035444E-1    1.402434693430987E2    -2.556904619285771E1     4.585768716486116E1
 1.088000000000000E9    -2.494297532080460E1     4.483967488863100E1    -1.682534159365373E-1    1.396726788860979E2    -1.543741178170354E-1    1.397163472332081E2    -2.586994451307306E1     4.448296783583312E1
 1.089000000000000E9    -2.513813926440132E1     4.474760220228502E1    -1.603734431344552E-1    1.391828429916674E2    -1.548585027759686E-1    1.391477280386564E2    -2.585111235537334E1     4.418865464466134E1
 1.090000000000000E9    -2.515650883450388E1     4.436861541826836E1    -1.661889951488564E-1    1.386576618154402E2    -1.624442140366746E-1    1.386411598222061E2    -2.583146144679024E1     4.342418172226566E1
 1.091000000000000E9    -2.535571146367787E1     4.323966551324847E1    -1.699012881702310E-1    1.381297726496272E2    -1.570558690765943E-1    1.380912168307260E2    -2.592593622445387E1     4.240108833561802E1
