#  HZ   S   DB   R     50.00 
! Rohde & Schwarz Vector Network Analyzer 
! Rohde-Schwarz,ZNB8-4Port,1311601044102961,2.82
! Created: UTC 3/4/2022, 4:03:36 PM
! freq[Hz]                db:S11                  ang:S11                 db:S21                  ang:S21                 db:S12                  ang:S12                 db:S22                  ang:S22
 1.000000000000000E9    -2.295435055790824E1     1.152585141337687E2    -1.615945756962269E-1   -1.533932612453380E2    -1.396702292425920E-1   -1.534005361833526E2    -2.338987349479043E1     1.155464108697869E2
 1.001000000000000E9    -2.293748715752659E1     1.153853742844152E2    -1.561800540113753E-1   -1.539118758102952E2    -1.473944037372452E-1   -1.538721960683084E2    -2.337449909492961E1     1.151204991901493E2
 1.002000000000000E9    -2.296393066221557E1     1.147518864422342E2    -1.587076915289670E-1   -1.544372349929608E2    -1.428463176166878E-1   -1.544230960777731E2    -2.334309279743826E1     1.141473542911250E2
 1.003000000000000E9    -2.298564418710192E1     1.139288213433867E2    -1.568896013597821E-1   -1.549065180359903E2    -1.445992102851654E-1   -1.549252047616820E2    -2.332303020749789E1     1.136671564315901E2
 1.004000000000000E9    -2.288930236025113E1     1.139951347029779E2    -1.601143729105815E-1   -1.554432168827137E2    -1.471645091035446E-1   -1.554551434739095E2    -2.330652365395130E1     1.128255570857156E2
 1.005000000000000E9    -2.291593209391543E1     1.134986627990429E2    -1.578001263899463E-1   -1.559287862704400E2    -1.450719253943767E-1   -1.559395275283712E2    -2.330492682107204E1     1.124589953094894E2
 1.006000000000000E9    -2.287748790561271E1     1.128741023494811E2    -1.566323799725841E-1   -1.564870627609329E2    -1.426101956995671E-1   -1.564862937342145E2    -2.329763620237110E1     1.121886165528918E2
 1.007000000000000E9    -2.292049499372284E1     1.126128295876332E2    -1.601035207251192E-1   -1.569916286821645E2    -1.470052059727302E-1   -1.569804530244404E2    -2.330777528434566E1     1.112011310569385E2
 1.008000000000000E9    -2.289514261308736E1     1.123919125266083E2    -1.592213145134857E-1   -1.575091978617064E2    -1.487716823711876E-1   -1.574697583368291E2    -2.336635328015979E1     1.105981539874597E2
 1.009000000000000E9    -2.292689995291792E1     1.112390379800300E2    -1.558418615163333E-1   -1.580389318985459E2    -1.436533637083388E-1   -1.579893296123812E2    -2.324894591133628E1     1.104645943256538E2
 1.010000000000000E9    -2.283981952458883E1     1.113382932715105E2    -1.586813939494375E-1   -1.585398743849145E2    -1.489612770664497E-1   -1.584846023713384E2    -2.336405215564948E1     1.088638758051419E2
 1.011000000000000E9    -2.284562144874801E1     1.105756992515345E2    -1.584095748058549E-1   -1.590205519440662E2    -1.453584635422496E-1   -1.590360369232751E2    -2.329249231193938E1     1.086472045938154E2
 1.012000000000000E9    -2.289206142621360E1     1.099313223985331E2    -1.589470651789535E-1   -1.595103239933553E2    -1.448859251995781E-1   -1.595400785064922E2    -2.320726040838376E1     1.084496993799659E2
 1.013000000000000E9    -2.286848275937070E1     1.098350411013834E2    -1.583168144569506E-1   -1.600463128075138E2    -1.483629799349852E-1   -1.600555972909752E2    -2.326116007884215E1     1.079245032996604E2
 1.014000000000000E9    -2.282243257854359E1     1.092822539172052E2    -1.634668519807878E-1   -1.605871095808221E2    -1.476938158483722E-1   -1.605353572212104E2    -2.327523598578324E1     1.070494247580326E2
 1.015000000000000E9    -2.278601007248292E1     1.085710397493981E2    -1.587035464993827E-1   -1.611035828335628E2    -1.500961359520692E-1   -1.610616554442966E2    -2.328088666678517E1     1.064256251356750E2
 1.016000000000000E9    -2.287607762827446E1     1.082855573293151E2    -1.532508523607978E-1   -1.615954196199659E2    -1.476228373567894E-1   -1.615973600927703E2    -2.318252115537846E1     1.058195697275648E2
 1.017000000000000E9    -2.277069993386038E1     1.082128408745565E2    -1.633267715109965E-1   -1.620874636171579E2    -1.467674709793400E-1   -1.621055968791636E2    -2.316100115232675E1     1.054872773880877E2
 1.018000000000000E9    -2.278095986274666E1     1.072874700446810E2    -1.627002755027157E-1   -1.626228949026057E2    -1.493898150053367E-1   -1.625940682189977E2    -2.321870021306737E1     1.045201825709068E2
 1.019000000000000E9    -2.276310030943770E1     1.068061014300084E2    -1.562063378640320E-1   -1.631181218561756E2    -1.471886927395926E-1   -1.631067321495499E2    -2.322748381628230E1     1.036326603960707E2
 1.020000000000000E9    -2.273811473643555E1     1.064473272799275E2    -1.594164128756993E-1   -1.636409126655773E2    -1.515078388487931E-1   -1.636598928366014E2    -2.317490287139968E1     1.033581211445039E2
 1.021000000000000E9    -2.271971308332183E1     1.054392638083223E2    -1.573310997583591E-1   -1.641791946545442E2    -1.505308479307588E-1   -1.641226433476875E2    -2.319642018387047E1     1.024289400606714E2
 1.022000000000000E9    -2.273459959662529E1     1.057223834600847E2    -1.599628830882995E-1   -1.646715392517151E2    -1.460770854645469E-1   -1.646513008827178E2    -2.315100214027412E1     1.021718781017216E2
 1.023000000000000E9    -2.275566992657150E1     1.049019841932452E2    -1.636425042340440E-1   -1.651888605601682E2    -1.469716668978022E-1   -1.651624077545333E2    -2.312906231981931E1     1.018884013540939E2
 1.024000000000000E9    -2.273827059725727E1     1.045670773303698E2    -1.604182108973190E-1   -1.656918612295452E2    -1.459729412495019E-1   -1.656938803457440E2    -2.312906529479704E1     1.011290328378028E2
 1.025000000000000E9    -2.269178837763111E1     1.041905675769636E2    -1.667869767165936E-1   -1.662049472165150E2    -1.504563139134758E-1   -1.662193656771667E2    -2.310756486132481E1     1.001109558730938E2
 1.026000000000000E9    -2.269236576026802E1     1.035590059938978E2    -1.593583505989861E-1   -1.667423039502818E2    -1.523045261524917E-1   -1.667312122523373E2    -2.305486333190671E1     9.981265695979036E1
 1.027000000000000E9    -2.270532542111626E1     1.030541711621014E2    -1.595950110622986E-1   -1.672576576149474E2    -1.503006158512829E-1   -1.672484968998775E2    -2.310881640586138E1     9.899947588751888E1
 1.028000000000000E9    -2.273167078082349E1     1.029278330039696E2    -1.591600245997494E-1   -1.677875195729707E2    -1.471014287036637E-1   -1.677543007859445E2    -2.301516517852269E1     9.837017672052859E1
 1.029000000000000E9    -2.266166834102741E1     1.020205247127388E2    -1.572213516289288E-1   -1.682791464770016E2    -1.553092555211552E-1   -1.682678324423380E2    -2.315876160152078E1     9.826304570603246E1
 1.030000000000000E9    -2.269274757296676E1     1.017467461289919E2    -1.635932809479352E-1   -1.688284291244381E2    -1.559168741492846E-1   -1.687655945368853E2    -2.305368338055738E1     9.741518499040080E1
 1.031000000000000E9    -2.266021785396310E1     1.014328213495470E2    -1.618730147966238E-1   -1.693188636782775E2    -1.524228368086003E-1   -1.693014678183369E2    -2.302580175819064E1     9.688090454527418E1
 1.032000000000000E9    -2.266755761150011E1     9.992580499233267E1    -1.583932730799918E-1   -1.697783381696408E2    -1.538967410829838E-1   -1.698030368370863E2    -2.309410725295400E1     9.674612400389557E1
 1.033000000000000E9    -2.266056001091185E1     9.999949677105852E1    -1.568436590991339E-1   -1.702944093615408E2    -1.499271330532179E-1   -1.703285110681831E2    -2.302733482361606E1     9.617435280578805E1
 1.034000000000000E9    -2.267406874282955E1     9.897125397570801E1    -1.598654658626210E-1   -1.708183289997250E2    -1.541666054921735E-1   -1.708111476765301E2    -2.296742948920783E1     9.563511136904390E1
 1.035000000000000E9    -2.259325354197360E1     9.858488403469693E1    -1.630802229802349E-1   -1.713521185633510E2    -1.514837501016671E-1   -1.713047085194650E2    -2.300335669046236E1     9.516804812183896E1
 1.036000000000000E9    -2.256852248695951E1     9.829804281229075E1    -1.607545578821802E-1   -1.718432100457621E2    -1.494349355694119E-1   -1.718116318228435E2    -2.305432808621994E1     9.426702412616935E1
 1.037000000000000E9    -2.264275376529694E1     9.793389805331083E1    -1.576511985737373E-1   -1.723800021863484E2    -1.494492203022652E-1   -1.723557130505612E2    -2.304168901368772E1     9.422307311919873E1
 1.038000000000000E9    -2.263356885100583E1     9.700778131608773E1    -1.612243421449329E-1   -1.728603673829327E2    -1.634125025740810E-1   -1.728360211042836E2    -2.298832723845393E1     9.344165369179744E1
 1.039000000000000E9    -2.259436934399711E1     9.632064760956496E1    -1.558203811042063E-1   -1.733714188896015E2    -1.591517551062780E-1   -1.733989116078884E2    -2.297197155275642E1     9.339224883665430E1
 1.040000000000000E9    -2.259836427733647E1     9.574225693733224E1    -1.602127899181173E-1   -1.739002426861879E2    -1.514084885645386E-1   -1.738816569149140E2    -2.290195521974685E1     9.253755374829649E1
 1.041000000000000E9    -2.262435704446790E1     9.532398505229396E1    -1.614973972679329E-1   -1.743683911030191E2    -1.473760380842431E-1   -1.744017730538589E2    -2.298059678685410E1     9.198547238384995E1
 1.042000000000000E9    -2.264719506604149E1     9.498307412211601E1    -1.564638169731661E-1   -1.749461510425501E2    -1.513254956557529E-1   -1.749033247288696E2    -2.294846601019439E1     9.176957958515450E1
 1.043000000000000E9    -2.256506562048553E1     9.421089167447012E1    -1.612855603262529E-1   -1.754677717393892E2    -1.566338163245462E-1   -1.754786555222257E2    -2.295970930785206E1     9.102997245455566E1
 1.044000000000000E9    -2.258537630005434E1     9.331656517203840E1    -1.661385026214733E-1   -1.759297077410283E2    -1.528320045147346E-1   -1.759050663584323E2    -2.294782089718241E1     9.085258418410427E1
 1.045000000000000E9    -2.259145276959408E1     9.288902618150533E1    -1.625264711171215E-1   -1.764901438625283E2    -1.574056488387540E-1   -1.764710550972173E2    -2.295363671757619E1     9.017851433629484E1
 1.046000000000000E9    -2.255660614552430E1     9.247956790686315E1    -1.638908098958472E-1   -1.769948368880079E2    -1.466872112929189E-1   -1.769623879068826E2    -2.305029049612550E1     8.967287713367846E1
 1.047000000000000E9    -2.259334242001024E1     9.160043849625494E1    -1.613162701951803E-1   -1.775241903311864E2    -1.545477527327616E-1   -1.775138113674130E2    -2.294647452291751E1     8.942909458660729E1
 1.048000000000000E9    -2.258754642922821E1     9.153524112244936E1    -1.620577257170221E-1   -1.780253388184450E2    -1.482152560274360E-1   -1.779997434954736E2    -2.297028425680937E1     8.853576150290296E1
 1.049000000000000E9    -2.264129347947490E1     9.063430716577432E1    -1.610339445636698E-1   -1.785012531365201E2    -1.466491254457930E-1   -1.785157258102883E2    -2.296992691492536E1     8.842160070578592E1
 1.050000000000000E9    -2.260105460467855E1     8.967874546667491E1    -1.581154285735193E-1   -1.790007074616593E2    -1.509133282957943E-1   -1.790070558325899E2    -2.298806085185218E1     8.789857410267368E1
 1.051000000000000E9    -2.264056112341825E1     8.955157573969960E1    -1.658185451020769E-1   -1.795000148645477E2    -1.494046750380270E-1   -1.795662351772224E2    -2.305178532918710E1     8.741912701742889E1
 1.052000000000000E9    -2.263690263030778E1     8.853987390599623E1    -1.625785885430051E-1    1.799350156513557E2    -1.559866354362524E-1    1.799171494547855E2    -2.301115360867715E1     8.686981549504242E1
 1.053000000000000E9    -2.264983999838359E1     8.810792105030896E1    -1.635167274248674E-1    1.794479601915085E2    -1.571689719596978E-1    1.794750735336483E2    -2.299638602257780E1     8.642834565792508E1
 1.054000000000000E9    -2.263106980945410E1     8.724810991271463E1    -1.607540459259769E-1    1.789389767949638E2    -1.526373997102694E-1    1.789167071700674E2    -2.304360272878494E1     8.637551948384348E1
 1.055000000000000E9    -2.269776197372359E1     8.675732847196970E1    -1.591111058057071E-1    1.784385278431969E2    -1.567723353449825E-1    1.784320115564300E2    -2.297988905393971E1     8.567876376271467E1
 1.056000000000000E9    -2.270400722264357E1     8.635343400675887E1    -1.606723256143850E-1    1.778973537993709E2    -1.538916152478452E-1    1.779148824973084E2    -2.301685192144048E1     8.571960781004613E1
 1.057000000000000E9    -2.273955979968743E1     8.581805547642691E1    -1.661628298745503E-1    1.773900784444726E2    -1.540163351704352E-1    1.774071925135827E2    -2.308521950472006E1     8.471028839932903E1
 1.058000000000000E9    -2.272908182033554E1     8.471535999123665E1    -1.619822636705161E-1    1.768405220277879E2    -1.575868852076943E-1    1.769292848101618E2    -2.311846006659241E1     8.457647664226211E1
 1.059000000000000E9    -2.268926676810003E1     8.471815383563505E1    -1.643293709033753E-1    1.763631239951498E2    -1.558059612175913E-1    1.763937535085823E2    -2.312324418837989E1     8.368820585467307E1
 1.060000000000000E9    -2.273979033232730E1     8.387948002502829E1    -1.615242569183046E-1    1.758656620240205E2    -1.485590870144654E-1    1.758756745717291E2    -2.310296478624266E1     8.366512052883364E1
 1.061000000000000E9    -2.277274343174676E1     8.313678794725666E1    -1.568305523754160E-1    1.753278600615935E2    -1.554390716051319E-1    1.753562226553580E2    -2.312475020890668E1     8.288824284187457E1
 1.062000000000000E9    -2.281884110380035E1     8.268002624473085E1    -1.566431441499663E-1    1.748085932456360E2    -1.546903150752374E-1    1.748534500616442E2    -2.310208034690635E1     8.257656664461354E1
 1.063000000000000E9    -2.282130843794546E1     8.211202982125285E1    -1.574444395470290E-1    1.743112224718112E2    -1.489414654553490E-1    1.743266817956966E2    -2.317496919930267E1     8.194905482625066E1
 1.064000000000000E9    -2.280281842957096E1     8.168795468008474E1    -1.644468222668980E-1    1.738564518390169E2    -1.551554304115055E-1    1.738186006273681E2    -2.325835903416655E1     8.212082421500861E1
 1.065000000000000E9    -2.284184543968598E1     8.081797280579031E1    -1.595914401955578E-1    1.733318789051889E2    -1.527080171458487E-1    1.733248568329118E2    -2.318214298900319E1     8.146528310265823E1
 1.066000000000000E9    -2.284001606956347E1     7.983738355268110E1    -1.559753642942172E-1    1.728304490350326E2    -1.514746109703321E-1    1.728170224753372E2    -2.326589239525888E1     8.131901217385027E1
 1.067000000000000E9    -2.288572497520060E1     7.957504690199103E1    -1.586494893020198E-1    1.722702676875526E2    -1.536854689645551E-1    1.722746579723454E2    -2.331851565588549E1     8.053792419323470E1
 1.068000000000000E9    -2.299075163248334E1     7.892860132482778E1    -1.614243669540031E-1    1.717492493829058E2    -1.488441361099990E-1    1.717828793662362E2    -2.336929236508261E1     8.036701266009256E1
 1.069000000000000E9    -2.298182639189221E1     7.847392990663214E1    -1.573048713006115E-1    1.712523344729186E2    -1.508986091539722E-1    1.711981068933382E2    -2.334722933124136E1     7.967391333413610E1
 1.070000000000000E9    -2.293063790283378E1     7.788939456995813E1    -1.591744806857620E-1    1.707348676280601E2    -1.503250799473849E-1    1.707571702560103E2    -2.338639333595983E1     7.937661579486068E1
 1.071000000000000E9    -2.303998393027884E1     7.728617507966814E1    -1.625940434908871E-1    1.701600078254076E2    -1.566276225100819E-1    1.702103539195416E2    -2.341299027268081E1     7.893789647886476E1
 1.072000000000000E9    -2.314266585457457E1     7.663318898329410E1    -1.583714864235156E-1    1.697044759364782E2    -1.511556470797428E-1    1.697063653552638E2    -2.338757611557067E1     7.823590765809838E1
 1.073000000000000E9    -2.313899008540504E1     7.564357206070710E1    -1.620248573871648E-1    1.691824760514193E2    -1.501628261741125E-1    1.692104200349203E2    -2.352373557343849E1     7.770352196003854E1
 1.074000000000000E9    -2.319716761375461E1     7.559518998563752E1    -1.622666931754899E-1    1.686890632619957E2    -1.576260596513158E-1    1.687043165772276E2    -2.349061695333219E1     7.756835649344517E1
 1.075000000000000E9    -2.320025797028043E1     7.489522148796880E1    -1.544065103210190E-1    1.681845467614064E2    -1.514370170259047E-1    1.681780742163243E2    -2.355081069720783E1     7.709090961194058E1
 1.076000000000000E9    -2.322023313556065E1     7.393875281785000E1    -1.622139893386690E-1    1.676338199935447E2    -1.528109916264542E-1    1.676673433919514E2    -2.361933951301613E1     7.652111665287377E1
 1.077000000000000E9    -2.321110542909572E1     7.354681002690245E1    -1.603712054158049E-1    1.671568916161139E2    -1.471016539678722E-1    1.671783946232618E2    -2.372193316872584E1     7.582949651146764E1
 1.078000000000000E9    -2.330005993181543E1     7.374415771196377E1    -1.549348347310788E-1    1.666336677196328E2    -1.530937322158302E-1    1.667053947954857E2    -2.372138090566729E1     7.547769544940607E1
 1.079000000000000E9    -2.336644981691736E1     7.297568458340382E1    -1.610409099580226E-1    1.660970899528092E2    -1.524708875886384E-1    1.661598881735064E2    -2.371340889333126E1     7.458004920479094E1
 1.080000000000000E9    -2.341837695689165E1     7.221825497817308E1    -1.585747202309797E-1    1.655708078081942E2    -1.537250537288509E-1    1.655939256373211E2    -2.377035499508104E1     7.393211377601382E1
 1.081000000000000E9    -2.345563899740469E1     7.149112358501529E1    -1.555031768326039E-1    1.651124836911269E2    -1.509668228821720E-1    1.650878897472790E2    -2.386961547586827E1     7.365109649485734E1
 1.082000000000000E9    -2.339563482981732E1     7.120874479474161E1    -1.547575141025355E-1    1.646035739412672E2    -1.516266854393661E-1    1.645398432713731E2    -2.379974466812637E1     7.332003195350681E1
 1.083000000000000E9    -2.352553386591179E1     7.058614913867628E1    -1.540793202611049E-1    1.640662504221153E2    -1.489988554881228E-1    1.640947466458127E2    -2.395402840378439E1     7.208646517020704E1
 1.084000000000000E9    -2.347796382219329E1     7.021563890894927E1    -1.628490821363339E-1    1.635867085112460E2    -1.490603897207259E-1    1.635526768237169E2    -2.402435103470543E1     7.169707987221185E1
 1.085000000000000E9    -2.353174751089377E1     6.976183898557835E1    -1.581875976028623E-1    1.630170130760226E2    -1.523197640007218E-1    1.630719776673338E2    -2.410690130311463E1     7.125247142298363E1
 1.086000000000000E9    -2.359662662067543E1     6.864841305484721E1    -1.600370509995733E-1    1.625542421194218E2    -1.501423990926149E-1    1.625567514183267E2    -2.403270138466809E1     7.065400273225826E1
 1.087000000000000E9    -2.360490339349397E1     6.864760518030343E1    -1.555562575011996E-1    1.620330595283074E2    -1.474349566994795E-1    1.619963958551666E2    -2.408420601227340E1     7.032224491198093E1
 1.088000000000000E9    -2.364349506093365E1     6.805129404317167E1    -1.548488202131107E-1    1.615201431656298E2    -1.515375496998911E-1    1.615550673999915E2    -2.422341236119502E1     6.949061382873536E1
 1.089000000000000E9    -2.374311596073623E1     6.772057464505528E1    -1.582305593997537E-1    1.610197004430650E2    -1.446095700220776E-1    1.609948850369364E2    -2.420273800200008E1     6.929462741042985E1
 1.090000000000000E9    -2.380143349224006E1     6.725618132453315E1    -1.593985374531240E-1    1.604912116900683E2    -1.485118055456034E-1    1.605146259558291E2    -2.417250570375778E1     6.851724163398799E1
 1.091000000000000E9    -2.383602538171635E1     6.599597340604291E1    -1.545804353037069E-1    1.599742457971020E2    -1.448245636942687E-1    1.600234082027849E2    -2.431644750002443E1     6.755151797231201E1
