#  HZ   S   DB   R     50.00 
! Rohde & Schwarz Vector Network Analyzer 
! Rohde-Schwarz,ZNB8-4Port,1311601044102961,2.82
! Created: UTC 3/4/2022, 4:06:09 PM
! freq[Hz]                db:S11                  ang:S11                 db:S21                  ang:S21                 db:S12                  ang:S12                 db:S22                  ang:S22
 1.000000000000000E9    -2.907208915116656E1     2.893607151541783E1    -1.560794557414157E-1    1.267193265557765E2    -1.329887533934303E-1    1.267163942618863E2    -2.972809357018423E1     3.231332952401386E1
 1.001000000000000E9    -2.917864291200261E1     2.784566773837588E1    -1.537469522742125E-1    1.261135081836098E2    -1.371682026025895E-1    1.261339226025534E2    -2.984500606435294E1     3.090478529471425E1
 1.002000000000000E9    -2.944388172485940E1     2.828356591832679E1    -1.542865044485967E-1    1.254815173559618E2    -1.437286459080572E-1    1.255070389163900E2    -3.004660100005028E1     3.150308996301933E1
 1.003000000000000E9    -2.966706564646696E1     2.819926593989277E1    -1.546295002781326E-1    1.249123844281053E2    -1.416224502738686E-1    1.248696539255646E2    -3.005815762680572E1     2.949807204922113E1
 1.004000000000000E9    -2.969826834523578E1     2.563601649847884E1    -1.556043495085148E-1    1.243325628222692E2    -1.328572102873686E-1    1.243146323208469E2    -3.035348548424869E1     2.780065444800217E1
 1.005000000000000E9    -2.992982450355106E1     2.543069255855800E1    -1.517473336867931E-1    1.237288828310778E2    -1.428540272379163E-1    1.237268554847317E2    -3.062783631544307E1     2.771409526966123E1
 1.006000000000000E9    -3.013788737659183E1     2.500091857360619E1    -1.486280891474198E-1    1.231205142705512E2    -1.481919211769791E-1    1.231156796525259E2    -3.067690200692906E1     2.646086431932365E1
 1.007000000000000E9    -3.039962308253989E1     2.426345274955353E1    -1.547006435931248E-1    1.225490156843637E2    -1.449774002558405E-1    1.225257493760474E2    -3.090505153540797E1     2.668330948391860E1
 1.008000000000000E9    -3.038625981422363E1     2.420294695178600E1    -1.476573848444217E-1    1.219256835653527E2    -1.398584983788355E-1    1.219582533591482E2    -3.087673427479916E1     2.582516927586024E1
 1.009000000000000E9    -3.065767556642326E1     2.322016974231524E1    -1.472212353018297E-1    1.213360946617232E2    -1.397499378404277E-1    1.213422667548381E2    -3.127397897886281E1     2.600217165782757E1
 1.010000000000000E9    -3.075563035621130E1     2.206222512701364E1    -1.541574829364749E-1    1.207284227869233E2    -1.408364390966807E-1    1.207588296452381E2    -3.152063745967822E1     2.333726004300492E1
 1.011000000000000E9    -3.102613088111917E1     2.169344185548862E1    -1.545412142825137E-1    1.201535900904138E2    -1.368865557377919E-1    1.201610449607753E2    -3.148117130243870E1     2.227487243772766E1
 1.012000000000000E9    -3.124961571868705E1     2.015476460878871E1    -1.501616111137081E-1    1.195676857910535E2    -1.387155693932777E-1    1.195249559352658E2    -3.163551646315725E1     2.174197908125342E1
 1.013000000000000E9    -3.148321356094851E1     2.029272219776903E1    -1.474845758597988E-1    1.189773944088480E2    -1.418019696252039E-1    1.189646493990850E2    -3.179377694083099E1     2.113133914940354E1
 1.014000000000000E9    -3.142428968592077E1     1.827245056302667E1    -1.535624129417803E-1    1.183337459454763E2    -1.377761423027703E-1    1.183629888012132E2    -3.205684455278572E1     2.044742837201451E1
 1.015000000000000E9    -3.176507502971313E1     1.832078518068917E1    -1.473760352039690E-1    1.177676945521895E2    -1.379593124114026E-1    1.177972015749065E2    -3.218460763202518E1     2.024999298139799E1
 1.016000000000000E9    -3.198111884145747E1     1.737265976328167E1    -1.514527800070366E-1    1.171343824405678E2    -1.367310541518214E-1    1.171798849903712E2    -3.232972255892943E1     1.838887452668108E1
 1.017000000000000E9    -3.208757843182598E1     1.634617078824492E1    -1.571429428916186E-1    1.165484412658754E2    -1.377192400336426E-1    1.165887998411965E2    -3.241144089576486E1     1.785919230840171E1
 1.018000000000000E9    -3.227169774753886E1     1.400380391775898E1    -1.497350561204431E-1    1.160049016419159E2    -1.459499196285071E-1    1.160006792536162E2    -3.285680129619382E1     1.756163142736165E1
 1.019000000000000E9    -3.275991454834119E1     1.351645184719235E1    -1.525317997056958E-1    1.154047325201269E2    -1.421437278393092E-1    1.153868868121910E2    -3.299808005069104E1     1.795282535870074E1
 1.020000000000000E9    -3.284571019343276E1     1.218251183281188E1    -1.550635662039012E-1    1.148055502795347E2    -1.396209473823329E-1    1.147930773799406E2    -3.338356279250883E1     1.655868665539233E1
 1.021000000000000E9    -3.330840584311132E1     1.169412952937132E1    -1.449721831349970E-1    1.141714704173209E2    -1.403575572284991E-1    1.141811389920227E2    -3.386238963119759E1     1.575438629759175E1
 1.022000000000000E9    -3.325806990989666E1     1.194846225627878E1    -1.576406773029598E-1    1.136144607130285E2    -1.454715340024477E-1    1.135611509009365E2    -3.351554206138141E1     1.498150938526407E1
 1.023000000000000E9    -3.359592582936570E1     9.207496216264032      -1.519109932599753E-1    1.129816022571840E2    -1.344174422822991E-1    1.130375460587244E2    -3.398274858620098E1     1.548157764952856E1
 1.024000000000000E9    -3.399718599169844E1     9.047297031362829      -1.492267461035812E-1    1.124025933768765E2    -1.422044582269377E-1    1.123878413343419E2    -3.432822360015329E1     1.472490481355744E1
 1.025000000000000E9    -3.425728428936407E1     9.177078592458587      -1.506741331288265E-1    1.117935546941130E2    -1.404989884489922E-1    1.118069869021120E2    -3.481498936320798E1     1.218687672801283E1
 1.026000000000000E9    -3.441245909353960E1     6.010887653020762      -1.534381004401041E-1    1.112209295521444E2    -1.404593748879386E-1    1.112584792780181E2    -3.495496588268053E1     1.189364155677403E1
 1.027000000000000E9    -3.474410600788129E1     3.821056315626255      -1.466547217788983E-1    1.106329883768120E2    -1.391203290908432E-1    1.106036277434837E2    -3.526266879593922E1     1.293369007861523E1
 1.028000000000000E9    -3.506992778158605E1     4.396086669163960      -1.534223095599091E-1    1.099897112486305E2    -1.360077964784683E-1    1.099935442077951E2    -3.536778926257175E1     1.110737203911786E1
 1.029000000000000E9    -3.513956114514635E1     2.385649518034360      -1.558128884240951E-1    1.094067300412026E2    -1.472864699443655E-1    1.094197203771465E2    -3.591908123229643E1     1.367695916925486E1
 1.030000000000000E9    -3.545456308329575E1     1.041301371245047E-1   -1.495374195649889E-1    1.088318688962427E2    -1.446277175317897E-1    1.088486893316922E2    -3.612649499660635E1     1.160968980199492E1
 1.031000000000000E9    -3.600011536614688E1    -1.578684619558898      -1.539030500732505E-1    1.082314438527000E2    -1.477247351874955E-1    1.082554656315624E2    -3.685264181192786E1     1.005201805740370E1
 1.032000000000000E9    -3.647663945589260E1    -3.929153315852123      -1.494614396193086E-1    1.076366977118056E2    -1.441792680795920E-1    1.076228766733463E2    -3.673860206834943E1     1.204918805209053E1
 1.033000000000000E9    -3.674046010789653E1    -5.952834768413333      -1.508689201405214E-1    1.070131067494071E2    -1.413622935007267E-1    1.070452564371813E2    -3.727812870077322E1     9.728066707607008
 1.034000000000000E9    -3.723638659836202E1    -7.928933384084043      -1.460279457228089E-1    1.064435018158685E2    -1.458935461024637E-1    1.064795807391666E2    -3.777928189770401E1     1.191923900659626E1
 1.035000000000000E9    -3.729409604151243E1    -1.098830000421538E1    -1.487310679087816E-1    1.058396536834801E2    -1.379104259944516E-1    1.059024531746863E2    -3.850904556457883E1     7.874399935707942
 1.036000000000000E9    -3.770821196564323E1    -1.271553366027569E1    -1.564105776571337E-1    1.052513167069419E2    -1.442189310903800E-1    1.052291499424219E2    -3.909258241510938E1     7.003033075490818
 1.037000000000000E9    -3.873163293150205E1    -1.440751681129490E1    -1.510139622521876E-1    1.046577582734588E2    -1.421621734238839E-1    1.046722378244122E2    -3.967566151684891E1     8.393698278138297
 1.038000000000000E9    -3.902323480456485E1    -1.645965690643802E1    -1.527329076930658E-1    1.040404994951857E2    -1.393714652481384E-1    1.040504155778469E2    -4.035217169316986E1     1.004804954024126E1
 1.039000000000000E9    -3.937069806648099E1    -1.914298612657299E1    -1.539619103999907E-1    1.034460229521122E2    -1.381102714407815E-1    1.034721808504889E2    -4.083960874651326E1     8.800018631149200
 1.040000000000000E9    -3.951789306171540E1    -2.262684429150818E1    -1.518249854193639E-1    1.028701472324519E2    -1.380377567758662E-1    1.028619052097292E2    -4.154168877898214E1     4.559514779683643
 1.041000000000000E9    -4.044487606434156E1    -2.624736281735284E1    -1.498520250125659E-1    1.022979008411986E2    -1.340984620679466E-1    1.022627400620305E2    -4.242535955525747E1     9.739542322999533
 1.042000000000000E9    -4.033552294664644E1    -3.243792949502225E1    -1.543083634416840E-1    1.016431192386826E2    -1.416234699745094E-1    1.016979013963335E2    -4.326197160049481E1     5.786758420355996
 1.043000000000000E9    -4.099791207057078E1    -3.602675375528845E1    -1.498781927150789E-1    1.011073641932796E2    -1.484929666502434E-1    1.010771859417612E2    -4.413631371654680E1     7.816996982810668
 1.044000000000000E9    -4.184365485766130E1    -4.374998832734154E1    -1.508625742593567E-1    1.004937351713032E2    -1.435323755801918E-1    1.005066035895597E2    -4.621212852761008E1     1.045109492593046E1
 1.045000000000000E9    -4.189891356685373E1    -4.437706687813875E1    -1.494127270101699E-1    9.991394519638983E1    -1.443791081972959E-1    9.991543167898495E1    -4.655089534308362E1     9.183745885236235
 1.046000000000000E9    -4.244871861028067E1    -5.267821361667231E1    -1.486653707170423E-1    9.927722245984963E1    -1.449527587856123E-1    9.933379226077817E1    -4.902143095595982E1     1.267703866616105E1
 1.047000000000000E9    -4.304753895783222E1    -6.264472221063858E1    -1.536753365310312E-1    9.869541325372400E1    -1.436747251136210E-1    9.867266093335525E1    -5.057299659830856E1     5.067577815014818
 1.048000000000000E9    -4.346118157041855E1    -6.316218210580968E1    -1.591692034536257E-1    9.811515954987475E1    -1.417323334206592E-1    9.806939021444688E1    -5.374899929993021E1     8.495205102551845
 1.049000000000000E9    -4.387752935870313E1    -6.906202811916155E1    -1.477388214638169E-1    9.750652400047889E1    -1.407435603971406E-1    9.749742018544079E1    -5.561800322237181E1     1.474660997594524E1
 1.050000000000000E9    -4.394417142652340E1    -8.174285389259455E1    -1.513313630183061E-1    9.691665609808479E1    -1.428830098963773E-1    9.690648730302891E1    -6.864443523617312E1     7.367378943623851E1
 1.051000000000000E9    -4.355351470552780E1    -9.028454681750038E1    -1.570179599121983E-1    9.629725175366204E1    -1.397450908087297E-1    9.631158952683830E1    -6.414683022107143E1     1.499537972842049E2
 1.052000000000000E9    -4.307261410939961E1    -9.631677804171630E1    -1.504889468967935E-1    9.572685146184671E1    -1.457559366740114E-1    9.572204269955444E1    -5.801264320081499E1     1.799277119130110E2
 1.053000000000000E9    -4.319080772021646E1    -1.010908752256310E2    -1.464039105652752E-1    9.511000177554587E1    -1.408223352090993E-1    9.515251545258415E1    -5.149289107959511E1     1.735032523845716E2
 1.054000000000000E9    -4.243769754088419E1    -1.112761246507898E2    -1.571521339387349E-1    9.452620416434726E1    -1.397582562763192E-1    9.452187766842287E1    -5.051070204678560E1     1.670583012616170E2
 1.055000000000000E9    -4.237482749951887E1    -1.150376348797680E2    -1.506051426399801E-1    9.394256250686640E1    -1.422383871139710E-1    9.394494859815831E1    -4.818244803124779E1     1.748898278870820E2
 1.056000000000000E9    -4.182153562667423E1    -1.200200610546350E2    -1.478020322982609E-1    9.338977646846645E1    -1.428309700969667E-1    9.330459950139831E1    -4.789122945741418E1     1.731509035067878E2
 1.057000000000000E9    -4.142730521102081E1    -1.250749435299058E2    -1.505256702420094E-1    9.274184412996172E1    -1.430752734535899E-1    9.275429874302181E1    -4.627033848345456E1     1.748443755535149E2
 1.058000000000000E9    -4.081256098260062E1    -1.346341496272475E2    -1.520027023288026E-1    9.215092299577495E1    -1.458369547992973E-1    9.214612881906665E1    -4.422285921338101E1     1.773891682924905E2
 1.059000000000000E9    -4.034780352796523E1    -1.358376496665804E2    -1.525545621465554E-1    9.154243718944161E1    -1.449760154671209E-1    9.157094717203685E1    -4.348447555205902E1     1.744777739476921E2
 1.060000000000000E9    -3.975379824967229E1    -1.399567009690660E2    -1.534321816824535E-1    9.097188539908393E1    -1.459985381197943E-1    9.097169238389731E1    -4.242765162203028E1     1.754298263408510E2
 1.061000000000000E9    -3.927191169093510E1    -1.447516835979282E2    -1.519225553540674E-1    9.036341207719234E1    -1.495657319190307E-1    9.039576926073058E1    -4.098465518767928E1     1.738418485751849E2
 1.062000000000000E9    -3.864253405050019E1    -1.465283336860487E2    -1.467296804062846E-1    8.976556474502760E1    -1.443567735094382E-1    8.978417938740789E1    -4.063458308400798E1     1.777715020188750E2
 1.063000000000000E9    -3.820803660879572E1    -1.505594326655471E2    -1.533540212493577E-1    8.917575309144142E1    -1.436027268024736E-1    8.916600963974442E1    -3.935646711247630E1     1.742985812203583E2
 1.064000000000000E9    -3.794728054312934E1    -1.514670778232238E2    -1.464853351803130E-1    8.857697443375854E1    -1.487900499668841E-1    8.863735720121252E1    -3.922694906783316E1     1.734099388048470E2
 1.065000000000000E9    -3.737881545931898E1    -1.538451518962407E2    -1.478389458249775E-1    8.801377173670335E1    -1.394727307531295E-1    8.801683773167328E1    -3.817389923856742E1     1.754566386553045E2
 1.066000000000000E9    -3.687653047279189E1    -1.568739129350532E2    -1.552274796691344E-1    8.737694757107516E1    -1.392291780008804E-1    8.740482189374775E1    -3.811413007748760E1     1.750224054561205E2
 1.067000000000000E9    -3.664756164805512E1    -1.588059656291436E2    -1.537714750883245E-1    8.682219314409326E1    -1.481210190883017E-1    8.681691956598525E1    -3.740452134927048E1     1.732054306105064E2
 1.068000000000000E9    -3.606303843031689E1    -1.620026965611276E2    -1.556932620573195E-1    8.614239481100347E1    -1.484515340429932E-1    8.619671816168182E1    -3.734909025407028E1     1.754174136130093E2
 1.069000000000000E9    -3.578481725717857E1    -1.635333854345064E2    -1.551479894844657E-1    8.561744147764344E1    -1.413287226143957E-1    8.559776682286319E1    -3.668323609227304E1     1.730055126507822E2
 1.070000000000000E9    -3.532630482383151E1    -1.649215512761038E2    -1.556656808060436E-1    8.504099233434263E1    -1.480357277804213E-1    8.499473002771661E1    -3.614385944224314E1     1.732451330087947E2
 1.071000000000000E9    -3.517808963051320E1    -1.675905356793315E2    -1.540092158639088E-1    8.441253996594871E1    -1.454471806429015E-1    8.443373035687867E1    -3.578554279691480E1     1.737454375016843E2
 1.072000000000000E9    -3.477724442813324E1    -1.679950847132495E2    -1.471182717640429E-1    8.384358227210927E1    -1.420608962454547E-1    8.385299108735885E1    -3.552602730343636E1     1.747644460059003E2
 1.073000000000000E9    -3.426435225266651E1    -1.703835471902049E2    -1.566243496843536E-1    8.322032448534198E1    -1.445132606461544E-1    8.324292513956534E1    -3.513208306317442E1     1.734758211198796E2
 1.074000000000000E9    -3.403783479156715E1    -1.714946009739125E2    -1.524924868254443E-1    8.263002301137550E1    -1.498391722066399E-1    8.261630110358067E1    -3.483482809287131E1     1.727268323763599E2
 1.075000000000000E9    -3.368393511471532E1    -1.748126929477206E2    -1.591421373214200E-1    8.204490495275589E1    -1.523061737039915E-1    8.199466653740045E1    -3.424193143421850E1     1.724700211991629E2
 1.076000000000000E9    -3.342495042766057E1    -1.733938618913501E2    -1.515574579061461E-1    8.140474402194619E1    -1.487908980117207E-1    8.144601175802352E1    -3.405166833968249E1     1.725058085937297E2
 1.077000000000000E9    -3.305196805363190E1    -1.757492782154054E2    -1.534698482255661E-1    8.087716849418627E1    -1.504696234247679E-1    8.087294990502782E1    -3.353301671274625E1     1.711723527869100E2
 1.078000000000000E9    -3.303354303398837E1    -1.784285724985026E2    -1.522502280771044E-1    8.021034148451882E1    -1.482285281106733E-1    8.023409157108938E1    -3.346650026728641E1     1.702286536635953E2
 1.079000000000000E9    -3.261691507583143E1    -1.778472927377819E2    -1.598700214982965E-1    7.966393587586350E1    -1.417936919456099E-1    7.967700567059768E1    -3.309413130215219E1     1.720595594792361E2
 1.080000000000000E9    -3.235792593427487E1    -1.793892355550341E2    -1.542560650404439E-1    7.901951207511306E1    -1.479331981694904E-1    7.903408930802705E1    -3.286619816826699E1     1.712674702725983E2
 1.081000000000000E9    -3.207470392786140E1     1.784961343737130E2    -1.586437789393526E-1    7.845249109888101E1    -1.497080356883888E-1    7.849165161602714E1    -3.268764497517498E1     1.698611610081713E2
 1.082000000000000E9    -3.202800599080840E1     1.790210008582105E2    -1.577264335026460E-1    7.788760356307832E1    -1.529873354538299E-1    7.786127903783290E1    -3.262513252753895E1     1.709946707145630E2
 1.083000000000000E9    -3.166790792579006E1     1.762316204189114E2    -1.514840203856326E-1    7.726740280111854E1    -1.505780881125282E-1    7.730172387176272E1    -3.205012402319311E1     1.677079528132150E2
 1.084000000000000E9    -3.147524700465908E1     1.758489960787196E2    -1.598854538431369E-1    7.667349667500281E1    -1.530646324466375E-1    7.669511542471267E1    -3.198297029125052E1     1.680650527459829E2
 1.085000000000000E9    -3.129629415602487E1     1.747418185253073E2    -1.584122089156200E-1    7.606309568377128E1    -1.524562902799293E-1    7.603142420403609E1    -3.161236927355522E1     1.678218362422856E2
 1.086000000000000E9    -3.095621964637479E1     1.730405297833941E2    -1.567092595582382E-1    7.548797851288084E1    -1.516305174204602E-1    7.550215005339294E1    -3.153404313696544E1     1.675502748332500E2
 1.087000000000000E9    -3.081194328530428E1     1.736825438485528E2    -1.599403929890907E-1    7.487327961940049E1    -1.454272700967422E-1    7.489194644612769E1    -3.132856727427276E1     1.674647176500438E2
 1.088000000000000E9    -3.054895025546914E1     1.726606220377929E2    -1.603596651928198E-1    7.434205842707226E1    -1.489671353410890E-1    7.432288770170612E1    -3.113653246706928E1     1.660992287128442E2
 1.089000000000000E9    -3.060174070626930E1     1.709304093121220E2    -1.562713515437056E-1    7.372113057184619E1    -1.499850169781019E-1    7.368461995651232E1    -3.091206250287922E1     1.659219483050654E2
 1.090000000000000E9    -3.025983923660327E1     1.709653021111673E2    -1.605463198592600E-1    7.309952366454985E1    -1.493521253034261E-1    7.313782013625504E1    -3.074123494788462E1     1.669668740215476E2
 1.091000000000000E9    -3.001858028767283E1     1.691256748783977E2    -1.626189443335774E-1    7.255674266534618E1    -1.493090010791173E-1    7.253393634049451E1    -3.046720056558838E1     1.652323750756771E2
