#  HZ   S   DB   R     50.00 
! Rohde & Schwarz Vector Network Analyzer 
! Rohde-Schwarz,ZNB8-4Port,1311601044102961,2.82
! Created: UTC 3/4/2022, 4:07:11 PM
! freq[Hz]                db:S11                  ang:S11                 db:S21                  ang:S21                 db:S12                  ang:S12                 db:S22                  ang:S22
 1.000000000000000E9    -3.045300477125009E1     1.746570522688391E2    -2.058592710882588E-1    8.581515206000040E1    -1.882032298596231E-1    8.587247552213853E1    -3.050101978977497E1     1.768523766114863E2
 1.001000000000000E9    -3.027047415442026E1     1.739904513050682E2    -1.957639191894273E-1    8.521058653108838E1    -1.879354929516753E-1    8.520146697557468E1    -3.030723063638196E1     1.768678723211660E2
 1.002000000000000E9    -2.999851560658019E1     1.720509890785988E2    -1.979292031890252E-1    8.458181469069298E1    -1.889837739486660E-1    8.455821920681687E1    -3.017596820970015E1     1.755813483911431E2
 1.003000000000000E9    -2.982613824658451E1     1.722301092651494E2    -2.013559017402371E-1    8.391971811069868E1    -1.901572269426337E-1    8.392990278933652E1    -2.991299771227710E1     1.753101811113040E2
 1.004000000000000E9    -2.955258167870032E1     1.719921649158954E2    -2.011546176589521E-1    8.326515049560159E1    -1.905884364242502E-1    8.326123304789336E1    -2.962981385529187E1     1.752368419282979E2
 1.005000000000000E9    -2.935944657589591E1     1.712732482394056E2    -2.031623569661205E-1    8.263674619064898E1    -1.861955915153123E-1    8.261116794635943E1    -2.944804007366976E1     1.727263038873734E2
 1.006000000000000E9    -2.919595179361003E1     1.705658757954794E2    -2.041992654615113E-1    8.200376572661851E1    -1.975782452069025E-1    8.203513578141447E1    -2.934931906907203E1     1.727634393380658E2
 1.007000000000000E9    -2.907261332740723E1     1.700933825575605E2    -2.054164642377985E-1    8.134611993782811E1    -1.942411115684298E-1    8.139994107483980E1    -2.917753318747055E1     1.717274979923751E2
 1.008000000000000E9    -2.891602959251136E1     1.697174838336900E2    -2.007547812372499E-1    8.072038442969691E1    -1.932483832069691E-1    8.075458478547125E1    -2.904375162315640E1     1.709172936411493E2
 1.009000000000000E9    -2.862134698121039E1     1.680908707602153E2    -2.043222031998974E-1    8.011127386368555E1    -1.952720419076226E-1    8.008019349760413E1    -2.880835429208735E1     1.698039597929202E2
 1.010000000000000E9    -2.862459414033904E1     1.683824136257324E2    -2.105673578399977E-1    7.948224380081240E1    -1.933612988108750E-1    7.948569655010759E1    -2.861324306172904E1     1.692356343106031E2
 1.011000000000000E9    -2.837297098154158E1     1.678623346333148E2    -2.067392303114629E-1    7.886360488160825E1    -1.962001103938073E-1    7.881501563713904E1    -2.842197362590976E1     1.688226303377281E2
 1.012000000000000E9    -2.814128479912504E1     1.664715516582331E2    -2.096970872310990E-1    7.820233599829975E1    -1.956293342017684E-1    7.820912932955136E1    -2.833859322059829E1     1.687390623170165E2
 1.013000000000000E9    -2.802222455848656E1     1.660317123374718E2    -2.088458042198249E-1    7.749480168048815E1    -1.974249164075926E-1    7.757423086773851E1    -2.826408477135844E1     1.679464389160070E2
 1.014000000000000E9    -2.789776539478264E1     1.658956262444414E2    -2.091073787593056E-1    7.691760048785881E1    -1.966379997655788E-1    7.688835766211540E1    -2.808030329694891E1     1.668812297811139E2
 1.015000000000000E9    -2.764907206825711E1     1.647078400208413E2    -2.099942230087959E-1    7.626234942099596E1    -1.986118127801247E-1    7.625790564655129E1    -2.786327686340233E1     1.655158888796062E2
 1.016000000000000E9    -2.753593763995600E1     1.650409950183883E2    -2.041392337741363E-1    7.558367310904279E1    -2.010828789444786E-1    7.561935413957282E1    -2.768742851711343E1     1.645444479907801E2
 1.017000000000000E9    -2.746114773552515E1     1.647885068240254E2    -2.077989538107142E-1    7.501242662408555E1    -2.031325553492618E-1    7.499734044187336E1    -2.770725370840463E1     1.646088877647824E2
 1.018000000000000E9    -2.728465829490385E1     1.641587063533466E2    -2.122107549335632E-1    7.439512558290799E1    -1.977733736089093E-1    7.442968065436291E1    -2.745473201519553E1     1.633358707395085E2
 1.019000000000000E9    -2.709322867513075E1     1.634489722998751E2    -2.118901392326043E-1    7.374601116893605E1    -2.065907215588957E-1    7.375213935283124E1    -2.743675065751999E1     1.623582407184620E2
 1.020000000000000E9    -2.703332266482813E1     1.627971750546458E2    -2.091316739720756E-1    7.311284762332720E1    -2.032889413606834E-1    7.312819645514864E1    -2.711719775791702E1     1.614119216269927E2
 1.021000000000000E9    -2.680749747992760E1     1.618045630846214E2    -2.085217553171633E-1    7.247264407317461E1    -2.001639034288629E-1    7.245997707415421E1    -2.702587089316097E1     1.601450165180608E2
 1.022000000000000E9    -2.675959227040970E1     1.605374060245058E2    -2.113978798657334E-1    7.181499234548608E1    -2.032772035019442E-1    7.186382848732333E1    -2.700084271032282E1     1.598113304052200E2
 1.023000000000000E9    -2.655344333259013E1     1.604822020538505E2    -2.112194042375130E-1    7.120963159621239E1    -1.986525929404132E-1    7.121038412081651E1    -2.684816330587781E1     1.593700853152463E2
 1.024000000000000E9    -2.646782026318094E1     1.599355939122065E2    -2.126289365748842E-1    7.053856447903819E1    -2.007609613953538E-1    7.059571569156147E1    -2.657046267943294E1     1.587172264000094E2
 1.025000000000000E9    -2.630954505485845E1     1.595310320184740E2    -2.138014251738573E-1    6.994923306537616E1    -1.919866788823141E-1    6.993712189006833E1    -2.639953662021249E1     1.572851310318674E2
 1.026000000000000E9    -2.612547549561272E1     1.587120431533633E2    -2.135313737286816E-1    6.929186232308564E1    -1.988589325784484E-1    6.928217500908230E1    -2.636480838422523E1     1.566325940212660E2
 1.027000000000000E9    -2.601470599901326E1     1.585348207515187E2    -2.140559235451926E-1    6.863767898637050E1    -2.061817238040167E-1    6.864320455603095E1    -2.628230358225045E1     1.558124265260611E2
 1.028000000000000E9    -2.594964477425562E1     1.578021867791901E2    -2.160763845189198E-1    6.803095086006395E1    -2.016870475123734E-1    6.799942848252539E1    -2.596759149124777E1     1.551405532623618E2
 1.029000000000000E9    -2.579450187954284E1     1.568350821863475E2    -2.271492843891765E-1    6.737767307222207E1    -2.104261636458775E-1    6.739144742681781E1    -2.605595142756804E1     1.543358063648700E2
 1.030000000000000E9    -2.568272955287554E1     1.566142232513600E2    -2.154607409336391E-1    6.673456090952909E1    -2.072656499402053E-1    6.676441112129497E1    -2.591754380606672E1     1.536023228884654E2
 1.031000000000000E9    -2.552773594727125E1     1.558836064088770E2    -2.170496730336412E-1    6.613341761198635E1    -2.081212748556742E-1    6.613015978851928E1    -2.572414923884930E1     1.523483933553021E2
 1.032000000000000E9    -2.537235047586172E1     1.546293421643358E2    -2.113383796122482E-1    6.548136381736101E1    -2.057186077357128E-1    6.545214465231423E1    -2.569856848740678E1     1.518833008572272E2
 1.033000000000000E9    -2.525540782134807E1     1.546435486970032E2    -2.213121160671704E-1    6.483485718948128E1    -2.055167032183497E-1    6.486038988172827E1    -2.548351662368463E1     1.515497555106697E2
 1.034000000000000E9    -2.507803305551488E1     1.535849443269895E2    -2.151971997469210E-1    6.423489269202572E1    -2.126476369250873E-1    6.421557578268956E1    -2.533970401159390E1     1.502984798042669E2
 1.035000000000000E9    -2.492347850863230E1     1.535538053613589E2    -2.205231374525476E-1    6.354557155338135E1    -2.111937010624592E-1    6.359520489933298E1    -2.519665391822490E1     1.498187195606493E2
 1.036000000000000E9    -2.483524409890104E1     1.528973075631530E2    -2.220169371365226E-1    6.291587570608799E1    -2.140711376405727E-1    6.293998863596316E1    -2.508976165380812E1     1.488700121473907E2
 1.037000000000000E9    -2.473681473399953E1     1.521792230406886E2    -2.183426972031384E-1    6.224789003936968E1    -2.132880602161437E-1    6.227515805910760E1    -2.505428781699478E1     1.484923197658291E2
 1.038000000000000E9    -2.458391204567060E1     1.513464946557675E2    -2.260675331760253E-1    6.166612991999406E1    -2.114929873737028E-1    6.167696584744746E1    -2.476352532065297E1     1.472850805044795E2
 1.039000000000000E9    -2.450210570301642E1     1.510078098786287E2    -2.167616737957313E-1    6.103337080544943E1    -2.129582394946766E-1    6.099901776736233E1    -2.479126753001201E1     1.470779274904678E2
 1.040000000000000E9    -2.444214859060459E1     1.501558019931406E2    -2.214843789019305E-1    6.038214948813517E1    -2.118122641727813E-1    6.041179172924367E1    -2.464999840836899E1     1.464196438196606E2
 1.041000000000000E9    -2.428855681070155E1     1.491736542337988E2    -2.297783620324476E-1    5.976679338160029E1    -2.097645185850936E-1    5.974336024323157E1    -2.452991876341169E1     1.452557690943192E2
 1.042000000000000E9    -2.421909901685502E1     1.488357735445533E2    -2.253021619337050E-1    5.910268860251024E1    -2.123708112930704E-1    5.918862345643929E1    -2.440004283949850E1     1.443165744889839E2
 1.043000000000000E9    -2.410786005677227E1     1.485403775450752E2    -2.194111435862224E-1    5.849582708370382E1    -2.120879435288096E-1    5.843598526643415E1    -2.431865310034093E1     1.440142912288135E2
 1.044000000000000E9    -2.393154193361478E1     1.477213909897461E2    -2.232618597589888E-1    5.784351290416260E1    -2.152528933394793E-1    5.788202350502220E1    -2.417240255071940E1     1.433317798356346E2
 1.045000000000000E9    -2.386423029503743E1     1.471604520499176E2    -2.256836372636606E-1    5.723236154797075E1    -2.161779009019210E-1    5.725531749549236E1    -2.406497271386773E1     1.433517008749766E2
 1.046000000000000E9    -2.376917806720490E1     1.464280443155326E2    -2.231535666657722E-1    5.651882575925637E1    -2.174355777783231E-1    5.660664574630699E1    -2.404543660790962E1     1.419272971516303E2
 1.047000000000000E9    -2.370637508814514E1     1.456771232234894E2    -2.257756101717424E-1    5.595281615055036E1    -2.204515837600587E-1    5.595460342281883E1    -2.385539995246578E1     1.417885302521375E2
 1.048000000000000E9    -2.361325185077467E1     1.450674920678077E2    -2.293471166988864E-1    5.530751836949041E1    -2.093825295597386E-1    5.532667204782675E1    -2.376657658549003E1     1.409299943677159E2
 1.049000000000000E9    -2.354022279621858E1     1.439670738770768E2    -2.317774417470820E-1    5.466747171429642E1    -2.207782791297498E-1    5.466681739524940E1    -2.369164308290693E1     1.399266230035486E2
 1.050000000000000E9    -2.335565472549647E1     1.430064793706363E2    -2.314731697745640E-1    5.403140895906435E1    -2.204643512066923E-1    5.405668299558322E1    -2.355186050773924E1     1.396667098963501E2
 1.051000000000000E9    -2.328164025267521E1     1.425962505106018E2    -2.295338317761348E-1    5.344815075707253E1    -2.172737947902373E-1    5.339265526724916E1    -2.355500361263553E1     1.387828271994940E2
 1.052000000000000E9    -2.320811368205208E1     1.419330531484122E2    -2.328684048979724E-1    5.281814707943396E1    -2.260278880025051E-1    5.282252124623318E1    -2.340838131943432E1     1.385461803502218E2
 1.053000000000000E9    -2.309039053100323E1     1.411370159984801E2    -2.264548263805480E-1    5.214439529181161E1    -2.172310049386409E-1    5.215382292941396E1    -2.325865476776999E1     1.378059686543817E2
 1.054000000000000E9    -2.299446406805424E1     1.407425010202915E2    -2.310387724609528E-1    5.149817438792963E1    -2.198133308262619E-1    5.150107974087106E1    -2.319971895145449E1     1.373018962702624E2
 1.055000000000000E9    -2.295518153307705E1     1.399879006909852E2    -2.323116260507428E-1    5.083919010444823E1    -2.207434328978708E-1    5.088413752670756E1    -2.310427451699774E1     1.367503062239438E2
 1.056000000000000E9    -2.288837413735515E1     1.391645669301300E2    -2.258494005500689E-1    5.024911050575259E1    -2.258615624670687E-1    5.023634666902673E1    -2.310462730574722E1     1.364809331706322E2
 1.057000000000000E9    -2.280820681210768E1     1.381098108844846E2    -2.347200483781345E-1    4.962602118184041E1    -2.189121171444466E-1    4.965776156164623E1    -2.297964242767021E1     1.354993624813309E2
 1.058000000000000E9    -2.270029457774701E1     1.373223531118651E2    -2.292443513104665E-1    4.899189489558558E1    -2.276071665951397E-1    4.895951734072101E1    -2.287808882364809E1     1.349075431911242E2
 1.059000000000000E9    -2.262546283332512E1     1.370691502828442E2    -2.309744408011367E-1    4.832280980410701E1    -2.230909960858322E-1    4.834203684177679E1    -2.278315481891841E1     1.345037685578154E2
 1.060000000000000E9    -2.252772086958406E1     1.362901565327648E2    -2.326525462867924E-1    4.768286168468335E1    -2.303079173671232E-1    4.770770627570389E1    -2.274862379704553E1     1.334696614032917E2
 1.061000000000000E9    -2.245617453481010E1     1.352700159823259E2    -2.320950010276407E-1    4.710081949389548E1    -2.286885547687576E-1    4.712624019316795E1    -2.260401396911709E1     1.330930710061577E2
 1.062000000000000E9    -2.237591299564773E1     1.348942910946325E2    -2.392293114912452E-1    4.646572892906704E1    -2.220795546304516E-1    4.647279133608028E1    -2.257874229583896E1     1.325576322482525E2
 1.063000000000000E9    -2.227698672054267E1     1.340979738226662E2    -2.343315556483976E-1    4.579408549200178E1    -2.292381053569205E-1    4.583552292756794E1    -2.249440119197415E1     1.320888689206289E2
 1.064000000000000E9    -2.222574021459157E1     1.333918747717532E2    -2.333913641631888E-1    4.519056489660312E1    -2.322790043178572E-1    4.522760528613772E1    -2.246459464649701E1     1.311981245335577E2
 1.065000000000000E9    -2.214674081908027E1     1.325054911054192E2    -2.387587767582013E-1    4.456427447968748E1    -2.227399439587846E-1    4.457610933627428E1    -2.233055091626936E1     1.306267337993542E2
 1.066000000000000E9    -2.209721678573504E1     1.316184638073460E2    -2.367493046277789E-1    4.391942182556812E1    -2.278667197758541E-1    4.394320853893058E1    -2.234922965062022E1     1.304839558457982E2
 1.067000000000000E9    -2.202680192765928E1     1.310088216548105E2    -2.360209046518623E-1    4.326448190779732E1    -2.291247004058100E-1    4.330350820633643E1    -2.224192291186986E1     1.295246874919544E2
 1.068000000000000E9    -2.203416848753665E1     1.301853933522093E2    -2.356755873670820E-1    4.264250275198122E1    -2.300457501671880E-1    4.271342381218920E1    -2.221819502401127E1     1.297090136592561E2
 1.069000000000000E9    -2.191738824092981E1     1.296274852215725E2    -2.388441389416016E-1    4.199182888329028E1    -2.262555411339165E-1    4.199252451160729E1    -2.214405251190915E1     1.285676181964228E2
 1.070000000000000E9    -2.186023441075935E1     1.290037320352349E2    -2.428446593387766E-1    4.137107871830985E1    -2.323196910719775E-1    4.140685471914811E1    -2.200956231000627E1     1.282554489429628E2
 1.071000000000000E9    -2.183949256194713E1     1.281043354396580E2    -2.407203547642337E-1    4.076046773989162E1    -2.354501939337269E-1    4.076332972231143E1    -2.203873364087450E1     1.277329311298099E2
 1.072000000000000E9    -2.177697933233997E1     1.272245705614571E2    -2.420994429553824E-1    4.009311945106614E1    -2.311177285875243E-1    4.013250036364372E1    -2.191894796954001E1     1.270312361936118E2
 1.073000000000000E9    -2.168794847596594E1     1.266138698261658E2    -2.508837468741497E-1    3.949957613038606E1    -2.341918493680270E-1    3.949764683602865E1    -2.192177626853646E1     1.265620143767917E2
 1.074000000000000E9    -2.166492046077281E1     1.259201851304910E2    -2.398831019190816E-1    3.885787203535448E1    -2.355085591292027E-1    3.882576350642687E1    -2.184718008549002E1     1.255355843596480E2
 1.075000000000000E9    -2.160823394300850E1     1.252224425346000E2    -2.515464407696056E-1    3.822725236804477E1    -2.321844193841134E-1    3.821879470448069E1    -2.179277316447627E1     1.249109458821401E2
 1.076000000000000E9    -2.149601245290388E1     1.245519747399312E2    -2.427117840511903E-1    3.754166870482412E1    -2.373717300032023E-1    3.757312350013840E1    -2.176561113677760E1     1.246574309660701E2
 1.077000000000000E9    -2.148627480010043E1     1.242354982912705E2    -2.414228920208194E-1    3.695726662856014E1    -2.330250492355852E-1    3.696837896257059E1    -2.174580954953081E1     1.240042296533798E2
 1.078000000000000E9    -2.149032312119929E1     1.231922885136926E2    -2.399890966899840E-1    3.636316028077552E1    -2.381514732578230E-1    3.629803250608901E1    -2.171374636993589E1     1.231764395200795E2
 1.079000000000000E9    -2.142737272131319E1     1.227592526172409E2    -2.484107057688803E-1    3.568973132774431E1    -2.362638743107893E-1    3.572313178229609E1    -2.160961406588898E1     1.229135293523529E2
 1.080000000000000E9    -2.133065829741847E1     1.216957917905503E2    -2.359917634009846E-1    3.501163355532709E1    -2.409041683304638E-1    3.505432086605100E1    -2.157182888213802E1     1.224135463288276E2
 1.081000000000000E9    -2.134560830477105E1     1.211385823673710E2    -2.458772926905810E-1    3.440671501717908E1    -2.338944741044968E-1    3.442224914381064E1    -2.161074441442915E1     1.215019965407740E2
 1.082000000000000E9    -2.131979247496269E1     1.208020908898346E2    -2.423858299570511E-1    3.378868861438338E1    -2.403284965757699E-1    3.377422748674689E1    -2.154887224515572E1     1.211464127979057E2
 1.083000000000000E9    -2.123040867243544E1     1.195650763241224E2    -2.396920432250037E-1    3.317595028285905E1    -2.367701525320299E-1    3.317799563021188E1    -2.156067322855816E1     1.201744857359150E2
 1.084000000000000E9    -2.115612301144964E1     1.193909293999124E2    -2.519338216034930E-1    3.252153861423505E1    -2.359527553461688E-1    3.259896447399186E1    -2.145749824056297E1     1.197627643525205E2
 1.085000000000000E9    -2.114573514085161E1     1.186130963541694E2    -2.496331456883013E-1    3.190062171452306E1    -2.359570771442933E-1    3.191834321425013E1    -2.143164790566562E1     1.189222602034252E2
 1.086000000000000E9    -2.109457666706898E1     1.175591163636383E2    -2.465456791229621E-1    3.125193215192384E1    -2.383870453338823E-1    3.126282526843866E1    -2.137253253438156E1     1.183782185433579E2
 1.087000000000000E9    -2.101391384148012E1     1.173499578863828E2    -2.403064255494913E-1    3.057418090651202E1    -2.394374248460418E-1    3.066890516783774E1    -2.136492863567078E1     1.181797298978754E2
 1.088000000000000E9    -2.100866343796167E1     1.167203581139521E2    -2.550536342499193E-1    3.002579721101438E1    -2.393003970502680E-1    3.000683322801008E1    -2.137928844527164E1     1.170369883078273E2
 1.089000000000000E9    -2.100734928803885E1     1.160237139409599E2    -2.518726295313901E-1    2.940291120595448E1    -2.372097259568284E-1    2.940282152324546E1    -2.132744693025145E1     1.166373442146683E2
 1.090000000000000E9    -2.100278321426216E1     1.151824498220684E2    -2.436807188497914E-1    2.874296678649849E1    -2.344648639978561E-1    2.876716652671758E1    -2.121093396136195E1     1.163383643697434E2
 1.091000000000000E9    -2.093892592014593E1     1.143752997192613E2    -2.496715648585795E-1    2.813431301795928E1    -2.398365435160240E-1    2.812732234535228E1    -2.123742959799765E1     1.151038994642386E2
