#  HZ   S   DB   R     50.00 
! Rohde & Schwarz Vector Network Analyzer 
! Rohde-Schwarz,ZNB8-4Port,1311601044102961,2.82
! Created: UTC 3/4/2022, 3:59:27 PM
! freq[Hz]                db:S11                  ang:S11                 db:S21                  ang:S21                 db:S12                  ang:S12                 db:S22                  ang:S22
 1.000000000000000E9    -2.930059656749688E1     2.286028407595077E1    -3.817170891868504E-1   -7.205036661466042E1    -3.708692555260127E-1   -7.208250469320001E1    -2.895922504117920E1    -6.863716019833216
 1.001000000000000E9    -2.913274275565349E1     2.170390053263383E1    -3.824515252843252E-1   -7.389640062605099E1    -3.689720220940042E-1   -7.393454914521466E1    -2.876174428100036E1    -8.939791504847728
 1.002000000000000E9    -2.906658558319755E1     2.186359659406934E1    -3.824293320117780E-1   -7.577292931388296E1    -3.679774195909086E-1   -7.580952960778524E1    -2.872013349952539E1    -1.122368782200406E1
 1.003000000000000E9    -2.888683860539479E1     1.940798582434280E1    -3.838637144688509E-1   -7.764254792848409E1    -3.736726714132381E-1   -7.766568627702381E1    -2.842085005312929E1    -1.375852184406082E1
 1.004000000000000E9    -2.888146066472925E1     1.874555021151858E1    -3.805328208389431E-1   -7.954521177284354E1    -3.774299926923017E-1   -7.955111337738563E1    -2.831402726721296E1    -1.657215572771504E1
 1.005000000000000E9    -2.874044063349044E1     1.806658204783020E1    -3.761100675522636E-1   -8.140912119247912E1    -3.677868020291315E-1   -8.142110087698956E1    -2.813416751148889E1    -1.844414391417033E1
 1.006000000000000E9    -2.863403902480383E1     1.629276476934959E1    -3.858598507947881E-1   -8.327706490356020E1    -3.687001553919142E-1   -8.326392952359191E1    -2.804499784060675E1    -2.095775099162675E1
 1.007000000000000E9    -2.851317373023958E1     1.540675041722563E1    -3.789285412975051E-1   -8.517172288656826E1    -3.680435621998909E-1   -8.514396224494712E1    -2.807792043305127E1    -2.300850480875157E1
 1.008000000000000E9    -2.834373084107566E1     1.419715682636952E1    -3.820519445938367E-1   -8.705734291245247E1    -3.713468027781364E-1   -8.706263702453659E1    -2.790586418482898E1    -2.507106342279316E1
 1.009000000000000E9    -2.832291918380287E1     1.355024837422149E1    -3.784036115336413E-1   -8.891286624207645E1    -3.739487503447591E-1   -8.885244775147311E1    -2.781264970634466E1    -2.695167477700139E1
 1.010000000000000E9    -2.836346307394658E1     1.072108818257004E1    -3.842402043386783E-1   -9.075407798754908E1    -3.747131653301162E-1   -9.075655172663996E1    -2.787448300644250E1    -2.959526116731257E1
 1.011000000000000E9    -2.823884126221742E1     1.048051448458564E1    -3.862897638607210E-1   -9.263016051966136E1    -3.779985866517960E-1   -9.265637699804445E1    -2.770703403353985E1    -3.159803620112333E1
 1.012000000000000E9    -2.833375642517698E1     9.683271894444271      -3.840882458574438E-1   -9.454259120013020E1    -3.767781415006565E-1   -9.453544249343561E1    -2.766939851262995E1    -3.439783842484894E1
 1.013000000000000E9    -2.829745839766826E1     8.346622964597760      -3.836200423577004E-1   -9.638592597520618E1    -3.684347769427329E-1   -9.632758455143491E1    -2.752180058531261E1    -3.571725276173752E1
 1.014000000000000E9    -2.808555525874454E1     6.376715737263853      -3.861773164414116E-1   -9.824499057929907E1    -3.712052227137120E-1   -9.824686156808511E1    -2.762453992866367E1    -3.788234778611448E1
 1.015000000000000E9    -2.823823198048249E1     5.697571000286897      -3.885441891868950E-1   -1.001131593534878E2    -3.756232619094037E-1   -1.000908124779174E2    -2.761061878877108E1    -4.055606405669280E1
 1.016000000000000E9    -2.808178668783091E1     3.770039123249242      -3.786639450614135E-1   -1.019990338733077E2    -3.777556634504774E-1   -1.019886453604897E2    -2.769271494451371E1    -4.279063876265667E1
 1.017000000000000E9    -2.817473554617436E1     1.955345572115245      -3.842720752939541E-1   -1.039090010472736E2    -3.689729841240064E-1   -1.038569993222515E2    -2.746210691408674E1    -4.505766762781244E1
 1.018000000000000E9    -2.825601516796167E1     8.236804458390898E-1   -3.860196418403041E-1   -1.057108536667489E2    -3.755430388041200E-1   -1.057199737149599E2    -2.762765610241322E1    -4.684767556672875E1
 1.019000000000000E9    -2.828901935005774E1    -1.469886360137723E-1   -3.861433105416849E-1   -1.076107133024221E2    -3.755629381750677E-1   -1.075656395768488E2    -2.758661743749423E1    -4.945493201849137E1
 1.020000000000000E9    -2.819498238047386E1    -1.298802548562593      -3.770569575238992E-1   -1.094745425827161E2    -3.759372672908929E-1   -1.094880120094775E2    -2.770388774800843E1    -5.214980290493384E1
 1.021000000000000E9    -2.835790502553746E1    -2.127046149635938      -3.785168014684893E-1   -1.113454225432545E2    -3.721317396815045E-1   -1.113171879992298E2    -2.785969270599684E1    -5.414488278521207E1
 1.022000000000000E9    -2.827112652081453E1    -3.577604836420464      -3.866848573618669E-1   -1.132471709709612E2    -3.697463300921148E-1   -1.132116940245681E2    -2.771691392285250E1    -5.550312853282568E1
 1.023000000000000E9    -2.847428215210837E1    -5.545991570605356      -3.882352682344002E-1   -1.150581797390611E2    -3.765284096746802E-1   -1.150634959435918E2    -2.781944587335222E1    -5.810539715634203E1
 1.024000000000000E9    -2.847621956323807E1    -6.120847186842206      -3.830952395198091E-1   -1.169259684071652E2    -3.762113187632467E-1   -1.169559178208892E2    -2.792466615642294E1    -6.033138394908916E1
 1.025000000000000E9    -2.857282240004121E1    -7.109018745888366      -3.878782432572170E-1   -1.188374580547502E2    -3.711602728915587E-1   -1.187984018791732E2    -2.809037998146286E1    -6.251172362309576E1
 1.026000000000000E9    -2.874086535427685E1    -7.752347091017606      -3.894293273374556E-1   -1.206731729829918E2    -3.741445991681751E-1   -1.206813384164075E2    -2.814236823369897E1    -6.472013625308878E1
 1.027000000000000E9    -2.875466238581323E1    -1.044885357088089E1    -3.856628425050206E-1   -1.225420574654463E2    -3.775556351447926E-1   -1.225673995439516E2    -2.826679551022203E1    -6.711763911074260E1
 1.028000000000000E9    -2.881437357484498E1    -1.063721078082176E1    -3.864889896064356E-1   -1.244222012255507E2    -3.662731997995624E-1   -1.244400873143464E2    -2.842374288947613E1    -6.992828310538070E1
 1.029000000000000E9    -2.898590680273589E1    -1.171137512034974E1    -3.902636481962813E-1   -1.262919201868891E2    -3.784185877624360E-1   -1.263157716177470E2    -2.843478639183214E1    -7.120137983738869E1
 1.030000000000000E9    -2.908786017161976E1    -1.350236999543806E1    -3.861773869513105E-1   -1.281912260027358E2    -3.797982614886019E-1   -1.281745577364509E2    -2.870255137536221E1    -7.438460195508728E1
 1.031000000000000E9    -2.938399624556513E1    -1.380867526410879E1    -3.825602333634762E-1   -1.300194110977327E2    -3.747076615194300E-1   -1.300415275314878E2    -2.878964229381266E1    -7.626510352090652E1
 1.032000000000000E9    -2.939515239602152E1    -1.435579893746949E1    -3.845132223255582E-1   -1.319382080377482E2    -3.747794253653019E-1   -1.319416346885143E2    -2.880782926827526E1    -7.888155734205290E1
 1.033000000000000E9    -2.969714963479401E1    -1.560867634249524E1    -3.854333533797735E-1   -1.338097285336298E2    -3.747024146043740E-1   -1.337702555123252E2    -2.908039977456724E1    -8.271256496523763E1
 1.034000000000000E9    -2.968767973159817E1    -1.607776206638747E1    -3.871516379801877E-1   -1.356887005085734E2    -3.772035428572335E-1   -1.356240989169346E2    -2.928767851052009E1    -8.447892089291855E1
 1.035000000000000E9    -2.996632243377626E1    -1.699693500480945E1    -3.821525790229160E-1   -1.375078134334340E2    -3.797160280004112E-1   -1.375043341104372E2    -2.949523109258396E1    -8.631362934085583E1
 1.036000000000000E9    -3.022341259731095E1    -1.897161116395655E1    -3.783953048770444E-1   -1.393955461102590E2    -3.777305498402016E-1   -1.393811992107858E2    -2.983822638301855E1    -8.869969315142937E1
 1.037000000000000E9    -3.034711215738211E1    -1.924356721027839E1    -3.873002062254664E-1   -1.413072734529913E2    -3.808210262261723E-1   -1.412979110239571E2    -2.996756331801407E1    -9.217759699988005E1
 1.038000000000000E9    -3.055560463262865E1    -1.967579145162802E1    -3.835247004969722E-1   -1.431971854059232E2    -3.721117928095989E-1   -1.431096657412157E2    -3.031805617166277E1    -9.477647257179054E1
 1.039000000000000E9    -3.069328821242815E1    -2.036016457927739E1    -3.846619906625372E-1   -1.450073710173359E2    -3.746715945421341E-1   -1.450262156219137E2    -3.047320954231461E1    -9.797844583325474E1
 1.040000000000000E9    -3.104204740213503E1    -2.077595209976924E1    -3.793070584075809E-1   -1.469020801560820E2    -3.784611075990685E-1   -1.468917865875170E2    -3.060838363381074E1    -1.003653681645731E2
 1.041000000000000E9    -3.122277396264430E1    -2.228887773182464E1    -3.888843727130334E-1   -1.487476403445158E2    -3.741548456176478E-1   -1.487549500168356E2    -3.089653382043408E1    -1.034264248747797E2
 1.042000000000000E9    -3.139416498599449E1    -2.248763993880491E1    -3.829239738813439E-1   -1.506553584839574E2    -3.703710797465417E-1   -1.506687523592492E2    -3.130870604120477E1    -1.066604404165430E2
 1.043000000000000E9    -3.173750227376831E1    -2.246517982693487E1    -3.750961654007320E-1   -1.525010644181044E2    -3.749183990864751E-1   -1.525107267010873E2    -3.155706365938629E1    -1.091994039517391E2
 1.044000000000000E9    -3.196709773607150E1    -2.224881448746337E1    -3.861835313687220E-1   -1.543622707196896E2    -3.769380438408417E-1   -1.543442516536387E2    -3.191544531617094E1    -1.120195014847347E2
 1.045000000000000E9    -3.221037907047445E1    -2.360152426049435E1    -3.793198828825122E-1   -1.562751958467180E2    -3.787246038266945E-1   -1.562487290684537E2    -3.214807778174481E1    -1.163135771357739E2
 1.046000000000000E9    -3.252479152732357E1    -2.235154980439073E1    -3.854768261133267E-1   -1.580949018442024E2    -3.712556167134635E-1   -1.580830864922450E2    -3.238554722773517E1    -1.188713700972899E2
 1.047000000000000E9    -3.274409762426127E1    -2.255686509438549E1    -3.842676995300873E-1   -1.599919080746679E2    -3.744585629410137E-1   -1.599811245097661E2    -3.251007654585202E1    -1.233676849112513E2
 1.048000000000000E9    -3.315643088108609E1    -2.307808655952043E1    -3.925404110745990E-1   -1.618665732694150E2    -3.757796579883577E-1   -1.619179894787770E2    -3.302182366212830E1    -1.257374033929335E2
 1.049000000000000E9    -3.331761500690512E1    -2.183348588822700E1    -3.877999204697290E-1   -1.637712553296225E2    -3.774374201922162E-1   -1.637092570408091E2    -3.327553395004409E1    -1.299870815517220E2
 1.050000000000000E9    -3.353203760081487E1    -2.164794260686418E1    -3.851657707732915E-1   -1.656156878448935E2    -3.741998894537724E-1   -1.655730993119259E2    -3.372646524621359E1    -1.331948472597036E2
 1.051000000000000E9    -3.364394840285210E1    -2.082430385559786E1    -3.869407961401747E-1   -1.674794799202632E2    -3.792536583048877E-1   -1.674496597576425E2    -3.397834312675047E1    -1.370103393225528E2
 1.052000000000000E9    -3.393438482228358E1    -2.095787451724863E1    -3.829227844186250E-1   -1.693576474006979E2    -3.709060621845970E-1   -1.693440207583691E2    -3.449204022247445E1    -1.422364235724601E2
 1.053000000000000E9    -3.431146454589062E1    -1.900304442602708E1    -3.870386948469797E-1   -1.712418170486034E2    -3.737649814836034E-1   -1.711744474737427E2    -3.494964709739993E1    -1.458569288473125E2
 1.054000000000000E9    -3.446849955204000E1    -1.801631331670969E1    -3.856153151302715E-1   -1.730956687634585E2    -3.778644548094188E-1   -1.730723598883755E2    -3.497318428418771E1    -1.497898076650638E2
 1.055000000000000E9    -3.455980238380801E1    -1.870500737310608E1    -3.840105429879825E-1   -1.749744434139259E2    -3.773161547974888E-1   -1.749642767022758E2    -3.525907284547954E1    -1.565159447156105E2
 1.056000000000000E9    -3.484531592678390E1    -1.751029673279016E1    -3.862718990383257E-1   -1.768393441378151E2    -3.803665967903858E-1   -1.768366631900053E2    -3.563450260454993E1    -1.603138403118627E2
 1.057000000000000E9    -3.510036758845600E1    -1.660681580057531E1    -3.821139559745221E-1   -1.787634618020902E2    -3.726822159468093E-1   -1.787092171261189E2    -3.580502626005989E1    -1.656913832065154E2
 1.058000000000000E9    -3.514592188870387E1    -1.507615619755654E1    -3.860618493540936E-1    1.794415511683470E2    -3.821662815565720E-1    1.794569310642686E2    -3.622786513601092E1    -1.695763468762813E2
 1.059000000000000E9    -3.542177470826631E1    -1.324926499899119E1    -3.846496234423047E-1    1.775150239408369E2    -3.753842758861081E-1    1.775584192582497E2    -3.680594991990586E1    -1.745730997185774E2
 1.060000000000000E9    -3.553585578488413E1    -1.274223831167271E1    -3.798417778934792E-1    1.756577181775478E2    -3.811344081192505E-1    1.756925422640302E2    -3.671041222192635E1     1.792022060360233E2
 1.061000000000000E9    -3.555091028054272E1    -1.125758284481429E1    -3.839709815870043E-1    1.738015195861213E2    -3.822399346806561E-1    1.738334941665166E2    -3.741040540128649E1     1.751318232608730E2
 1.062000000000000E9    -3.581552383292303E1    -9.516990631158787      -3.829093623585707E-1    1.719149859246615E2    -3.818179345462270E-1    1.719523859941196E2    -3.763247877365269E1     1.674500350282226E2
 1.063000000000000E9    -3.573373006241048E1    -6.614349228100126      -3.870746257198839E-1    1.700872659981367E2    -3.799023807077323E-1    1.700958610226068E2    -3.785016842845293E1     1.634011225911260E2
 1.064000000000000E9    -3.577591831176193E1    -4.014724158249011      -3.924725139022795E-1    1.682157344642954E2    -3.784636362435759E-1    1.682380063255735E2    -3.769841321504114E1     1.575089018996843E2
 1.065000000000000E9    -3.591720731592192E1    -4.374643659553208      -3.880220492404272E-1    1.663362767182577E2    -3.773346133871673E-1    1.663435867358832E2    -3.809017499831771E1     1.515081792183216E2
 1.066000000000000E9    -3.549863558355349E1    -2.791503157107811      -3.859869417737982E-1    1.644685802939005E2    -3.782509263327354E-1    1.644099901153502E2    -3.778730531742643E1     1.463376079895906E2
 1.067000000000000E9    -3.595840800676400E1    -1.459061624056022      -3.808034854335602E-1    1.625605055263921E2    -3.835086312808323E-1    1.626112558695732E2    -3.802362253019309E1     1.360015718878759E2
 1.068000000000000E9    -3.577904580321452E1    -6.123278918183797E-1   -3.852881838977291E-1    1.606987625352878E2    -3.793299488611963E-1    1.607155999138994E2    -3.800150677398940E1     1.298318305558524E2
 1.069000000000000E9    -3.583012627709691E1     4.131673797699316E-1   -3.859672073598835E-1    1.587939970363391E2    -3.797530236657326E-1    1.588597120027341E2    -3.776459447840913E1     1.217321061029710E2
 1.070000000000000E9    -3.555865094813547E1     4.281257716483758      -3.872968635640343E-1    1.569643859835523E2    -3.814380253694082E-1    1.569959552227480E2    -3.798265073080387E1     1.177070709181601E2
 1.071000000000000E9    -3.567317404591732E1     4.338440664736218      -3.951540592493813E-1    1.550871995023990E2    -3.833232233818964E-1    1.551159346799671E2    -3.789313384776372E1     1.109401719482004E2
 1.072000000000000E9    -3.548198240910057E1     5.570575927297186      -3.910965233523533E-1    1.531854542955790E2    -3.800383602844167E-1    1.532249178159000E2    -3.758107414341927E1     1.015900428021340E2
 1.073000000000000E9    -3.531433992501103E1     5.372679266835259      -3.910268301837149E-1    1.513286230099494E2    -3.795425808277436E-1    1.513816691933673E2    -3.767695313002737E1     9.871134174669390E1
 1.074000000000000E9    -3.524034687059790E1     7.562758604358261      -3.904038371994202E-1    1.495285317542452E2    -3.815192115731619E-1    1.494490379509547E2    -3.733052323489684E1     9.302268180516809E1
 1.075000000000000E9    -3.516548429955333E1     7.700581471986936      -3.838950536138804E-1    1.475998991213604E2    -3.818302126687123E-1    1.476136428061789E2    -3.718573813556522E1     8.815737971229605E1
 1.076000000000000E9    -3.477431948365465E1     9.901732515268385      -3.915057485729700E-1    1.457621751131708E2    -3.827177092508048E-1    1.457514571762113E2    -3.684779723491313E1     8.217144090988487E1
 1.077000000000000E9    -3.455017023754677E1     1.066826709750663E1    -3.927708412961700E-1    1.438948185875155E2    -3.827349165460922E-1    1.438904430425670E2    -3.668083292586489E1     7.758936244538607E1
 1.078000000000000E9    -3.466189162498118E1     1.236230948254334E1    -3.872597185203727E-1    1.419846911325735E2    -3.851332589791864E-1    1.419577512226774E2    -3.601335008049043E1     7.019522113682103E1
 1.079000000000000E9    -3.419083936443894E1     1.252721876853469E1    -3.914433143050951E-1    1.401023025164974E2    -3.862811347629176E-1    1.401252879564298E2    -3.596743355511712E1     6.538845848264000E1
 1.080000000000000E9    -3.411275490983717E1     1.282408095125116E1    -3.926182198545757E-1    1.382670209537387E2    -3.846189243935453E-1    1.382970990325871E2    -3.557391214782062E1     6.099452941260830E1
 1.081000000000000E9    -3.382252404370376E1     1.247981622409064E1    -3.907272903617423E-1    1.363683670126299E2    -3.824574096698069E-1    1.364005585675722E2    -3.540472463309629E1     5.803213880664571E1
 1.082000000000000E9    -3.366460547133665E1     1.456530072973370E1    -3.960663520114299E-1    1.345256602488996E2    -3.866599820103084E-1    1.345279007187195E2    -3.472930545596461E1     5.246289764927329E1
 1.083000000000000E9    -3.343170837400521E1     1.354218955105075E1    -3.881791299981441E-1    1.326230947262044E2    -3.865581267721320E-1    1.326035646613733E2    -3.475649555111292E1     4.953105482625366E1
 1.084000000000000E9    -3.306596604021031E1     1.359102860894326E1    -3.904111726191845E-1    1.307592647322826E2    -3.789862330907213E-1    1.307957164366108E2    -3.420951098897199E1     4.408708379675021E1
 1.085000000000000E9    -3.284603784704443E1     1.466284866143135E1    -3.926768976077346E-1    1.288972523495756E2    -3.808915376776106E-1    1.289249470976643E2    -3.430118193225869E1     4.075674420454585E1
 1.086000000000000E9    -3.275561312092744E1     1.328066424110309E1    -3.943038648555745E-1    1.270060634818389E2    -3.840335663418845E-1    1.270380249679456E2    -3.358594205762906E1     3.710869771471291E1
 1.087000000000000E9    -3.242348638151523E1     1.378802157790490E1    -3.903543649820768E-1    1.251236858718647E2    -3.879298076012997E-1    1.251749050380332E2    -3.321370386066648E1     3.421962532482978E1
 1.088000000000000E9    -3.224660459270921E1     1.377257659744492E1    -3.953527073860575E-1    1.232680752399713E2    -3.833935331422000E-1    1.232710001648426E2    -3.315418756888364E1     3.055556672655200E1
 1.089000000000000E9    -3.204729994131549E1     1.445323290732058E1    -3.904323660290432E-1    1.214245048220624E2    -3.848937967172550E-1    1.214112180903332E2    -3.281011987584342E1     2.705425836762162E1
 1.090000000000000E9    -3.190148569053243E1     1.404484073162091E1    -3.975151883376942E-1    1.195428810471238E2    -3.915179037656156E-1    1.195421308307478E2    -3.225064636253836E1     2.232773835002936E1
 1.091000000000000E9    -3.180947532330870E1     1.219584626355619E1    -3.947730097651122E-1    1.176866267400473E2    -3.846430384110836E-1    1.176705382664316E2    -3.216958219543451E1     1.896272485303726E1
