#  HZ   S   DB   R     50.00 
! Rohde & Schwarz Vector Network Analyzer 
! Rohde-Schwarz,ZNB8-4Port,1311601044102961,2.82
! Created: UTC 3/4/2022, 3:58:19 PM
! freq[Hz]                db:S11                  ang:S11                 db:S21                  ang:S21                 db:S12                  ang:S12                 db:S22                  ang:S22
 1.000000000000000E9    -3.357102584042528E1    -7.732921796387640      -4.179510381290288E-1   -6.282205647426756E1    -4.029419301682931E-1   -6.284765126245134E1    -3.503483373773102E1     1.897959376319434E1
 1.001000000000000E9    -3.307225522063713E1    -6.444025058664304      -4.146270384604900E-1   -6.468260534827179E1    -4.070894277435172E-1   -6.468638650820778E1    -3.475047799288617E1     1.546256342968789E1
 1.002000000000000E9    -3.296987626165272E1    -5.736115781593947      -4.167155051538033E-1   -6.656353160100771E1    -4.046164881882409E-1   -6.651807728316472E1    -3.416207580072949E1     1.228066279187258E1
 1.003000000000000E9    -3.269214715680043E1    -5.901925802562163      -4.248473068482281E-1   -6.845976802418907E1    -4.075130733922384E-1   -6.841069039121793E1    -3.374290239906195E1     8.297894641157814
 1.004000000000000E9    -3.263290050808104E1    -7.506480986099322      -4.233051319987561E-1   -7.028785755498819E1    -4.102432617244614E-1   -7.029949550278731E1    -3.351476720699266E1     4.515457072437131
 1.005000000000000E9    -3.234360711447287E1    -6.280195401653520      -4.156239607201078E-1   -7.215149620922361E1    -4.073056582100638E-1   -7.214275779093698E1    -3.292829216954181E1     1.997463583173395
 1.006000000000000E9    -3.201794485938115E1    -6.129539682572585      -4.235831222399300E-1   -7.403187916963734E1    -4.022253609761984E-1   -7.396807085714218E1    -3.250119831748336E1    -1.193765655713741
 1.007000000000000E9    -3.193848156113425E1    -5.565378211928949      -4.172091592964846E-1   -7.588047333121351E1    -4.079186615447582E-1   -7.586712621188738E1    -3.238160763525695E1    -3.493860123997763
 1.008000000000000E9    -3.170939484123888E1    -5.241477245438905      -4.206934256411144E-1   -7.771715609498874E1    -4.087007751098810E-1   -7.776303615722092E1    -3.198269477375154E1    -4.641572952871496
 1.009000000000000E9    -3.146275243897424E1    -6.025476051435803      -4.245522519052025E-1   -7.958200164289107E1    -4.097642195119163E-1   -7.961899726971322E1    -3.183461085518221E1    -6.722895478981836
 1.010000000000000E9    -3.147626364890811E1    -7.179719085466432      -4.228393696667322E-1   -8.147441686120415E1    -4.151188882583567E-1   -8.143603874330731E1    -3.164885281793987E1    -1.043306030152955E1
 1.011000000000000E9    -3.111706299392163E1    -6.916817537145378      -4.296139175479735E-1   -8.327912655352267E1    -4.196037663250346E-1   -8.329632879403860E1    -3.120174663001655E1    -1.339787128141553E1
 1.012000000000000E9    -3.097914171283718E1    -7.330543556745648      -4.217643611680164E-1   -8.513415495984370E1    -4.110777727709846E-1   -8.516841825141701E1    -3.104861068174266E1    -1.597541412198212E1
 1.013000000000000E9    -3.088038393127313E1    -8.278920148777901      -4.251235179355606E-1   -8.704816283830591E1    -4.182076741642030E-1   -8.701741398221229E1    -3.085122203084261E1    -1.725333666274315E1
 1.014000000000000E9    -3.051002324136314E1    -9.879618442463727      -4.216963853117725E-1   -8.884979812312081E1    -4.147782094080665E-1   -8.890060427246965E1    -3.054480821022784E1    -1.960350481490162E1
 1.015000000000000E9    -3.051294822083879E1    -9.753083873685974      -4.302347977922644E-1   -9.071823659863559E1    -4.116625292635148E-1   -9.074070993545230E1    -3.042591238612418E1    -2.214956446296458E1
 1.016000000000000E9    -3.036479129896597E1    -1.039576574755773E1    -4.224874965103169E-1   -9.261464927184414E1    -4.177446481677288E-1   -9.262752371234295E1    -3.030361639802666E1    -2.470887602744599E1
 1.017000000000000E9    -3.017716762633560E1    -1.132673910292652E1    -4.221469626483800E-1   -9.444239428447088E1    -4.204683930140752E-1   -9.446507836985437E1    -3.000958167396863E1    -2.651870714646270E1
 1.018000000000000E9    -3.018124847026768E1    -1.242207080489756E1    -4.285025594047917E-1   -9.633195036211562E1    -4.156145627709060E-1   -9.631949377239835E1    -2.995694972510531E1    -2.851627311790319E1
 1.019000000000000E9    -3.001238011492680E1    -1.300857079375249E1    -4.300050583284624E-1   -9.820373919584921E1    -4.199521217638866E-1   -9.819026902642588E1    -2.981015745275140E1    -3.118800989109105E1
 1.020000000000000E9    -2.984730946514345E1    -1.463682555503390E1    -4.247364212656523E-1   -1.000500918569829E2    -4.180602339527139E-1   -1.000086430838725E2    -2.969738751830717E1    -3.319825856341122E1
 1.021000000000000E9    -2.979154569321584E1    -1.504215754323536E1    -4.261869850639778E-1   -1.019035328068391E2    -4.164649720356475E-1   -1.019228717589282E2    -2.968939595566270E1    -3.445643534811411E1
 1.022000000000000E9    -2.954585711819131E1    -1.538949313962215E1    -4.316549595527275E-1   -1.037766953811009E2    -4.219264216180872E-1   -1.037624901759589E2    -2.927641028331107E1    -3.758997274235972E1
 1.023000000000000E9    -2.961033642695315E1    -1.743773992634651E1    -4.328281947558677E-1   -1.056416524998677E2    -4.178757896890278E-1   -1.055957793572423E2    -2.939619869009132E1    -3.992873832998932E1
 1.024000000000000E9    -2.957685319156215E1    -1.762803228438342E1    -4.269161641754072E-1   -1.074864934081713E2    -4.188353018867752E-1   -1.074864185422599E2    -2.934536921226981E1    -4.187871037805331E1
 1.025000000000000E9    -2.946157625397195E1    -1.908817713951356E1    -4.267621136102991E-1   -1.093229393191993E2    -4.176712786766996E-1   -1.093452247701402E2    -2.934505650308786E1    -4.340556280790731E1
 1.026000000000000E9    -2.952375699960203E1    -2.029771412500161E1    -4.274764280146640E-1   -1.112052182406052E2    -4.188250971951730E-1   -1.111955489882875E2    -2.921423493119713E1    -4.573108448738685E1
 1.027000000000000E9    -2.932405786496520E1    -2.212617958483744E1    -4.212366697936549E-1   -1.130902400281481E2    -4.216407430776004E-1   -1.130993476856503E2    -2.916849042797807E1    -4.821033586286411E1
 1.028000000000000E9    -2.935413067507536E1    -2.174047951090096E1    -4.296015970159496E-1   -1.149282779074108E2    -4.165025839457265E-1   -1.149237563822748E2    -2.915255559376078E1    -5.024277474967140E1
 1.029000000000000E9    -2.929670429699508E1    -2.329169703844111E1    -4.245954018168124E-1   -1.167818472627066E2    -4.215377626763305E-1   -1.168128957464382E2    -2.902470994140643E1    -5.179566177476843E1
 1.030000000000000E9    -2.925638106647300E1    -2.491891926085101E1    -4.229795607268422E-1   -1.186394214507177E2    -4.188506982179619E-1   -1.186477587964622E2    -2.913574416123142E1    -5.498328783366559E1
 1.031000000000000E9    -2.936046137165100E1    -2.560438616108455E1    -4.344943781844159E-1   -1.205263308039108E2    -4.205619797909521E-1   -1.204932009029994E2    -2.915407583792456E1    -5.623578031883629E1
 1.032000000000000E9    -2.933851702541892E1    -2.587976329993875E1    -4.237461644675238E-1   -1.223869275647098E2    -4.224368675805653E-1   -1.223987896811145E2    -2.898686195651816E1    -5.801870330004662E1
 1.033000000000000E9    -2.929915843145979E1    -2.797394373647875E1    -4.303502229228666E-1   -1.242244983531261E2    -4.226430573518024E-1   -1.242104300047259E2    -2.912682970081720E1    -6.144686178443948E1
 1.034000000000000E9    -2.930716850203650E1    -2.814251232730598E1    -4.327293054444129E-1   -1.260799445140046E2    -4.209625232193321E-1   -1.260865614209060E2    -2.922868142022430E1    -6.378790671037220E1
 1.035000000000000E9    -2.948153034444196E1    -2.935452484627328E1    -4.302054876144307E-1   -1.279763283826966E2    -4.226206667713163E-1   -1.279277475280860E2    -2.915427800005201E1    -6.572818823842614E1
 1.036000000000000E9    -2.934490316406839E1    -3.111767386147402E1    -4.267422297180060E-1   -1.298029183340961E2    -4.221603901874438E-1   -1.298016493103823E2    -2.920294605114503E1    -6.749033550431534E1
 1.037000000000000E9    -2.938938608316729E1    -3.162809857241536E1    -4.316376549345674E-1   -1.316572591650959E2    -4.204549183445868E-1   -1.316623609671923E2    -2.929889355809581E1    -6.978534634283709E1
 1.038000000000000E9    -2.943663618238642E1    -3.285282556454424E1    -4.263474275894839E-1   -1.335317418564696E2    -4.159800456740569E-1   -1.335565756417392E2    -2.938829286466816E1    -7.199142281736235E1
 1.039000000000000E9    -2.939712905867278E1    -3.422734411521529E1    -4.293876471344657E-1   -1.353936633629238E2    -4.260917775124789E-1   -1.353928829430581E2    -2.923182945139736E1    -7.480959371669574E1
 1.040000000000000E9    -2.944645010724026E1    -3.479955081602053E1    -4.337794891016005E-1   -1.372599459677584E2    -4.187409827805696E-1   -1.372444461041098E2    -2.942090929526247E1    -7.726394082508300E1
 1.041000000000000E9    -2.954466227840959E1    -3.574812411186478E1    -4.272665085154138E-1   -1.391006664323779E2    -4.253270178703923E-1   -1.390954961930864E2    -2.952096694032484E1    -7.867242272305390E1
 1.042000000000000E9    -2.962826586519617E1    -3.684815214774608E1    -4.378882925460632E-1   -1.410503179261844E2    -4.261707988586092E-1   -1.409624127891417E2    -2.960372132724135E1    -8.185535890612341E1
 1.043000000000000E9    -2.972561663136102E1    -3.738867701930841E1    -4.278399506211111E-1   -1.428470802379522E2    -4.241010521426847E-1   -1.428570580130795E2    -2.966984935295704E1    -8.383774201252975E1
 1.044000000000000E9    -2.978762759624036E1    -3.790211937717315E1    -4.369080593232217E-1   -1.446805847260271E2    -4.212339067934081E-1   -1.447110150329157E2    -2.987637808115469E1    -8.705335075829196E1
 1.045000000000000E9    -2.985198616456437E1    -4.016695150763646E1    -4.327957423533900E-1   -1.465764203409865E2    -4.290154896036807E-1   -1.465809411345483E2    -2.998159349021740E1    -8.915066917236608E1
 1.046000000000000E9    -2.994335114216292E1    -4.022462677806853E1    -4.352785745005799E-1   -1.484199037914756E2    -4.240786149039169E-1   -1.483850977897460E2    -2.996204071255388E1    -9.090005959868053E1
 1.047000000000000E9    -2.996219358315253E1    -4.111027170366288E1    -4.319850005698050E-1   -1.502928984992092E2    -4.199492199744315E-1   -1.502799775370444E2    -3.006918640256552E1    -9.358646435363684E1
 1.048000000000000E9    -3.007151869748606E1    -4.375610578326711E1    -4.366134280151770E-1   -1.521514167228608E2    -4.265314565313942E-1   -1.521865157669052E2    -3.017787728881152E1    -9.603853706108531E1
 1.049000000000000E9    -2.993969333447640E1    -4.319759679386288E1    -4.298417510836095E-1   -1.539999614430803E2    -4.252016421433003E-1   -1.540274477549658E2    -3.009245288690674E1    -9.857320500267980E1
 1.050000000000000E9    -3.014903438157080E1    -4.266212339860763E1    -4.324665204047861E-1   -1.558904332195639E2    -4.214280694586931E-1   -1.558681654971867E2    -3.041054992711143E1    -1.017629258732241E2
 1.051000000000000E9    -3.016410789281599E1    -4.418998770696957E1    -4.326210514757287E-1   -1.577193284558998E2    -4.211927240327438E-1   -1.577138513736693E2    -3.039913946766044E1    -1.033652732823106E2
 1.052000000000000E9    -3.022369031099945E1    -4.531845935155700E1    -4.340660117405309E-1   -1.595816321742266E2    -4.188721390759680E-1   -1.595726511043552E2    -3.067602872422244E1    -1.063359588816227E2
 1.053000000000000E9    -3.035905857439154E1    -4.569437059177700E1    -4.287635111609107E-1   -1.614159825212639E2    -4.223041862400335E-1   -1.614594456773293E2    -3.081221205500253E1    -1.079125376887425E2
 1.054000000000000E9    -3.051255906913113E1    -4.700292438722801E1    -4.312586093125873E-1   -1.632875985064483E2    -4.232092654444791E-1   -1.633015221299765E2    -3.083500283201536E1    -1.101495480657539E2
 1.055000000000000E9    -3.062988976917561E1    -4.789291635580953E1    -4.320841418230593E-1   -1.651835969114354E2    -4.250021692569505E-1   -1.651879402812496E2    -3.115534224918895E1    -1.143077141896542E2
 1.056000000000000E9    -3.066782937835628E1    -4.776422042863814E1    -4.298919201278612E-1   -1.669996489472562E2    -4.225470832594486E-1   -1.669977770493491E2    -3.120446133381948E1    -1.177674904562748E2
 1.057000000000000E9    -3.070050409258780E1    -4.913899405907120E1    -4.328247304846660E-1   -1.689050627211907E2    -4.264085677017860E-1   -1.688746790920921E2    -3.139053901922434E1    -1.191979904090102E2
 1.058000000000000E9    -3.074859333996939E1    -4.926021495918789E1    -4.272083532302015E-1   -1.707465887614969E2    -4.243829190197837E-1   -1.707399178792350E2    -3.155777005056386E1    -1.214358294136913E2
 1.059000000000000E9    -3.084497160423307E1    -5.166637626675252E1    -4.358460871440509E-1   -1.726006213314044E2    -4.243240058330376E-1   -1.726054681870867E2    -3.168288176664866E1    -1.239514499734686E2
 1.060000000000000E9    -3.097814264412742E1    -5.119785687454142E1    -4.321570846598914E-1   -1.744627756650825E2    -4.266469798231423E-1   -1.744285840965610E2    -3.160227264509020E1    -1.271294705174033E2
 1.061000000000000E9    -3.105089302837157E1    -5.166051781859969E1    -4.319284185807588E-1   -1.763567602662322E2    -4.246957182701368E-1   -1.763338197615978E2    -3.216125849027578E1    -1.293340261650202E2
 1.062000000000000E9    -3.118551946730311E1    -5.268856949215233E1    -4.340290734070573E-1   -1.781663434684367E2    -4.313573666102331E-1   -1.781704483308336E2    -3.215698831365155E1    -1.322327704857964E2
 1.063000000000000E9    -3.127577155153848E1    -5.253806215967419E1    -4.315548866760651E-1    1.799598975560768E2    -4.247252618329409E-1    1.799394165804524E2    -3.230972193520213E1    -1.337878914334632E2
 1.064000000000000E9    -3.166481171072558E1    -5.338773282971680E1    -4.309309521558535E-1    1.781228601276413E2    -4.251922130856587E-1    1.781199932161284E2    -3.255594493286215E1    -1.357249614012824E2
 1.065000000000000E9    -3.150638130744737E1    -5.439944281679086E1    -4.386145620882284E-1    1.762471881088775E2    -4.247301787990168E-1    1.762255294140464E2    -3.280178210611209E1    -1.394127213162065E2
 1.066000000000000E9    -3.147106957248308E1    -5.365372571782747E1    -4.342188912417034E-1    1.743797619313001E2    -4.309641458458831E-1    1.743446405949311E2    -3.278975542902779E1    -1.424189283977881E2
 1.067000000000000E9    -3.177764545764738E1    -5.484293981854007E1    -4.312727402434869E-1    1.725140297536365E2    -4.262158671445777E-1    1.725056663619006E2    -3.320078340332281E1    -1.456454384084442E2
 1.068000000000000E9    -3.191671732326896E1    -5.618504283560868E1    -4.396739561385467E-1    1.705957318652033E2    -4.214526878835226E-1    1.706685565422427E2    -3.340658736927779E1    -1.480177920376443E2
 1.069000000000000E9    -3.181920945658725E1    -5.593112046280974E1    -4.337967738927914E-1    1.687908972654604E2    -4.260461884459886E-1    1.687822405793457E2    -3.358298386086364E1    -1.513546543808294E2
 1.070000000000000E9    -3.223394797620407E1    -5.596027619900369E1    -4.336491486641214E-1    1.669158780025643E2    -4.316360677453343E-1    1.669430249214570E2    -3.380517791355783E1    -1.533038898452969E2
 1.071000000000000E9    -3.215279505880115E1    -5.635099938974010E1    -4.375158881332842E-1    1.650777642015122E2    -4.258182505435941E-1    1.650292419293575E2    -3.410447706500926E1    -1.553787277975224E2
 1.072000000000000E9    -3.231951348896531E1    -5.800705738605647E1    -4.351637473458658E-1    1.632242922401110E2    -4.227111807246164E-1    1.631851119510213E2    -3.472377516455660E1    -1.602362810077407E2
 1.073000000000000E9    -3.244201955819549E1    -5.752028938747424E1    -4.303495098892525E-1    1.613669221051902E2    -4.236093632718111E-1    1.613486806881701E2    -3.465268520146556E1    -1.611731230009702E2
 1.074000000000000E9    -3.274173142755477E1    -5.889769317568683E1    -4.380065128362379E-1    1.594536454471853E2    -4.248551287356694E-1    1.594621840617107E2    -3.510986946299774E1    -1.655701897214675E2
 1.075000000000000E9    -3.284030192089736E1    -5.883888337742555E1    -4.334899679096943E-1    1.576013639603433E2    -4.269121205135531E-1    1.575967174344181E2    -3.561420299859442E1    -1.681619741908717E2
 1.076000000000000E9    -3.298241941050644E1    -5.788727919021284E1    -4.290989866975025E-1    1.557510537225006E2    -4.293843573642711E-1    1.557322057815255E2    -3.572343054739419E1    -1.695028052211242E2
 1.077000000000000E9    -3.316777176374229E1    -5.726046916119730E1    -4.381667308818089E-1    1.539001691394938E2    -4.256375505951746E-1    1.539042935308059E2    -3.586003237120914E1    -1.725786956826994E2
 1.078000000000000E9    -3.333921767670138E1    -5.947277955766197E1    -4.308610619302508E-1    1.520371368207659E2    -4.217351254018041E-1    1.519964396245483E2    -3.655722967069738E1    -1.798278690513443E2
 1.079000000000000E9    -3.375922153801961E1    -5.780272342440300E1    -4.402467334004981E-1    1.501593377803926E2    -4.290118559624870E-1    1.502199056967974E2    -3.721985101272643E1     1.797044144433775E2
 1.080000000000000E9    -3.375111640294230E1    -5.813622139045206E1    -4.395779267113280E-1    1.483072472123093E2    -4.268388102257760E-1    1.482922633539170E2    -3.774130026856405E1     1.742575293696943E2
 1.081000000000000E9    -3.390837630289008E1    -5.704781734421081E1    -4.381873068669671E-1    1.464507924754670E2    -4.334680412584479E-1    1.464511746042387E2    -3.817723340145851E1     1.727266821386297E2
 1.082000000000000E9    -3.433719436109313E1    -5.734718108588616E1    -4.357048789356602E-1    1.445761788833841E2    -4.334236217632321E-1    1.446076201850650E2    -3.876775459631596E1     1.640586224929500E2
 1.083000000000000E9    -3.435103715520894E1    -5.801508960705399E1    -4.300384321483696E-1    1.426823683287863E2    -4.260248660811874E-1    1.427279936375676E2    -3.907324156688677E1     1.641865459034222E2
 1.084000000000000E9    -3.465884001939556E1    -5.594136370766333E1    -4.434284256354815E-1    1.408693929130874E2    -4.245880259411156E-1    1.408947417925982E2    -4.005945541803136E1     1.574494762529942E2
 1.085000000000000E9    -3.492670188659906E1    -5.432270696527734E1    -4.360266945595721E-1    1.390147478800702E2    -4.312899383751520E-1    1.390143432325741E2    -4.027641304738274E1     1.568447420734267E2
 1.086000000000000E9    -3.471945368617325E1    -5.555268604963369E1    -4.379328685509999E-1    1.371131830335617E2    -4.253405668804633E-1    1.371521894578104E2    -4.142384578465435E1     1.469234053858836E2
 1.087000000000000E9    -3.492767942337472E1    -5.300913319353990E1    -4.335555514045414E-1    1.352813687935363E2    -4.339103556856608E-1    1.352799224504251E2    -4.205483000345510E1     1.408326555300122E2
 1.088000000000000E9    -3.526709603869369E1    -5.088118419269713E1    -4.341793463593612E-1    1.334304215489721E2    -4.268776054995596E-1    1.334362670339022E2    -4.228894075642724E1     1.358895967577311E2
 1.089000000000000E9    -3.560424814133013E1    -5.175444049867479E1    -4.363977759517201E-1    1.315643233069379E2    -4.293640832209445E-1    1.315500699334713E2    -4.341331444917082E1     1.224588634136040E2
 1.090000000000000E9    -3.551604132500250E1    -4.697459975773665E1    -4.426637479670271E-1    1.296953945436165E2    -4.341377058761228E-1    1.296902783078317E2    -4.402057538678121E1     1.069906784995431E2
 1.091000000000000E9    -3.580027218679385E1    -4.844543831557535E1    -4.383918491498712E-1    1.278183375382914E2    -4.271259051927874E-1    1.278536133308619E2    -4.403303727027789E1     9.824800662313942E1
