#  HZ   S   DB   R     50.00 
! Rohde & Schwarz Vector Network Analyzer 
! Rohde-Schwarz,ZNB8-4Port,1311601044102961,2.82
! Created: UTC 3/4/2022, 3:46:55 PM
! freq[Hz]                db:S11                  ang:S11                 db:S21                  ang:S21                 db:S12                  ang:S12                 db:S22                  ang:S22
 1.000000000000000E9    -4.593538350134224E-2    2.182721272102369E1    -8.492805393872702E1    -1.201440472623495E2    -9.176532521151793E1     1.794971972185741E2    -5.408401651298882E-2    2.512259309463553E1
 1.001000000000000E9    -5.516822638525915E-2    2.168142559067372E1    -8.481872342865245E1     2.931037647614365E1    -9.018586717099527E1    -5.306968445510972E1    -5.468788299249842E-2    2.496286326125206E1
 1.002000000000000E9    -4.092919640000545E-2    2.154927358652880E1    -8.382545064914432E1    -8.103835784683010      -8.741616436105369E1    -1.333066014020866E2    -5.358766308258085E-2    2.481681541049803E1
 1.003000000000000E9    -4.671903244872416E-2    2.146998090232110E1    -8.681774123250159E1     1.292596824382270E2    -8.710158298914359E1     7.123631324213547E1    -4.943290281992398E-2    2.464792544603352E1
 1.004000000000000E9    -4.815998532153487E-2    2.135663706755240E1    -9.292770968291015E1    -8.495604920326804E1    -8.588424760268168E1    -1.463962028578288E2    -5.322502793612838E-2    2.457133621887138E1
 1.005000000000000E9    -4.515221200094237E-2    2.123609872986001E1    -8.211177523283999E1     1.081506206775241E2    -8.128004079774590E1     3.523069585834116E1    -4.767683966277098E-2    2.441739579097520E1
 1.006000000000000E9    -4.519559198785585E-2    2.110242774455780E1    -8.131011704726996E1    -8.924911835051912      -8.696656891345495E1    -4.653520821498530E1    -5.051976897204440E-2    2.429954297270604E1
 1.007000000000000E9    -4.382622046068746E-2    2.097834229662514E1    -7.989771084796550E1    -6.410262160539213E1    -9.233983113860724E1     2.852853008052631E1    -5.083687932862037E-2    2.416207218855826E1
 1.008000000000000E9    -4.691321882949077E-2    2.089401439217296E1    -8.678827623485203E1     3.540109655212092E1    -9.148940872539392E1    -4.816029010944094E1    -5.187731681034466E-2    2.404822495081366E1
 1.009000000000000E9    -4.711381906641819E-2    2.074268613515937E1    -8.925984665427001E1     1.710517951247280E2    -8.679737708871564E1    -1.666241887259732E2    -4.755719643742029E-2    2.392704767064168E1
 1.010000000000000E9    -4.627428773493121E-2    2.059896066289328E1    -8.522833717981143E1    -1.013000855100609E2    -9.389237315129736E1     8.971460480851162E1    -5.636569672926126E-2    2.381815592084289E1
 1.011000000000000E9    -4.465857646455902E-2    2.049809604292101E1    -8.843004459447434E1    -4.537824226677484E1    -8.740836753960176E1     5.760673520752401E1    -5.726211048042910E-2    2.366088771489213E1
 1.012000000000000E9    -4.314878997686143E-2    2.039191839552428E1    -8.655676574341499E1     7.478747676139042E1    -8.433677020978031E1     1.712819349176526E2    -5.276207220384716E-2    2.353956012521187E1
 1.013000000000000E9    -4.665503627803676E-2    2.024119455228960E1    -8.284814390048256E1     1.119169934996769E1    -9.184262926033475E1    -7.941865933370075E1    -5.269847765738891E-2    2.342150578937515E1
 1.014000000000000E9    -4.491327617269789E-2    2.013826293211494E1    -9.178102416258396E1     2.855340573586911E1    -8.625034550336659E1    -7.786832073259589E1    -5.331596170899897E-2    2.327653254791114E1
 1.015000000000000E9    -4.568929683801468E-2    2.001412456864183E1    -8.655846703491521E1    -6.212222467067944E-1   -8.736507140838954E1    -1.036069215046554E2    -5.052815491372213E-2    2.318548890103294E1
 1.016000000000000E9    -4.430143449873859E-2    1.988499171258502E1    -1.119230586321619E2     6.568709247402373E1    -8.422509207125628E1    -9.472238067444472E1    -5.722224063352138E-2    2.301958104790813E1
 1.017000000000000E9    -4.748711072095753E-2    1.978670473813944E1    -9.874908209820050E1    -3.952701656181731E1    -8.481458983841651E1     9.073298005744960E1    -5.360434818742275E-2    2.296273196244288E1
 1.018000000000000E9    -4.081397357898620E-2    1.966816315573614E1    -8.314971548726385E1    -7.706545004539322E1    -8.909404919484658E1     1.304607049550992E2    -6.110574449029792E-2    2.280978036289297E1
 1.019000000000000E9    -4.828130841660212E-2    1.952035734964600E1    -8.231983249541621E1    -9.782474536930762E1    -8.912711913561773E1     1.402714350967227E2    -5.119816561056183E-2    2.272543813377995E1
 1.020000000000000E9    -4.126748692483161E-2    1.943420986488693E1    -9.051832106912556E1    -1.722416718248959E2    -8.708875006387252E1    -6.906655828185450E1    -5.697329347602799E-2    2.258921698585505E1
 1.021000000000000E9    -4.115035496768244E-2    1.929061287279108E1    -8.033796607859355E1    -6.158096033911529E1    -8.453223023331665E1    -8.467398709141051E1    -5.226741086472518E-2    2.245837344657490E1
 1.022000000000000E9    -5.121299824697143E-2    1.912206296879236E1    -7.790929590374236E1    -1.527269130651536E2    -8.959109997005811E1    -1.036773378830337E2    -5.484373960865728E-2    2.233291865520613E1
 1.023000000000000E9    -4.770239401952404E-2    1.901092674128296E1    -8.443480312840251E1    -1.462183907723215E2    -8.019212049322469E1    -7.229960279415272E1    -4.901325449149978E-2    2.222632158649632E1
 1.024000000000000E9    -4.444202722736663E-2    1.891805839397880E1    -9.467039010105810E1    -7.714134179047258E1    -8.745600339335125E1     1.514752509864028E2    -5.134907183145235E-2    2.213735844358752E1
 1.025000000000000E9    -4.476888552930056E-2    1.876192295786903E1    -8.457772715301930E1     1.003412304290898E2    -8.693269785342088E1     5.304228080374733E1    -5.516647028059200E-2    2.200913227356765E1
 1.026000000000000E9    -4.689379644034748E-2    1.868733885255823E1    -8.886710763804979E1    -6.441344981133094E1    -8.172892761894671E1    -1.610142751944186E2    -5.083541734765706E-2    2.186291520744021E1
 1.027000000000000E9    -4.644569659889908E-2    1.848131424358605E1    -8.902803473853032E1     3.130183448858839E1    -8.206254056818003E1     1.674668869471034E1    -4.983284529662655E-2    2.177878894614021E1
 1.028000000000000E9    -3.866859258978238E-2    1.839969931329189E1    -8.430059293422586E1    -3.022614142347457E1    -8.856419038026614E1    -1.474975358723588E2    -6.186545545645834E-2    2.162418647688462E1
 1.029000000000000E9    -4.731242247221414E-2    1.823924484119267E1    -8.656183551118707E1    -2.203942082352411E1    -9.661114935923749E1    -9.393996429614322E1    -5.419604191046912E-2    2.151379241669686E1
 1.030000000000000E9    -4.376235953323872E-2    1.814221651859254E1    -8.793893313537949E1    -1.446389052967214E2    -9.348902287105940E1     1.716849782484304E2    -5.994871352628799E-2    2.136802504008458E1
 1.031000000000000E9    -4.412454777959519E-2    1.802610702648569E1    -8.376177385264253E1     1.027431819414947E2    -8.900163212094262E1     5.167018171625877E1    -5.896585954110951E-2    2.133593102924143E1
 1.032000000000000E9    -5.195056365385122E-2    1.784681956654413E1    -8.364038128711292E1     6.486596292139294E1    -9.017805442757214E1    -8.013584811093561E1    -5.367071264299677E-2    2.114416628087965E1
 1.033000000000000E9    -4.694407348582173E-2    1.780038751269172E1    -8.947580047127552E1    -1.126558044867737E2    -8.499750223638694E1    -8.203402583276183      -5.678828555457027E-2    2.107532783960457E1
 1.034000000000000E9    -4.278959699735994E-2    1.765241820815340E1    -7.914882680120097E1     9.971681131325556E1    -8.717854860381391E1     1.166468173782637E2    -5.056644265215465E-2    2.099909556927986E1
 1.035000000000000E9    -5.441838717200612E-2    1.751437262050341E1    -8.380058926950116E1    -1.456544080121727E2    -8.779215482226536E1    -4.952521837297031E1    -5.283759935605153E-2    2.086287711132320E1
 1.036000000000000E9    -4.508942278624328E-2    1.741698586702231E1    -8.477445127979931E1    -1.768258264772451E2    -8.466852443496825E1    -1.258585868881909E2    -5.330304332443751E-2    2.072466873261834E1
 1.037000000000000E9    -4.769720970405684E-2    1.720422747642619E1    -1.104323783145456E2    -1.484008897830007E2    -1.039051922428951E2     1.039569534365445E2    -4.981964339356376E-2    2.064255047608034E1
 1.038000000000000E9    -4.196627419451705E-2    1.710625348473820E1    -8.487433180763188E1     2.488362659704610E1    -8.089575816652614E1     9.499944119544557E1    -5.448229070102646E-2    2.049190954079018E1
 1.039000000000000E9    -4.152030433246207E-2    1.695053590264372E1    -9.023575626144853E1     1.630999893920379E2    -9.237794712705406E1     2.206750484102301E1    -5.025540596832706E-2    2.038622750203692E1
 1.040000000000000E9    -4.223388110583857E-2    1.688375403086629E1    -8.114011243942711E1     1.771334293046372E2    -8.203024669944463E1    -1.574672314385468E2    -5.080120983415305E-2    2.027919355044042E1
 1.041000000000000E9    -4.137291163717159E-2    1.675044367720251E1    -8.719320855711401E1     1.081584329843678E2    -8.964576496461331E1    -6.884037666268691E1    -5.117733493142777E-2    2.015592283128720E1
 1.042000000000000E9    -4.835991752089733E-2    1.660685551191149E1    -9.102157889443454E1    -9.076094070069337E1    -8.524765011472599E1    -1.464182242399492E2    -5.540542236536444E-2    2.003511230072169E1
 1.043000000000000E9    -4.422166637694818E-2    1.642465504010701E1    -8.621572946373379E1     2.451451751980742E1    -8.984316285049360E1     1.744935364377557E2    -5.063854553850605E-2    1.992657514353348E1
 1.044000000000000E9    -4.558723340046391E-2    1.635076550849312E1    -8.761224751074913E1     2.221317550630693E1    -1.327837019459514E2     5.903882116714109E1    -5.168959087794786E-2    1.982955546907257E1
 1.045000000000000E9    -4.466030936156043E-2    1.622199489968289E1    -8.942293519289925E1     1.524805638478257E2    -8.693841332393696E1    -4.773261172852078E1    -6.021274539573572E-2    1.967968451108826E1
 1.046000000000000E9    -3.591338283171205E-2    1.611348518716893E1    -8.917035280356183E1    -6.978976188724359E1    -8.380220738550187E1     1.628759397212656E2    -5.498746279749617E-2    1.958634770523792E1
 1.047000000000000E9    -4.178908336750490E-2    1.596126690112237E1    -9.660112576958275E1     7.685100166644463E1    -8.164911609125211E1     8.105540014025843      -5.141139014491294E-2    1.946565650726997E1
 1.048000000000000E9    -4.264922030220866E-2    1.578495436861580E1    -8.393855341011511E1    -4.222468232325079E1    -9.262599676581998E1    -1.646969303260069E2    -5.131325232993778E-2    1.933495219844284E1
 1.049000000000000E9    -4.500636441758278E-2    1.568791577540488E1    -8.484242424932113E1    -1.581757480015635E2    -9.503163477259639E1    -7.688876497169011E1    -5.159138410298887E-2    1.927076350696099E1
 1.050000000000000E9    -4.001931427376024E-2    1.552907064247331E1    -1.064893726254661E2     1.050421695626742E2    -9.121413929854069E1     1.286759428158829E2    -5.263312184396907E-2    1.913370605748412E1
 1.051000000000000E9    -4.663711914359138E-2    1.539856936621054E1    -8.690768685021148E1    -1.744126440204126E2    -8.003909437244181E1     1.319523425271557E2    -4.858613642281812E-2    1.900632766593950E1
 1.052000000000000E9    -3.699166104522060E-2    1.528673176693995E1    -8.726574798483163E1     1.698758648460594E2    -8.878569669851964E1    -1.727437742389311E2    -5.167054820029878E-2    1.889231796954445E1
 1.053000000000000E9    -3.809521027578378E-2    1.517071962272572E1    -8.370795837101099E1    -4.283078972477727      -8.593854106355235E1     1.014687894327263E2    -5.168551262316785E-2    1.878362083043868E1
 1.054000000000000E9    -3.639854781766556E-2    1.503254854162888E1    -8.740838320745309E1    -8.811764245696831E1    -9.301055339542972E1    -1.645157452229207E2    -5.599830836895386E-2    1.863632491763692E1
 1.055000000000000E9    -4.767323635995194E-2    1.489905415734699E1    -8.439124860393747E1    -8.183170644464597E1    -8.411814115787117E1     2.376413129038496E1    -5.178932291261341E-2    1.850738653716488E1
 1.056000000000000E9    -4.117473364174308E-2    1.475467504163911E1    -8.585135454963135E1     1.034851639331499E2    -8.077142822202562E1    -9.109553015413103E1    -5.426089662813328E-2    1.840305025942589E1
 1.057000000000000E9    -4.630520884658990E-2    1.462048965164101E1    -8.701842476346008E1     1.790416443343137E2    -8.308699809175649E1     8.651653801394504E1    -5.181660213880127E-2    1.826339908679733E1
 1.058000000000000E9    -3.987401686967624E-2    1.453721000251171E1    -7.989810289500375E1     1.755381943416030E1    -9.399918562168394E1     1.644000499152826E2    -4.678162065500742E-2    1.816300813948325E1
 1.059000000000000E9    -4.743899648457382E-2    1.436299785896393E1    -8.642896992381539E1    -1.202245305838157E2    -9.155576636324285E1     1.095214342052082E2    -5.184011352878378E-2    1.804031630205317E1
 1.060000000000000E9    -4.634676705812107E-2    1.425956803002217E1    -8.022597852500513E1     3.664713528529466E1    -8.131560802314361E1    -5.915911792100584      -5.529309326672056E-2    1.789526138378061E1
 1.061000000000000E9    -3.956095222937013E-2    1.413779087677597E1    -9.862106776096772E1     1.458423300073873E2    -8.000019160643383E1    -4.916590914692277E1    -4.753557859861095E-2    1.780081132866008E1
 1.062000000000000E9    -4.444434820357169E-2    1.398514731073502E1    -8.613599494908770E1     5.057343109856607E1    -8.464596502252051E1     3.636285119308796E1    -5.493400182338926E-2    1.767025474378727E1
 1.063000000000000E9    -4.115373861509690E-2    1.381990888584891E1    -8.860269731492704E1    -1.134431946543963E1    -9.237394978026305E1     1.329148058721246E2    -4.884145004295964E-2    1.758400423347047E1
 1.064000000000000E9    -3.874507068345989E-2    1.372603561148523E1    -8.248966170077233E1     5.737173615097795E1    -9.385459876837933E1    -9.510629719910938E1    -5.245656467937804E-2    1.745730424103637E1
 1.065000000000000E9    -3.976395054895291E-2    1.358226822176681E1    -8.380886555760392E1     2.713224425281951E1    -8.261413984704477E1    -8.582225804407366E1    -5.667048650149117E-2    1.733162685424965E1
 1.066000000000000E9    -4.418377505448175E-2    1.339845491171597E1    -8.258947804881956E1    -1.100009237639948E2    -8.559566464151665E1     1.614078395106529E1    -5.275607750076959E-2    1.719657090066720E1
 1.067000000000000E9    -4.812761563636089E-2    1.329535606535108E1    -8.917897467597851E1    -1.624482578700892E2    -8.396407595304616E1     1.530004256185933E2    -5.590009067156217E-2    1.708686945018751E1
 1.068000000000000E9    -4.892270721459809E-2    1.318874369515768E1    -8.593825824646254E1    -2.030221012446676E1    -9.096453584151061E1    -1.488727560605855E2    -5.073151033581215E-2    1.693773212809406E1
 1.069000000000000E9    -4.513783548908770E-2    1.301683722073704E1    -9.291914443749023E1    -6.251466008912334E1    -7.992875032784541E1    -9.046156714042054E1    -4.257294820327361E-2    1.680406690523300E1
 1.070000000000000E9    -4.475817014158924E-2    1.290713842195722E1    -9.244907568906042E1     1.622775748130222E2    -8.120107545685052E1     1.703027166644935E2    -5.049092039982780E-2    1.665716732940605E1
 1.071000000000000E9    -4.228316627718241E-2    1.277787618121956E1    -7.646764543419441E1    -1.733592074494376E2    -8.921353948518319E1    -1.515905344364103E2    -5.428226663966816E-2    1.651006134475349E1
 1.072000000000000E9    -4.136717242634040E-2    1.270764207622576E1    -9.322694180423025E1     1.043163880803760E2    -8.328315241884729E1    -1.625971788789034E2    -4.875808749583762E-2    1.638765189330169E1
 1.073000000000000E9    -3.785969547609681E-2    1.253708995149230E1    -1.014281086705337E2     6.047506611099293E1    -8.991206080879813E1    -4.382035488761493E1    -4.176974947125337E-2    1.623796535264243E1
 1.074000000000000E9    -4.280590789593337E-2    1.243565833687046E1    -9.575453811701294E1    -1.304152148372875E2    -8.497062338443976E1     1.441059153473730E2    -4.787771142645745E-2    1.609141856053764E1
 1.075000000000000E9    -4.142908544615363E-2    1.225197361056761E1    -8.560673691027240E1    -1.409811188204852E1    -8.760533601024562E1    -1.059125038279793E2    -4.870588521421268E-2    1.603463680035629E1
 1.076000000000000E9    -4.693694008318431E-2    1.211181805409621E1    -9.701399937756234E1    -1.594537932600808E2    -8.648265580388724E1     5.295256031860541E1    -5.214145116458072E-2    1.589717943660415E1
 1.077000000000000E9    -4.011275385921480E-2    1.202106298752422E1    -7.820496687791804E1    -1.707341960472934E2    -8.343814452545020E1    -4.264123283785385E1    -4.995754037855479E-2    1.575035625188703E1
 1.078000000000000E9    -4.019255538449794E-2    1.193911832942184E1    -1.115214249607976E2     1.479468100504101E1    -8.833375425341961E1     7.398502952668510E1    -5.527792372512809E-2    1.557931403567530E1
 1.079000000000000E9    -4.148556057316662E-2    1.176772174761741E1    -8.406551287078241E1    -1.576892699648049E2    -8.725701379959388E1     8.950445379501284E1    -4.828168178171063E-2    1.547145255137778E1
 1.080000000000000E9    -4.042210771006086E-2    1.162104613919265E1    -9.372203477797333E1    -1.377949046846008E2    -8.202528001355131E1     1.713168547096218E2    -6.233518545451533E-2    1.530776321016932E1
 1.081000000000000E9    -3.999929148272301E-2    1.144741198634848E1    -8.576910903877365E1     1.687775184761049E2    -8.766924890083993E1     1.563343698487441E2    -5.021796499521072E-2    1.520675965699427E1
 1.082000000000000E9    -5.064571441675652E-2    1.135449786218212E1    -8.747822949421533E1     1.557763395598658E2    -8.083647241706210E1    -1.296618592757821E2    -5.302564743930409E-2    1.506239439361337E1
 1.083000000000000E9    -3.948094752491206E-2    1.121759029265115E1    -8.490803039385210E1     2.707940281009200E1    -8.240425377270739E1     1.673451010831741E2    -5.836772202950109E-2    1.491609291094429E1
 1.084000000000000E9    -3.691146028363537E-2    1.113042029466811E1    -8.357779263240091E1    -7.682005094397724E1    -8.909693947250682E1     1.677651561608503E1    -4.924046330927613E-2    1.476315925287368E1
 1.085000000000000E9    -4.104775028615637E-2    1.096655312255635E1    -8.376343513814470E1     8.878765832979596E1    -8.875996351653414E1     7.921375051158636E1    -5.779492707035273E-2    1.465144523746233E1
 1.086000000000000E9    -4.851996137436921E-2    1.086634507691415E1    -7.677987694648675E1    -1.528168889913315E1    -8.334277078978609E1    -7.283765748569506E1    -4.836290424813098E-2    1.451306051891935E1
 1.087000000000000E9    -3.908334552451070E-2    1.070654909212609E1    -8.417331373078604E1    -5.978942611320883E1    -8.772479655382898E1    -3.284930083278137E1    -4.976316748361163E-2    1.438044535579603E1
 1.088000000000000E9    -3.300642633603400E-2    1.058518900523580E1    -9.251611302185368E1    -8.772929278716813      -8.983903078325589E1     1.625572885668177E1    -4.738216321780730E-2    1.416813524151699E1
 1.089000000000000E9    -4.412484329816326E-2    1.043353093808942E1    -8.664613270640962E1    -1.062612300358247E2    -8.937434387697495E1    -1.391161923822795E2    -4.536039247621939E-2    1.407976365293858E1
 1.090000000000000E9    -4.006925836814622E-2    1.030075346275914E1    -1.009963791828307E2    -1.384127524017024E2    -8.656785597432973E1     2.856259257127428E1    -4.828418410052568E-2    1.399382634702587E1
 1.091000000000000E9    -4.054379449325166E-2    1.019128183913432E1    -9.068226553343430E1    -1.497710054993248E2    -8.578399546989139E1     1.113794930854967E2    -4.958073668992376E-2    1.378606929516747E1
