#  HZ   S   DB   R     50.00 
! Rohde & Schwarz Vector Network Analyzer 
! Rohde-Schwarz,ZNB8-4Port,1311601044102961,2.82
! Created: UTC 3/4/2022, 3:56:00 PM
! freq[Hz]                db:S11                  ang:S11                 db:S21                  ang:S21                 db:S12                  ang:S12                 db:S22                  ang:S22
 1.000000000000000E9    -4.169638823621778E1     6.892769054116513E1    -4.288257999243550E-2   -3.514035606877147E1    -3.163220609835948E-2   -3.510521373657193E1    -4.159087968107716E1     3.972306102538428E1
 1.001000000000000E9    -4.129912890965117E1     6.997996099590716E1    -3.978532401781024E-2   -3.515312484639846E1    -3.576494225449196E-2   -3.514478348806883E1    -4.174168026157687E1     3.500086231308755E1
 1.002000000000000E9    -4.131464181398665E1     7.265931268350474E1    -4.616287183273501E-2   -3.520090867536064E1    -3.739426187979379E-2   -3.519543726438052E1    -4.179452040313619E1     3.526353200947564E1
 1.003000000000000E9    -4.145102056790010E1     7.331852170772297E1    -4.753655387171414E-2   -3.521596013673887E1    -3.474368777407632E-2   -3.525489321493433E1    -4.144080642738630E1     3.451395686190299E1
 1.004000000000000E9    -4.111562682924317E1     6.919340235633104E1    -4.635309740546139E-2   -3.521419042519428E1    -3.348341507640935E-2   -3.524972973237400E1    -4.128924922220266E1     3.424873723613795E1
 1.005000000000000E9    -4.120603554530865E1     7.160476905527658E1    -4.546868641758965E-2   -3.525565088725175E1    -3.234148592569214E-2   -3.528313135545178E1    -4.133690256490088E1     3.540340263704002E1
 1.006000000000000E9    -4.097466970897074E1     7.060866185802799E1    -4.143212625709893E-2   -3.534227278057749E1    -3.432136059951672E-2   -3.532488100532421E1    -4.107887391858453E1     3.526026594519713E1
 1.007000000000000E9    -4.080122234035140E1     7.237094418408032E1    -4.648570486484056E-2   -3.536007466869864E1    -3.773302789861973E-2   -3.534680191935287E1    -4.125223429000709E1     3.316249588778856E1
 1.008000000000000E9    -4.041918214340648E1     7.143714843232006E1    -3.946543069895760E-2   -3.539659922940908E1    -3.894907256465202E-2   -3.539827127015580E1    -4.127076194551682E1     3.393877784318812E1
 1.009000000000000E9    -4.132400364304743E1     7.545802029103513E1    -4.228281530962515E-2   -3.546313461938166E1    -3.252365611202987E-2   -3.545105702878846E1    -4.092477356348296E1     3.444873495767988E1
 1.010000000000000E9    -4.033658268666660E1     7.331712897774359E1    -5.159969631421769E-2   -3.544847100297105E1    -3.663796305150345E-2   -3.543329876822681E1    -4.156096475288766E1     2.981026544479203E1
 1.011000000000000E9    -4.039886197095514E1     7.404906493440818E1    -5.030021607588543E-2   -3.548414314282723E1    -3.272872018046119E-2   -3.551029798713287E1    -4.097448516238566E1     2.991344073075919E1
 1.012000000000000E9    -4.062723602364370E1     7.563717695940258E1    -4.961954897245370E-2   -3.553366275762817E1    -3.258765770522566E-2   -3.553851915393980E1    -4.041302632901715E1     3.144090524784075E1
 1.013000000000000E9    -4.052238227664223E1     7.559741794099892E1    -4.410770556837702E-2   -3.555089330559467E1    -3.974558263617894E-2   -3.551522903762173E1    -4.017620493503883E1     3.504476806746122E1
 1.014000000000000E9    -3.994291608666807E1     7.359412445906884E1    -5.173471749279090E-2   -3.559855712761898E1    -3.733131002959294E-2   -3.562006252204822E1    -4.049410927198459E1     3.196713706555868E1
 1.015000000000000E9    -4.002202599063220E1     7.262532269851813E1    -4.293609117810103E-2   -3.560742151330874E1    -3.292417179087592E-2   -3.566618629548104E1    -4.024553136510677E1     3.181356365746786E1
 1.016000000000000E9    -4.015989144200760E1     7.538791079090115E1    -4.331364273750653E-2   -3.567372566738346E1    -3.918278783015818E-2   -3.567964282251353E1    -4.008474439984633E1     2.894665047906394E1
 1.017000000000000E9    -3.955637378309021E1     7.566240363993495E1    -4.439128818903847E-2   -3.571821210304301E1    -3.729437895165454E-2   -3.571005777442596E1    -3.995453001746557E1     3.105099275432932E1
 1.018000000000000E9    -3.961751303569533E1     7.547581081529923E1    -4.867560001564046E-2   -3.576290701443853E1    -3.535140973331076E-2   -3.573593400673281E1    -4.050050993121586E1     2.795215921646815E1
 1.019000000000000E9    -3.978049558712860E1     7.250018770387176E1    -4.823666374186528E-2   -3.576976164634333E1    -3.976726955677939E-2   -3.578427438170570E1    -3.941910896195538E1     3.202997215525768E1
 1.020000000000000E9    -3.963126046212556E1     7.302290838186282E1    -4.536081962036025E-2   -3.582122444924135E1    -3.190787251933982E-2   -3.582527403718604E1    -4.026878429152795E1     3.128499091030353E1
 1.021000000000000E9    -3.953043698017659E1     7.478548795693379E1    -4.903598169516762E-2   -3.585478643054266E1    -3.976904507394297E-2   -3.584646007693880E1    -4.017322741270696E1     2.915127330703502E1
 1.022000000000000E9    -3.927552497381476E1     7.754469887277516E1    -5.314630047524911E-2   -3.593080049103395E1    -3.582158458032775E-2   -3.588748560547266E1    -3.973719345869260E1     3.056973516429450E1
 1.023000000000000E9    -3.935112503552265E1     7.482322558616427E1    -4.434856513373531E-2   -3.593472051132980E1    -3.592223028521587E-2   -3.591046021869968E1    -3.962185368585428E1     3.215407627769297E1
 1.024000000000000E9    -3.877207611587523E1     7.534328828112706E1    -4.099555619190453E-2   -3.596254843586408E1    -3.352773142877082E-2   -3.591793366680479E1    -3.948613832417649E1     3.217262883005283E1
 1.025000000000000E9    -3.910118947319715E1     7.619258957176851E1    -4.356827697899426E-2   -3.599728810847822E1    -3.130001907132866E-2   -3.600131691805665E1    -3.968661987418890E1     2.979874688929971E1
 1.026000000000000E9    -3.921443247155229E1     7.650287662460062E1    -4.359533759341797E-2   -3.604031259931062E1    -3.335845653585677E-2   -3.598493110395766E1    -3.919765072713637E1     2.877798946725176E1
 1.027000000000000E9    -3.879340809027201E1     7.484207532336437E1    -4.231889698300215E-2   -3.610320787668320E1    -3.145035672553481E-2   -3.609136576910209E1    -3.967711621935463E1     3.097120137327682E1
 1.028000000000000E9    -3.914661951277157E1     7.725895851629988E1    -4.679855177017030E-2   -3.609635988701233E1    -3.495072019504594E-2   -3.615794040411454E1    -3.917649965557145E1     2.915383528725505E1
 1.029000000000000E9    -3.881662261137132E1     7.612692731896561E1    -4.542216737066411E-2   -3.615325914966492E1    -3.496359293419744E-2   -3.617480989348993E1    -3.983966844892831E1     3.375983148257289E1
 1.030000000000000E9    -3.887549690106241E1     7.447975068633463E1    -4.818829970436796E-2   -3.622121415149444E1    -4.142530618847552E-2   -3.613555978536834E1    -3.891705951778192E1     3.012345936912023E1
 1.031000000000000E9    -3.887554943206138E1     7.757305598644551E1    -4.426370801285345E-2   -3.623819780155296E1    -3.710391254580140E-2   -3.622134683740087E1    -3.956634305635578E1     2.998444749943187E1
 1.032000000000000E9    -3.897297314386768E1     7.343559114796027E1    -4.521692616126318E-2   -3.626975471182598E1    -4.226738376051233E-2   -3.623816817888295E1    -3.906869644197496E1     3.506292138374725E1
 1.033000000000000E9    -3.888572767063943E1     7.251969426384481E1    -4.540815257468755E-2   -3.629605735130282E1    -3.951608118449330E-2   -3.623859962501453E1    -3.896824232505381E1     3.185175826227210E1
 1.034000000000000E9    -3.927915907605054E1     7.416686303454759E1    -4.755306140456225E-2   -3.634505750699688E1    -4.173885993303275E-2   -3.630229404431001E1    -3.920835903163827E1     3.302538119934334E1
 1.035000000000000E9    -3.892803740480569E1     7.287906456496823E1    -4.379877154320395E-2   -3.636070388556846E1    -3.782052277705845E-2   -3.633609695541906E1    -3.959500549131565E1     3.262978464580534E1
 1.036000000000000E9    -3.845945984876128E1     7.326532651978391E1    -4.667705664827826E-2   -3.638267102505106E1    -3.415431572530543E-2   -3.642608237382604E1    -3.930574768401992E1     2.939851422893488E1
 1.037000000000000E9    -3.861245880580833E1     7.434528621747900E1    -4.486132568914423E-2   -3.643389421378475E1    -3.370792560925384E-2   -3.641437005841861E1    -3.904055248700978E1     3.247063004840773E1
 1.038000000000000E9    -3.889060087180403E1     7.433122548930305E1    -4.843158884023389E-2   -3.647764052581650E1    -3.628541839396084E-2   -3.645104281269480E1    -3.891294653094203E1     3.098285985004806E1
 1.039000000000000E9    -3.896217649594877E1     7.381855095586911E1    -4.144421565347144E-2   -3.650932094207990E1    -3.960265778769782E-2   -3.651004397792467E1    -3.892156027464739E1     3.583024686967995E1
 1.040000000000000E9    -3.893840288646690E1     7.292198305740763E1    -4.278371441814781E-2   -3.655104136985347E1    -3.589788302033963E-2   -3.652979353213841E1    -3.874570857843516E1     3.321999713101361E1
 1.041000000000000E9    -3.901485827465422E1     7.348063885734652E1    -4.600623172875618E-2   -3.657052883252044E1    -3.542262640806471E-2   -3.653892664390741E1    -3.904111820037151E1     3.361339896061163E1
 1.042000000000000E9    -3.855755641067322E1     7.244903745071250E1    -4.847703771441279E-2   -3.661067865929830E1    -3.441442039177158E-2   -3.658610271013878E1    -3.886201443411138E1     3.407644103988530E1
 1.043000000000000E9    -3.870353753368115E1     7.039400155571626E1    -4.321930933590537E-2   -3.662877945342599E1    -4.684295094372017E-2   -3.663901087758672E1    -3.903408627374310E1     3.440608095340461E1
 1.044000000000000E9    -3.888454209180966E1     7.034320009135628E1    -4.620401461165953E-2   -3.665648735108092E1    -3.810773987753725E-2   -3.662091796030201E1    -3.897054299644417E1     3.327446589117697E1
 1.045000000000000E9    -3.841176293697752E1     7.189529467710877E1    -4.331422625158763E-2   -3.674716851511706E1    -3.946723957684697E-2   -3.671435068606658E1    -3.893167055451709E1     3.429486133696385E1
 1.046000000000000E9    -3.868486800549656E1     7.176618961905415E1    -4.641884127379446E-2   -3.678624699565327E1    -3.478538097836303E-2   -3.672277419688668E1    -3.981243479051367E1     3.470705890725444E1
 1.047000000000000E9    -3.878225472080098E1     7.013212857672491E1    -4.451918556925794E-2   -3.677386475644336E1    -3.693589245423459E-2   -3.678684678342795E1    -3.934244271613332E1     3.437456753193616E1
 1.048000000000000E9    -3.848554507015804E1     7.062935292133140E1    -5.043979782139325E-2   -3.682749966035188E1    -3.724723985699914E-2   -3.681933598861544E1    -3.924730941858257E1     3.438865062369361E1
 1.049000000000000E9    -3.850275546139914E1     7.239893526087137E1    -4.788998632893817E-2   -3.682644482169220E1    -3.970571207166821E-2   -3.682995536033312E1    -3.959762118558082E1     3.798424005807596E1
 1.050000000000000E9    -3.906763358241950E1     6.832920789697339E1    -3.913779970867953E-2   -3.688148403199426E1    -3.877859428817319E-2   -3.687771754564569E1    -3.970292486873997E1     3.477611864151913E1
 1.051000000000000E9    -3.888856697615383E1     6.983707324352224E1    -4.429495845194420E-2   -3.695301453291684E1    -3.584083178659694E-2   -3.691829696897566E1    -3.928887341380344E1     3.482387236542498E1
 1.052000000000000E9    -3.925653152744796E1     6.843726317616411E1    -4.195191196936163E-2   -3.701803254089525E1    -3.667219561020280E-2   -3.691587679434568E1    -3.910385858299939E1     3.841843669608441E1
 1.053000000000000E9    -3.889951674335815E1     6.962157997865410E1    -4.730544316226663E-2   -3.701499643116033E1    -3.675467041318573E-2   -3.701876486159969E1    -3.968211686934250E1     3.393863435991569E1
 1.054000000000000E9    -3.899858331160704E1     6.682261963927667E1    -4.128027478747749E-2   -3.702772188035380E1    -4.060749770007414E-2   -3.699596401988451E1    -3.991022952179675E1     3.352296154059499E1
 1.055000000000000E9    -3.923825009805502E1     7.084161602189755E1    -4.257630750636176E-2   -3.703596693425783E1    -4.151809056904561E-2   -3.707015599999163E1    -3.949997900734947E1     3.683794216385650E1
 1.056000000000000E9    -3.917199583380440E1     6.546543617190322E1    -4.523282272833396E-2   -3.711488786278344E1    -4.040713493657352E-2   -3.714232416209086E1    -3.941074764415036E1     3.908822621341842E1
 1.057000000000000E9    -3.932623412081448E1     7.007314412747633E1    -5.313688927108794E-2   -3.711207697413886E1    -3.784021855705506E-2   -3.709792433029342E1    -3.999063178416990E1     3.490978240312265E1
 1.058000000000000E9    -3.970872334661648E1     6.559135015729260E1    -3.761402973503644E-2   -3.718556144150677E1    -4.011002435969809E-2   -3.715244779405617E1    -3.961436576863880E1     3.575698566651182E1
 1.059000000000000E9    -3.956261355367446E1     6.657862376617278E1    -4.432031311772362E-2   -3.721119016489173E1    -4.051199690908156E-2   -3.721198710667583E1    -4.002053022222965E1     3.760583138288860E1
 1.060000000000000E9    -3.962600710845310E1     6.634428879342224E1    -4.109888986237788E-2   -3.721739570837695E1    -4.043481851255515E-2   -3.728072655429566E1    -4.011605657004253E1     3.677759154757266E1
 1.061000000000000E9    -4.011776419603065E1     6.976033683294055E1    -4.201173481421054E-2   -3.726945970396530E1    -3.972987713354165E-2   -3.726603619598880E1    -4.031089659716280E1     3.410900428890292E1
 1.062000000000000E9    -4.009297524321540E1     6.703307184675029E1    -4.657995209888129E-2   -3.728054654761323E1    -3.456271652171591E-2   -3.725879530619800E1    -4.002037762378667E1     3.684455302564335E1
 1.063000000000000E9    -3.974972825926854E1     6.654445656281824E1    -4.744715764216619E-2   -3.737239721178619E1    -3.461278904545664E-2   -3.739041266932202E1    -4.024752331732203E1     3.570782516379633E1
 1.064000000000000E9    -4.000298137595844E1     6.640496137964449E1    -4.906845743280985E-2   -3.744063453974974E1    -3.861137347328786E-2   -3.735370869380039E1    -4.039199306360069E1     3.666491732918907E1
 1.065000000000000E9    -4.016397333778031E1     6.548362851762563E1    -4.625094155502715E-2   -3.738013662016364E1    -3.797670635814490E-2   -3.738406682781409E1    -4.077406546799391E1     3.687328311274566E1
 1.066000000000000E9    -4.036441839939407E1     6.211819578298722E1    -4.527488265376417E-2   -3.743349801723511E1    -4.197055654498644E-2   -3.746660649881769E1    -4.104974049664014E1     3.749878749666907E1
 1.067000000000000E9    -3.998369164826060E1     6.423205283928122E1    -3.920674020927503E-2   -3.749628688557620E1    -3.715917791027224E-2   -3.744408694992974E1    -4.069729252756628E1     3.855241007683739E1
 1.068000000000000E9    -4.037665126997506E1     6.880071089929520E1    -5.006613130838154E-2   -3.751784895900348E1    -4.301412756445179E-2   -3.746012527403525E1    -4.078586752312693E1     3.832205742892770E1
 1.069000000000000E9    -4.092793124573482E1     6.379274416316819E1    -4.538971823153875E-2   -3.758169497176012E1    -3.911767524482779E-2   -3.754368102148305E1    -4.084006040781694E1     3.914982709255578E1
 1.070000000000000E9    -4.052807409932320E1     6.540478965519341E1    -5.028643930466112E-2   -3.759563493679247E1    -3.990563891745634E-2   -3.755715351240698E1    -4.090248757980642E1     3.877523089665940E1
 1.071000000000000E9    -4.035698338753090E1     6.722575982331314E1    -4.378421586246419E-2   -3.759644927352824E1    -4.262296644194695E-2   -3.759889478091846E1    -4.119326282116533E1     4.115176330426422E1
 1.072000000000000E9    -4.099951741669568E1     6.809947851053207E1    -4.922468636016797E-2   -3.766904984425549E1    -3.788969591838268E-2   -3.762775802895543E1    -4.048444517151672E1     3.635902296162069E1
 1.073000000000000E9    -4.121461089409842E1     6.378066462569075E1    -4.268688848607877E-2   -3.770505385745513E1    -3.877144735100028E-2   -3.769952076411970E1    -4.092710418141784E1     3.870948141396526E1
 1.074000000000000E9    -4.109614223949669E1     6.538283180666066E1    -4.901745224759928E-2   -3.775321777340802E1    -3.997542769070218E-2   -3.775733131289636E1    -4.091508425850984E1     3.598339364506511E1
 1.075000000000000E9    -4.200749397846344E1     6.837844674341322E1    -4.899912184529773E-2   -3.775928444035464E1    -3.996496609519698E-2   -3.775494257968124E1    -4.144132030326475E1     3.611878416517337E1
 1.076000000000000E9    -4.127361116763581E1     6.019985768529602E1    -4.496930390529819E-2   -3.781099834807346E1    -3.549959701357159E-2   -3.773064285701851E1    -4.114685286617621E1     4.053692528885555E1
 1.077000000000000E9    -4.110817822750676E1     6.222021600367584E1    -4.553904294245088E-2   -3.780812484221586E1    -3.827508888131961E-2   -3.780470807857315E1    -4.229405297472113E1     3.544659524071001E1
 1.078000000000000E9    -4.147947666914763E1     6.807073268261190E1    -4.256710883265604E-2   -3.788077122626107E1    -3.910736273720195E-2   -3.789536025832727E1    -4.147306737336297E1     3.497692048597975E1
 1.079000000000000E9    -4.201574317425382E1     6.495789438572099E1    -4.681307364144280E-2   -3.788690416320368E1    -4.512164795997348E-2   -3.786984524339382E1    -4.152220844240027E1     3.532006005927259E1
 1.080000000000000E9    -4.194469191955749E1     6.393790204376201E1    -5.145876931151202E-2   -3.797721143625113E1    -3.803744042522771E-2   -3.799505552411825E1    -4.140735649358922E1     3.377856114737620E1
 1.081000000000000E9    -4.198582032430539E1     6.380189265737464E1    -5.014839615300021E-2   -3.801025422602210E1    -3.408245245078273E-2   -3.796439460089336E1    -4.259438196549311E1     3.886284146316481E1
 1.082000000000000E9    -4.162588966498614E1     6.628921363869014E1    -4.580128129163027E-2   -3.800069140425462E1    -4.252827520879619E-2   -3.799783324838874E1    -4.157269966599838E1     3.765904866888315E1
 1.083000000000000E9    -4.208240148825315E1     6.899117025847090E1    -4.559341560502885E-2   -3.804435528332822E1    -4.013982375575738E-2   -3.801585741853875E1    -4.236979714793333E1     3.558097491820143E1
 1.084000000000000E9    -4.167562360932924E1     6.616927151987639E1    -4.612887825053007E-2   -3.807150983350044E1    -3.716123004063665E-2   -3.808379241483773E1    -4.192105463033779E1     3.449332954093738E1
 1.085000000000000E9    -4.169123404097110E1     6.851380143107127E1    -4.999309915999752E-2   -3.813672306104167E1    -4.111305065642244E-2   -3.808154584833851E1    -4.234683814131935E1     3.426019514109936E1
 1.086000000000000E9    -4.223315413727566E1     6.412934867367216E1    -4.501451721854392E-2   -3.813686793733854E1    -3.409863565312484E-2   -3.813398617584584E1    -4.207510157177033E1     3.645377256637681E1
 1.087000000000000E9    -4.145127098711213E1     6.350157267328946E1    -4.461866092569190E-2   -3.815423300420144E1    -3.774324607908951E-2   -3.821835970277274E1    -4.239027566201570E1     3.384386945822021E1
 1.088000000000000E9    -4.179402577099184E1     6.509242591261017E1    -4.114311602029924E-2   -3.822630481601990E1    -3.970107320968933E-2   -3.823388247949853E1    -4.291482844436322E1     3.060339047174660E1
 1.089000000000000E9    -4.240074512835513E1     7.119612222451019E1    -4.776380215831135E-2   -3.824768352553522E1    -4.093101678040060E-2   -3.825108407734057E1    -4.221797524589260E1     3.400981040253434E1
 1.090000000000000E9    -4.203205299404955E1     6.765577927145907E1    -5.415849984161719E-2   -3.833717728932022E1    -3.857811741085110E-2   -3.825659574898869E1    -4.172920818126531E1     3.549202574970288E1
 1.091000000000000E9    -4.294191321623372E1     7.022920795985283E1    -4.969838341035034E-2   -3.836453079855944E1    -4.227299991195610E-2   -3.833361719155008E1    -4.252213015623673E1     2.992612424419739E1
