#  HZ   S   DB   R     50.00 
! Rohde & Schwarz Vector Network Analyzer 
! Rohde-Schwarz,ZNB8-4Port,1311601044102961,2.82
! Created: UTC 3/4/2022, 3:56:49 PM
! freq[Hz]                db:S11                  ang:S11                 db:S21                  ang:S21                 db:S12                  ang:S12                 db:S22                  ang:S22
 1.000000000000000E9    -3.256263499797948E1     4.752616744597007E1    -6.002785378604046E-2   -3.989807512700470E1    -4.748063685375986E-2   -3.987102383689073E1    -3.251758677751191E1     4.811522913270890E1
 1.001000000000000E9    -3.237538247486932E1     4.786900587820966E1    -5.805791637744739E-2   -3.993666410147772E1    -4.943077774871309E-2   -3.995755933644050E1    -3.265686845390215E1     4.653729969953685E1
 1.002000000000000E9    -3.259130539428304E1     4.853491562396820E1    -6.115037302068759E-2   -3.995892056774066E1    -5.148914717525739E-2   -3.993586072994157E1    -3.252905639562672E1     4.771730506375160E1
 1.003000000000000E9    -3.250935123233501E1     4.902541532596970E1    -6.378580140732669E-2   -3.999967679817063E1    -5.419219569502075E-2   -4.000368393691455E1    -3.244552301456002E1     4.619992795217668E1
 1.004000000000000E9    -3.235213545782886E1     4.758348497936430E1    -5.818979833224548E-2   -4.003749310056588E1    -4.258952270872812E-2   -4.007631688375419E1    -3.253465749176951E1     4.647626590965710E1
 1.005000000000000E9    -3.248228528403020E1     4.771866643579671E1    -5.831543710283333E-2   -4.010255971114583E1    -5.148238517747854E-2   -4.011599824442364E1    -3.251974381358592E1     4.593968063025798E1
 1.006000000000000E9    -3.236061550689176E1     4.816261153505413E1    -6.368068695206673E-2   -4.013305225588736E1    -5.193030591871181E-2   -4.011003448606198E1    -3.244436037987841E1     4.588149791596434E1
 1.007000000000000E9    -3.244253781029988E1     4.898768713368917E1    -6.555105404528802E-2   -4.017631673244722E1    -5.044166944209845E-2   -4.015510926220674E1    -3.261814904707916E1     4.620139143143950E1
 1.008000000000000E9    -3.218899452090148E1     4.955847975135176E1    -5.850803656236394E-2   -4.020583708171422E1    -5.254740955921242E-2   -4.019746348068539E1    -3.232647660463888E1     4.490198997315720E1
 1.009000000000000E9    -3.245109659156558E1     4.877453318006239E1    -5.835579959648125E-2   -4.023186412613546E1    -5.110580766451593E-2   -4.025066477452731E1    -3.248941491193766E1     4.578750231656987E1
 1.010000000000000E9    -3.209747286190439E1     4.905308210106960E1    -5.850751007457533E-2   -4.034194982636146E1    -4.826438092424212E-2   -4.030664649683011E1    -3.218028863527105E1     4.425716404388957E1
 1.011000000000000E9    -3.221417236256848E1     4.962514304720301E1    -6.379683269415522E-2   -4.033489169515370E1    -4.881784119604180E-2   -4.033879391535627E1    -3.239475983364460E1     4.410178298067637E1
 1.012000000000000E9    -3.219878096755362E1     4.913101011852167E1    -6.171247100154941E-2   -4.039430838339382E1    -5.220110432181999E-2   -4.032608161765374E1    -3.236436986694942E1     4.542136476058406E1
 1.013000000000000E9    -3.228626380660593E1     4.993367425991372E1    -6.007873396135000E-2   -4.045508485911869E1    -5.026985561741694E-2   -4.040871572230994E1    -3.229769769248273E1     4.490717281653795E1
 1.014000000000000E9    -3.209242732677883E1     4.919784773763433E1    -6.134898929680184E-2   -4.048344888543539E1    -5.303971946100970E-2   -4.045767509526878E1    -3.231202598553595E1     4.489386957240836E1
 1.015000000000000E9    -3.213541084789854E1     4.910306378644957E1    -6.198004730964807E-2   -4.048353018554231E1    -5.005821537590151E-2   -4.050267174088493E1    -3.231296789381862E1     4.434809883083810E1
 1.016000000000000E9    -3.209411292741286E1     5.029840262748995E1    -5.667984600727338E-2   -4.052066089566785E1    -4.870434164393752E-2   -4.056235108573302E1    -3.209691844871659E1     4.378484526670294E1
 1.017000000000000E9    -3.194063842496915E1     5.017706089134686E1    -5.509694264935081E-2   -4.058240333342580E1    -5.384190268506867E-2   -4.056179189881873E1    -3.207307785805111E1     4.446460616884244E1
 1.018000000000000E9    -3.203379346908737E1     4.985219049656487E1    -5.892017185286905E-2   -4.062106416823753E1    -5.316288630526384E-2   -4.059268386238342E1    -3.213758841364935E1     4.489370035966596E1
 1.019000000000000E9    -3.212598640401364E1     4.939714724658995E1    -6.351257582090822E-2   -4.064958237505776E1    -4.399965106364291E-2   -4.063325534484581E1    -3.203304107702331E1     4.529212512170702E1
 1.020000000000000E9    -3.190030782764351E1     4.896142153957225E1    -6.223383799006208E-2   -4.068377477292675E1    -5.203696171753886E-2   -4.069510569771310E1    -3.218721881802233E1     4.426587415873783E1
 1.021000000000000E9    -3.195926889238964E1     4.871554929416145E1    -6.080907682977096E-2   -4.073368971955986E1    -5.470337252503937E-2   -4.073871978955105E1    -3.209634999997115E1     4.412195750305533E1
 1.022000000000000E9    -3.192519458936530E1     5.106678353516104E1    -6.097685518689681E-2   -4.078509196241517E1    -4.685462812985797E-2   -4.076353811408877E1    -3.190435424526079E1     4.589795320237180E1
 1.023000000000000E9    -3.190997802191692E1     4.943835972063576E1    -6.674438248592467E-2   -4.082687512597634E1    -5.264027686570018E-2   -4.077619494299834E1    -3.196876491725879E1     4.552287074018651E1
 1.024000000000000E9    -3.183060071863838E1     5.070299738829510E1    -6.262468140317208E-2   -4.086825105072953E1    -4.910838054189090E-2   -4.084456297702801E1    -3.186061166284986E1     4.413353993894975E1
 1.025000000000000E9    -3.169351375223570E1     4.974825520561146E1    -6.614045243813123E-2   -4.090565401277259E1    -5.326897745650289E-2   -4.091785712853734E1    -3.195164916964860E1     4.493128762842174E1
 1.026000000000000E9    -3.191460117943855E1     4.951869765957806E1    -6.306249498435285E-2   -4.091892617998553E1    -5.279736554531579E-2   -4.093795513275714E1    -3.185253721151137E1     4.378593858941556E1
 1.027000000000000E9    -3.162579898218787E1     5.021431104645642E1    -6.267188198442431E-2   -4.100990524251613E1    -4.816405035979229E-2   -4.098414346077031E1    -3.176837511631720E1     4.453339704801378E1
 1.028000000000000E9    -3.189955350883574E1     5.031498931214334E1    -6.132745480378049E-2   -4.101125335808199E1    -4.818340280363143E-2   -4.101195094877534E1    -3.173121524753115E1     4.380782502907825E1
 1.029000000000000E9    -3.168958812065998E1     5.022736947816660E1    -6.419040125777238E-2   -4.105409318530476E1    -4.583786314299183E-2   -4.108507099556031E1    -3.174629360656843E1     4.595229669404442E1
 1.030000000000000E9    -3.170733524877867E1     5.011441933446536E1    -5.829081525585315E-2   -4.111742032613218E1    -5.319209054650032E-2   -4.108798974798561E1    -3.164754776020481E1     4.396829839314538E1
 1.031000000000000E9    -3.162595377920542E1     4.950440719971655E1    -5.804002780565257E-2   -4.114637305927755E1    -5.759134416389363E-2   -4.114646585957286E1    -3.178554820667797E1     4.348606709069767E1
 1.032000000000000E9    -3.167455730880284E1     4.880402975904389E1    -6.294282752002366E-2   -4.120427383969247E1    -5.206222708783564E-2   -4.115576389537065E1    -3.163785696439085E1     4.647806738552077E1
 1.033000000000000E9    -3.181229569926049E1     4.921662272070184E1    -6.050120781268130E-2   -4.121524358254829E1    -5.460397912436082E-2   -4.122664260960575E1    -3.166318875862910E1     4.420914800294349E1
 1.034000000000000E9    -3.170773063848468E1     4.880826681454003E1    -6.069524210633169E-2   -4.123728195955498E1    -5.087437645433803E-2   -4.122501782641277E1    -3.165331793770391E1     4.455552760163969E1
 1.035000000000000E9    -3.162119074234120E1     4.799498137187475E1    -6.145941659032383E-2   -4.129125631323005E1    -5.277172538595612E-2   -4.132661822873400E1    -3.169187071999074E1     4.517902081558589E1
 1.036000000000000E9    -3.142230242908663E1     4.904369013166196E1    -6.578266579120738E-2   -4.134687098107351E1    -5.399910597722127E-2   -4.133409233356677E1    -3.170026187446567E1     4.405546130695937E1
 1.037000000000000E9    -3.162270161810198E1     4.895870871762256E1    -5.873773863715420E-2   -4.138851553560671E1    -5.342028855883235E-2   -4.133687806921597E1    -3.154322863412477E1     4.585898666597426E1
 1.038000000000000E9    -3.175580208138483E1     4.909125254647997E1    -5.942886139265066E-2   -4.142732252215026E1    -5.234004894280094E-2   -4.139082953052915E1    -3.161997948113120E1     4.524441515221363E1
 1.039000000000000E9    -3.160498597993889E1     4.792399807329322E1    -5.833407858693925E-2   -4.148000394725589E1    -5.724106596482570E-2   -4.145911259908120E1    -3.153918587290342E1     4.563776725768263E1
 1.040000000000000E9    -3.153601844456327E1     4.777023585438008E1    -6.459081776279955E-2   -4.149927867989283E1    -5.482978407416049E-2   -4.147646137953156E1    -3.159468843771368E1     4.536043673413391E1
 1.041000000000000E9    -3.173222569800464E1     4.862732561443632E1    -6.368244785329129E-2   -4.154700372934505E1    -4.839982309569241E-2   -4.150722725197911E1    -3.154259936380142E1     4.519953073416919E1
 1.042000000000000E9    -3.165740728355885E1     4.783313729231485E1    -5.834330358136994E-2   -4.158974897951229E1    -5.783841761869220E-2   -4.155003101434204E1    -3.158764572447957E1     4.572378862344424E1
 1.043000000000000E9    -3.153676225827632E1     4.734190064938996E1    -5.446036183185295E-2   -4.159810723748471E1    -5.562286143831325E-2   -4.161741760215850E1    -3.170426295496400E1     4.588846001185237E1
 1.044000000000000E9    -3.150162677871540E1     4.618635987697462E1    -6.462820109215955E-2   -4.163046522346160E1    -5.171817845092831E-2   -4.166232528328248E1    -3.155995747300173E1     4.506064789822017E1
 1.045000000000000E9    -3.157215324187716E1     4.767549956542685E1    -6.062907931920515E-2   -4.172659977742011E1    -4.983828085056395E-2   -4.168228928307337E1    -3.146227269975492E1     4.490064798291922E1
 1.046000000000000E9    -3.145000166564936E1     4.749744958605941E1    -5.926798053969412E-2   -4.173669534544774E1    -5.270381563540202E-2   -4.176234113347101E1    -3.175668754168085E1     4.606331537978333E1
 1.047000000000000E9    -3.164631826653355E1     4.699294483011686E1    -5.889972945954575E-2   -4.173226061975333E1    -5.235194059530221E-2   -4.179406120351868E1    -3.165218216775367E1     4.536755499224512E1
 1.048000000000000E9    -3.151945922207154E1     4.705041707176732E1    -5.828458447079386E-2   -4.181458589046178E1    -4.737395241483418E-2   -4.183917422868593E1    -3.161785210799433E1     4.640093831827278E1
 1.049000000000000E9    -3.142677380922424E1     4.724105984701454E1    -6.341259360587703E-2   -4.186416506898578E1    -5.119123334236592E-2   -4.184800378509979E1    -3.157257419856907E1     4.515148655278384E1
 1.050000000000000E9    -3.166379614329006E1     4.542477262660835E1    -6.098510694327448E-2   -4.191109907518795E1    -5.194388824566415E-2   -4.188974576755080E1    -3.181676944952731E1     4.692416982787704E1
 1.051000000000000E9    -3.150352420104229E1     4.558120354208200E1    -6.211681184457367E-2   -4.192477418100764E1    -4.920478050446518E-2   -4.195557948725700E1    -3.160084861329418E1     4.689248355253068E1
 1.052000000000000E9    -3.166545757979970E1     4.617222076650682E1    -6.032925882072956E-2   -4.196088486003200E1    -5.405715756608163E-2   -4.195794251385127E1    -3.171198284434397E1     4.666403896191473E1
 1.053000000000000E9    -3.157456771873955E1     4.571402681206480E1    -5.884289318361809E-2   -4.205443581514574E1    -5.464079968878425E-2   -4.199019253659365E1    -3.178260107119032E1     4.518819673554059E1
 1.054000000000000E9    -3.154793174735243E1     4.492280030273572E1    -6.283866326173100E-2   -4.208108443713847E1    -4.896253464859642E-2   -4.205821128200486E1    -3.189389942151583E1     4.651251094460965E1
 1.055000000000000E9    -3.173636549103108E1     4.587826538126403E1    -5.444293596908405E-2   -4.211073418684474E1    -5.129610601064483E-2   -4.212711897693423E1    -3.173440820711219E1     4.634199228404961E1
 1.056000000000000E9    -3.175059051232141E1     4.520533512524877E1    -5.899783466094234E-2   -4.217171626708251E1    -5.493037501673009E-2   -4.210643972920975E1    -3.161417894181889E1     4.673416654231527E1
 1.057000000000000E9    -3.163476286537705E1     4.642753618266450E1    -6.519308819423335E-2   -4.218758686603039E1    -5.459407000101565E-2   -4.216844605438725E1    -3.180886101906251E1     4.680489889662216E1
 1.058000000000000E9    -3.184122208966731E1     4.419348298632481E1    -5.815678575585507E-2   -4.225959417259958E1    -5.287400393986259E-2   -4.222471912126414E1    -3.181052968803591E1     4.744811348048970E1
 1.059000000000000E9    -3.195472403401336E1     4.493840231859745E1    -6.013334262118428E-2   -4.229060545406529E1    -5.071806355632419E-2   -4.224966753499906E1    -3.191729332784917E1     4.692230940273015E1
 1.060000000000000E9    -3.189171812256815E1     4.405792275491426E1    -5.973796809464846E-2   -4.226729951480854E1    -5.221798724212087E-2   -4.229954350765484E1    -3.185760465168629E1     4.752872916476432E1
 1.061000000000000E9    -3.186975395939088E1     4.581889534581138E1    -5.261372683253848E-2   -4.236193033207706E1    -4.888967425785860E-2   -4.232330234458875E1    -3.200209191107482E1     4.724502468465370E1
 1.062000000000000E9    -3.182936641404475E1     4.418542125083977E1    -5.936255170011544E-2   -4.239651026860358E1    -5.493820434607465E-2   -4.239721594424146E1    -3.183063857364396E1     4.606156244085229E1
 1.063000000000000E9    -3.197949924061182E1     4.457299129803041E1    -5.371198884621713E-2   -4.242670126777617E1    -5.079301617959044E-2   -4.239074759766060E1    -3.219365825123730E1     4.693575691623626E1
 1.064000000000000E9    -3.182425368025157E1     4.414655744987705E1    -5.612927772449546E-2   -4.247602917191140E1    -5.220871577836139E-2   -4.243605798563500E1    -3.200679719015718E1     4.827457187830221E1
 1.065000000000000E9    -3.193683717013495E1     4.315566544907572E1    -5.722112274450301E-2   -4.249427166141640E1    -5.087027668432737E-2   -4.249523217060972E1    -3.214462696600195E1     4.623403527880662E1
 1.066000000000000E9    -3.198248186090503E1     4.386960156858713E1    -6.140513766095194E-2   -4.251214429200016E1    -5.511667843786684E-2   -4.255198883412840E1    -3.221817481775440E1     4.714495272088308E1
 1.067000000000000E9    -3.189130004879056E1     4.364097790129571E1    -5.933700865097892E-2   -4.257034772973243E1    -5.364081243495248E-2   -4.254042746272945E1    -3.225826568279597E1     4.758152264843217E1
 1.068000000000000E9    -3.208604272279346E1     4.330080195386694E1    -5.671754211320151E-2   -4.264014103595346E1    -4.906169088563563E-2   -4.258769217117736E1    -3.203667510480418E1     4.733956161240251E1
 1.069000000000000E9    -3.214045419233335E1     4.352680908643932E1    -6.279297896177061E-2   -4.264212280260823E1    -5.259175334613498E-2   -4.267396825884877E1    -3.210032127557636E1     4.807633759291883E1
 1.070000000000000E9    -3.194725388836183E1     4.383361868250542E1    -5.922503581639580E-2   -4.272612692499853E1    -5.729446052149462E-2   -4.266738917556547E1    -3.231910412892564E1     4.707398810509446E1
 1.071000000000000E9    -3.205497028927652E1     4.399278643786593E1    -5.958956448577396E-2   -4.274290022871571E1    -5.633335177456784E-2   -4.276025079019508E1    -3.214777556304719E1     4.710897075514836E1
 1.072000000000000E9    -3.232256008580353E1     4.383380741409754E1    -5.718387806135133E-2   -4.278511777526011E1    -4.741866992668139E-2   -4.275569314255944E1    -3.203842023661319E1     4.700653835738835E1
 1.073000000000000E9    -3.217219926772745E1     4.319763179713994E1    -5.549361571900499E-2   -4.280523417401047E1    -4.646788661366037E-2   -4.280733262003635E1    -3.222575194960771E1     4.736603144536989E1
 1.074000000000000E9    -3.233776159714796E1     4.415202541738012E1    -6.386691900399663E-2   -4.284580750435386E1    -5.355544392303651E-2   -4.288591582189913E1    -3.237411778883588E1     4.715853605263403E1
 1.075000000000000E9    -3.259998453913767E1     4.274649466564516E1    -6.193509731270895E-2   -4.290526778957585E1    -5.440909459170333E-2   -4.291122680786918E1    -3.226287225126665E1     4.652757454447448E1
 1.076000000000000E9    -3.239004033512764E1     4.218916757762386E1    -6.376264771212477E-2   -4.292256047868355E1    -5.138814538648170E-2   -4.292468593539084E1    -3.234273345874834E1     4.744757268334487E1
 1.077000000000000E9    -3.226148855156960E1     4.218817226998381E1    -6.309577075972328E-2   -4.295547091786430E1    -5.426954770597404E-2   -4.288366454705771E1    -3.236180258478711E1     4.786752221958437E1
 1.078000000000000E9    -3.248178673246183E1     4.389893504712624E1    -5.739105917147769E-2   -4.297980322813515E1    -4.924092543991727E-2   -4.302241174902766E1    -3.229507304361073E1     4.692454013540433E1
 1.079000000000000E9    -3.238787180561657E1     4.336065955563038E1    -6.066928993635444E-2   -4.304983502961214E1    -5.158243726330916E-2   -4.307390890019295E1    -3.233310222887263E1     4.611082591606360E1
 1.080000000000000E9    -3.260694184590044E1     4.276700740206560E1    -6.172112323643244E-2   -4.314032176700918E1    -5.264063507826693E-2   -4.310183426451781E1    -3.248075254051651E1     4.431032178704052E1
 1.081000000000000E9    -3.256653425074932E1     4.248581422252025E1    -5.729033765439046E-2   -4.311974854498115E1    -4.872594225179986E-2   -4.311186406325972E1    -3.262997219156338E1     4.692037253996708E1
 1.082000000000000E9    -3.263058240280751E1     4.262200426506148E1    -6.123709849355934E-2   -4.314962246746789E1    -5.709920964329229E-2   -4.316147010791760E1    -3.221700894079662E1     4.700861203856950E1
 1.083000000000000E9    -3.259259884109772E1     4.350127104542956E1    -5.816011669506425E-2   -4.319213556246515E1    -5.014119354522990E-2   -4.319029243684901E1    -3.263921788699229E1     4.688681118065574E1
 1.084000000000000E9    -3.251303880040764E1     4.282425165951845E1    -6.047045011328812E-2   -4.322805672998270E1    -4.952965888295930E-2   -4.322801980721329E1    -3.253512788371764E1     4.644250099876432E1
 1.085000000000000E9    -3.253442239133170E1     4.365244864329317E1    -6.029396370954950E-2   -4.331894940954300E1    -5.556401585028296E-2   -4.329229613763368E1    -3.275708286832167E1     4.600793508641264E1
 1.086000000000000E9    -3.293272078497252E1     4.191451529307012E1    -6.261771780586295E-2   -4.332177937819111E1    -5.286893545697242E-2   -4.332766295090588E1    -3.256955578326613E1     4.592215784091137E1
 1.087000000000000E9    -3.238252994740656E1     4.321497202226613E1    -5.969187167615520E-2   -4.339482045565561E1    -5.239762125561069E-2   -4.336284550571616E1    -3.276023674492922E1     4.604261313401142E1
 1.088000000000000E9    -3.259994028488138E1     4.297406156354626E1    -6.007233617989234E-2   -4.340372597766002E1    -5.026706725507338E-2   -4.337720060133082E1    -3.297000696354777E1     4.619283677467801E1
 1.089000000000000E9    -3.274574800867561E1     4.410698888959163E1    -5.532979300014915E-2   -4.342492090707000E1    -5.089221839354268E-2   -4.344478867263172E1    -3.269994447320467E1     4.631193449938939E1
 1.090000000000000E9    -3.265520209127291E1     4.379067662273930E1    -6.645770445675203E-2   -4.346458364522239E1    -5.518243868786786E-2   -4.350820504902695E1    -3.244787813720010E1     4.505575669500504E1
 1.091000000000000E9    -3.282430564129768E1     4.327528044188340E1    -5.873870667811544E-2   -4.355037730313782E1    -5.548005302557419E-2   -4.351807065542756E1    -3.259528187146704E1     4.358138726597024E1
