#  HZ   S   DB   R     50.00 
! Rohde & Schwarz Vector Network Analyzer 
! Rohde-Schwarz,ZNB8-4Port,1311601044102961,2.82
! Created: UTC 3/4/2022, 3:44:25 PM
! freq[Hz]                db:S11                  ang:S11                 db:S12                  ang:S12                 db:S13                  ang:S13
!                         db:S21                  ang:S21                 db:S22                  ang:S22                 db:S23                  ang:S23
!                         db:S31                  ang:S31                 db:S32                  ang:S32                 db:S33                  ang:S33
! 
 1.000000000000000E9    -3.070695117234295E1     1.036401937447091E2    -4.139476370141725E-1   -1.717626053120027E2    -1.070564346620463E1    -8.595573857610174E1
                        -4.279797928094567E-1   -1.717452793544148E2    -3.042151581441538E1     9.086348275468174E1    -4.061359491795703E1    -1.236726416215562E2
                        -1.071027630667607E1    -8.590978562203840E1    -4.068341354683467E1    -1.230719556065345E2    -3.687146431681474E1     1.104089674318326E2

 1.001000000000000E9    -3.064387010433545E1     1.037856367418527E2    -4.195943847933445E-1   -1.719556590468692E2    -1.070975451958282E1    -8.606130803436268E1
                        -4.312250186974501E-1   -1.719109127534214E2    -3.046143134804217E1     9.148242236989873E1    -4.063050929345435E1    -1.239725268868676E2
                        -1.070834952004988E1    -8.602943351573644E1    -4.069429887388317E1    -1.237005113505039E2    -3.702764215982206E1     1.105070454702070E2

 1.002000000000000E9    -3.072895178441513E1     1.032827404198211E2    -4.138849599729324E-1   -1.720768286792631E2    -1.069490991574670E1    -8.613029084039933E1
                        -4.332914693732784E-1   -1.720860386967260E2    -3.043889460082870E1     9.108658342581251E1    -4.066257315045605E1    -1.241032644327757E2
                        -1.071417265242585E1    -8.623587812449875E1    -4.065251672435131E1    -1.233319704980444E2    -3.700215534761612E1     1.106594443696020E2

 1.003000000000000E9    -3.067041821021345E1     1.033687633218901E2    -4.217924123091790E-1   -1.722434862689703E2    -1.068967801927195E1    -8.628527148649623E1
                        -4.291462498310762E-1   -1.722396554907429E2    -3.016163981250657E1     9.111640277562108E1    -4.059666723931667E1    -1.245057841690838E2
                        -1.069600363999854E1    -8.642258458292243E1    -4.061207518356791E1    -1.242684972182431E2    -3.714514468872164E1     1.096192836407337E2

 1.004000000000000E9    -3.062548167739892E1     1.027885094972270E2    -4.272056504784141E-1   -1.724210429780216E2    -1.067646363144688E1    -8.653268223238042E1
                        -4.295605720243212E-1   -1.723825428554932E2    -3.028055787567487E1     9.026345198997443E1    -4.065673708486610E1    -1.242412813290158E2
                        -1.069690705089766E1    -8.653013458063469E1    -4.063295320945089E1    -1.252880399078326E2    -3.702921356059028E1     1.113753280821282E2

 1.005000000000000E9    -3.062330686894266E1     1.025766908910527E2    -4.176628266144430E-1   -1.726002194044853E2    -1.067766705456525E1    -8.670546443304386E1
                        -4.339423964919648E-1   -1.725792362258655E2    -3.034982640851088E1     8.968305683800706E1    -4.061944749410043E1    -1.249344979152747E2
                        -1.068971446601602E1    -8.674056933866039E1    -4.065732993900231E1    -1.250737359907915E2    -3.706234607342488E1     1.102363178385110E2

 1.006000000000000E9    -3.063411163684343E1     1.026818512323046E2    -4.200813222526337E-1   -1.727417194889533E2    -1.067882766525718E1    -8.689428748956199E1
                        -4.363642014201911E-1   -1.727476742164834E2    -3.009410949712755E1     9.032245073622512E1    -4.062864642337894E1    -1.253082406106753E2
                        -1.067889313577702E1    -8.690228374127838E1    -4.057334736355507E1    -1.258148109398637E2    -3.675573677530826E1     1.107115612065765E2

 1.007000000000000E9    -3.067873659906853E1     1.033184564584887E2    -4.240772059630804E-1   -1.729354361057937E2    -1.067733523346223E1    -8.712694989158879E1
                        -4.340142987479548E-1   -1.729069930591095E2    -3.025717402125973E1     9.006018623885245E1    -4.069504215797056E1    -1.256879321941855E2
                        -1.068627191377969E1    -8.706722022360600E1    -4.069895530703928E1    -1.258582274093827E2    -3.712691043251201E1     1.111898760657707E2

 1.008000000000000E9    -3.039975903023231E1     1.023094332338986E2    -4.262984513544187E-1   -1.730835654274214E2    -1.067179507349971E1    -8.722623263442446E1
                        -4.319567514419134E-1   -1.731214862604720E2    -3.037298031459262E1     8.882403604591896E1    -4.070019786464140E1    -1.258194911301402E2
                        -1.067843953899541E1    -8.719295569023019E1    -4.062261360015558E1    -1.258365004615476E2    -3.669759937491651E1     1.092407805200827E2

 1.009000000000000E9    -3.057559995508042E1     1.019423528364236E2    -4.248696937559472E-1   -1.732657933711878E2    -1.065849851864600E1    -8.739903564912933E1
                        -4.320874835519677E-1   -1.732532607792191E2    -3.023511625706745E1     8.904765466791193E1    -4.059848912935803E1    -1.265335302321614E2
                        -1.067811857678769E1    -8.742687106694397E1    -4.060154719136773E1    -1.261236741222282E2    -3.684376751876813E1     1.114080357399589E2

 1.010000000000000E9    -3.034319576708374E1     1.025234592448391E2    -4.235642302791989E-1   -1.734257625099754E2    -1.065962712612846E1    -8.751116245728024E1
                        -4.355945980004353E-1   -1.734461577989510E2    -3.019890959918487E1     8.818246644427545E1    -4.068810167096520E1    -1.271959968445953E2
                        -1.066438902997951E1    -8.756320473040115E1    -4.074708400373062E1    -1.268832889109845E2    -3.701506354299977E1     1.100188371727709E2

 1.011000000000000E9    -3.045257356703821E1     1.020157712887730E2    -4.222958750659090E-1   -1.735795283328843E2    -1.066265229622335E1    -8.769600435003939E1
                        -4.318848934332695E-1   -1.736371266177015E2    -3.026545924151419E1     8.830195859725589E1    -4.081184976828907E1    -1.274269255249678E2
                        -1.066014070628923E1    -8.776714505410072E1    -4.064932436738158E1    -1.270824282889925E2    -3.691873555945761E1     1.102235867812623E2

 1.012000000000000E9    -3.034411607543988E1     1.015424946481503E2    -4.272465077392099E-1   -1.737619410496034E2    -1.065024554115149E1    -8.793178666009172E1
                        -4.394170907772178E-1   -1.737579011426867E2    -3.001110209598861E1     8.842870657959610E1    -4.058409433726460E1    -1.263106061794001E2
                        -1.066713950514948E1    -8.792754149755501E1    -4.041671065390772E1    -1.275693522254903E2    -3.694693143432031E1     1.095551741091768E2

 1.013000000000000E9    -3.056282496746361E1     1.015368358737057E2    -4.317534410058627E-1   -1.739512086385668E2    -1.064411923929697E1    -8.807169239944439E1
                        -4.367991563305346E-1   -1.739486828950664E2    -3.004663313430699E1     8.858506003003087E1    -4.095151871686868E1    -1.294037881786822E2
                        -1.065361628699765E1    -8.808025449466949E1    -4.071756329361561E1    -1.249655971412885E2    -3.714164389491330E1     1.094992295772639E2

 1.014000000000000E9    -3.039266539998721E1     1.018173404419281E2    -4.305976879334619E-1   -1.741173617587807E2    -1.064531927641108E1    -8.827052808258164E1
                        -4.375689636059641E-1   -1.741370652132243E2    -3.006924267500714E1     8.775407128468395E1    -4.043388344398181E1    -1.260955014840237E2
                        -1.064535949042809E1    -8.820772501728992E1    -4.066345614693991E1    -1.276443952962167E2    -3.699632145944142E1     1.094215945862186E2

 1.015000000000000E9    -3.034346892830292E1     1.013210141015298E2    -4.300902539126364E-1   -1.742837198462293E2    -1.064054849497223E1    -8.847254866618130E1
                        -4.397648644555499E-1   -1.743053980259683E2    -3.013209040698532E1     8.806426742283570E1    -4.060837648353961E1    -1.270553501913968E2
                        -1.064252595535692E1    -8.846492451456429E1    -4.057233614475322E1    -1.300407012294920E2    -3.710206764719636E1     1.089159583266321E2

 1.016000000000000E9    -3.039308939122051E1     1.024210768517720E2    -4.348254321992937E-1   -1.744197062305004E2    -1.063817366412207E1    -8.859019280038478E1
                        -4.355776770664468E-1   -1.744270303071609E2    -2.998984427226563E1     8.766187124233136E1    -4.049834969439697E1    -1.285319182086444E2
                        -1.064046758789589E1    -8.853174974744952E1    -4.037877626593662E1    -1.277541907266224E2    -3.677444455401047E1     1.092006888775155E2

 1.017000000000000E9    -3.030529178201444E1     1.022774671880883E2    -4.269819198337950E-1   -1.746036440537406E2    -1.063294740109344E1    -8.876643171348249E1
                        -4.387293721801224E-1   -1.746542279888954E2    -3.005844531326321E1     8.729569241976228E1    -4.100873541546339E1    -1.308056221498406E2
                        -1.063871782415174E1    -8.881952179936074E1    -4.043050021967127E1    -1.303704082839856E2    -3.684009772506767E1     1.085698224998527E2

 1.018000000000000E9    -3.026078448264470E1     1.015853545233920E2    -4.331891060905126E-1   -1.747914290548171E2    -1.063578766452364E1    -8.892187885476261E1
                        -4.372789202317230E-1   -1.747660784183722E2    -3.012872849804142E1     8.648973949642202E1    -4.025446105833253E1    -1.311957674857980E2
                        -1.062957306483878E1    -8.897002947954866E1    -4.048790669367583E1    -1.286601579269691E2    -3.720307404723489E1     1.086857501670662E2

 1.019000000000000E9    -3.034778759293524E1     1.011236385871676E2    -4.288340952243164E-1   -1.749613301195392E2    -1.062551133513452E1    -8.911109498854319E1
                        -4.376047464577012E-1   -1.749338373983003E2    -2.989425771644597E1     8.832865546311695E1    -4.062723286741633E1    -1.299474806129283E2
                        -1.062173026411253E1    -8.917395467523681E1    -4.077698914431637E1    -1.294796452183846E2    -3.690176490788592E1     1.066532801421890E2

 1.020000000000000E9    -3.017852801077699E1     1.014385318014484E2    -4.300212164936537E-1   -1.751316456546134E2    -1.060717241136421E1    -8.931870708350974E1
                        -4.351259949464548E-1   -1.751333546264990E2    -2.991119705670588E1     8.685751980317396E1    -4.083676194028136E1    -1.293852032574166E2
                        -1.061571208835545E1    -8.927203420498782E1    -4.083637104455191E1    -1.309153703313579E2    -3.680932870310258E1     1.086137628030592E2

 1.021000000000000E9    -3.025106860704160E1     1.018893775037406E2    -4.287889258546498E-1   -1.752675768468143E2    -1.060980264264401E1    -8.951529640156757E1
                        -4.377686986654850E-1   -1.753145444134707E2    -3.002927557529874E1     8.595554146743554E1    -4.052796709993316E1    -1.305901782752590E2
                        -1.061102116417398E1    -8.939919274427366E1    -4.088067962065733E1    -1.305806046689762E2    -3.678861199221815E1     1.082607671331878E2

 1.022000000000000E9    -3.023759718074655E1     1.019161279240505E2    -4.258978652333959E-1   -1.754405363097621E2    -1.060281243663556E1    -8.958992175112113E1
                        -4.406749800065049E-1   -1.754575043735884E2    -2.993332708849151E1     8.596739851356327E1    -4.056405008328898E1    -1.292940853445400E2
                        -1.061275973056142E1    -8.964508657131681E1    -4.046194932661044E1    -1.299165614525185E2    -3.715706181491474E1     1.058183768816375E2

 1.023000000000000E9    -3.017957998549699E1     1.016451711776291E2    -4.293731322672532E-1   -1.756328701658885E2    -1.060971381211291E1    -8.988191330982713E1
                        -4.398258218378500E-1   -1.755982638707743E2    -2.996941180151362E1     8.565390395942423E1    -4.089535993863774E1    -1.323148349105170E2
                        -1.060481562283327E1    -8.979507177913476E1    -4.044638386567786E1    -1.308404933567067E2    -3.691210541942495E1     1.082842759193880E2

 1.024000000000000E9    -3.023435847601327E1     1.016846814899966E2    -4.347955921701611E-1   -1.757978169400051E2    -1.061177396623710E1    -9.000218977800415E1
                        -4.475470418743985E-1   -1.757464518550392E2    -2.993187268015611E1     8.602588352985478E1    -4.056573455105836E1    -1.319936237265187E2
                        -1.060237226502997E1    -8.994948192130930E1    -4.056747311512878E1    -1.307518197550624E2    -3.676532119735155E1     1.080819369495035E2

 1.025000000000000E9    -3.013579365777200E1     1.018752449859015E2    -4.320784965881496E-1   -1.759929710666712E2    -1.059259571995287E1    -9.021748663826449E1
                        -4.341123537573820E-1   -1.759210708546521E2    -2.993647134796215E1     8.462103375691591E1    -4.062701120866281E1    -1.314060507646803E2
                        -1.060139354116071E1    -9.015739159550728E1    -4.046166038919289E1    -1.305365079496534E2    -3.690685579034734E1     1.073191247874736E2

 1.026000000000000E9    -3.016338147898626E1     1.018834321413037E2    -4.354556267021253E-1   -1.761480486351031E2    -1.058759674343025E1    -9.028349701313491E1
                        -4.427546346424690E-1   -1.761026566204192E2    -2.989486643449784E1     8.472069539385608E1    -4.095797882146842E1    -1.331533497494850E2
                        -1.059345007147261E1    -9.031095484671023E1    -4.084543592846615E1    -1.325842505908287E2    -3.666390411594900E1     1.087126812679342E2

 1.027000000000000E9    -3.007303779543312E1     1.017454542606461E2    -4.312419619921276E-1   -1.763201724234559E2    -1.058195300597575E1    -9.045998814798429E1
                        -4.453916449551420E-1   -1.763142045887812E2    -2.999581163476332E1     8.336809585675655E1    -4.081620539545099E1    -1.322732413432223E2
                        -1.058096187958658E1    -9.055118627249034E1    -4.115758512321097E1    -1.293837665260690E2    -3.672116023651660E1     1.064678740213445E2

 1.028000000000000E9    -3.025378949204193E1     1.021103996478968E2    -4.278859215798839E-1   -1.764525837427808E2    -1.058142245103763E1    -9.072052259151198E1
                        -4.518976507777509E-1   -1.764619944776152E2    -2.985001780706176E1     8.425846989542674E1    -4.042062382963164E1    -1.341368234002783E2
                        -1.058936037324746E1    -9.070098804214068E1    -4.084552025349527E1    -1.310477636419217E2    -3.680115686003209E1     1.086214077489265E2

 1.029000000000000E9    -3.007443215994059E1     1.017786468822441E2    -4.375229837579479E-1   -1.766278657216030E2    -1.057006341647220E1    -9.083653487813149E1
                        -4.395414993926297E-1   -1.766274397364478E2    -2.984149283904991E1     8.455311707874024E1    -4.062800749364772E1    -1.310796468063644E2
                        -1.057151024252029E1    -9.088359761253442E1    -4.060645263716434E1    -1.346069886131733E2    -3.673481931405870E1     1.062900978526136E2

 1.030000000000000E9    -3.016130147689726E1     1.020886628759967E2    -4.382990272284484E-1   -1.767828450360584E2    -1.057478367286622E1    -9.105286205284914E1
                        -4.475521747578857E-1   -1.768222006432209E2    -2.988020532096890E1     8.375662550038629E1    -4.065743483765861E1    -1.353234542157002E2
                        -1.058432035904227E1    -9.110857932060333E1    -4.051387120984663E1    -1.324854158628581E2    -3.675189279380668E1     1.067704500723978E2

 1.031000000000000E9    -3.017358883994556E1     1.019215184425896E2    -4.360351249364052E-1   -1.769850497124671E2    -1.056089125957621E1    -9.126169957392369E1
                        -4.417443221540108E-1   -1.769688143535084E2    -2.987663190332044E1     8.239114060360342E1    -4.084171831009088E1    -1.324270645737837E2
                        -1.057153957214063E1    -9.119257136071387E1    -4.097886196565276E1    -1.345733068379882E2    -3.641687799021079E1     1.067508363589920E2

 1.032000000000000E9    -3.009976240377144E1     1.007838513387838E2    -4.364136957053371E-1   -1.771030160385570E2    -1.054883610394455E1    -9.142486841269313E1
                        -4.436241920600768E-1   -1.771417079817653E2    -2.990966373894463E1     8.303470136033154E1    -4.079750244542068E1    -1.331906827003778E2
                        -1.057423696219904E1    -9.138042781959736E1    -4.061305950207907E1    -1.314079348272215E2    -3.658505619647258E1     1.074390218596736E2

 1.033000000000000E9    -3.005525824792493E1     1.013017667193689E2    -4.440557465176265E-1   -1.772725057227196E2    -1.055222357084498E1    -9.156028038368743E1
                        -4.499125851216793E-1   -1.773094385679588E2    -2.974378065968581E1     8.290537687502916E1    -4.045267530707935E1    -1.315991733566880E2
                        -1.056708766017110E1    -9.153043369220713E1    -4.032762375711481E1    -1.335495508274646E2    -3.660840315005303E1     1.069147266885094E2

 1.034000000000000E9    -3.022989432731887E1     1.009341226669972E2    -4.389597685928771E-1   -1.774773226286985E2    -1.055386606641811E1    -9.176172842259739E1
                        -4.436616258127849E-1   -1.774717658426378E2    -2.987873369794391E1     8.260682500555636E1    -4.082155802892513E1    -1.327545025399940E2
                        -1.055685095755669E1    -9.171327274527931E1    -4.065977152597412E1    -1.341553819569442E2    -3.643572368377357E1     1.060618783458160E2

 1.035000000000000E9    -3.008375438712324E1     1.007906890698906E2    -4.364622742684707E-1   -1.776248719600350E2    -1.054866284273357E1    -9.197628844835892E1
                        -4.526594182863156E-1   -1.776982492380181E2    -2.980911141722761E1     8.305779994117459E1    -4.102147861372530E1    -1.335090217865387E2
                        -1.056004096624589E1    -9.182629210167451E1    -4.094147330844062E1    -1.341875808777477E2    -3.650603133382342E1     1.061098206406951E2

 1.036000000000000E9    -3.010768862094724E1     1.008562869204478E2    -4.376475343005835E-1   -1.778397743264901E2    -1.054785460013526E1    -9.208815663437090E1
                        -4.501474158081723E-1   -1.778115709661757E2    -2.972158834508709E1     8.121596283875437E1    -4.100777737414485E1    -1.386284525641570E2
                        -1.054313417750503E1    -9.209759991255601E1    -4.068654973400139E1    -1.346813258396153E2    -3.647750704083739E1     1.046075532362932E2

 1.037000000000000E9    -3.004884965653705E1     1.019825552241723E2    -4.341574472544474E-1   -1.780482854219903E2    -1.054859097711336E1    -9.218521952989919E1
                        -4.468348036190240E-1   -1.779852789266910E2    -2.978633727990973E1     8.183021053557012E1    -4.075402576079451E1    -1.348556060571125E2
                        -1.054331530834686E1    -9.221836234183814E1    -4.058508668508515E1    -1.370220795476808E2    -3.619252801090183E1     1.040032175675093E2

 1.038000000000000E9    -3.009238730806563E1     1.011845985250638E2    -4.409921735367773E-1   -1.781655903360329E2    -1.053761972824795E1    -9.241164280565603E1
                        -4.424291616665690E-1   -1.781699078678528E2    -2.978343016300389E1     8.099652460958308E1    -4.091632238748364E1    -1.347109345246851E2
                        -1.053483058782136E1    -9.247109057600633E1    -4.081097421180451E1    -1.353419270949192E2    -3.625090153284283E1     1.060729161012409E2

