#  HZ   S   DB   R     50.00 
! Rohde & Schwarz Vector Network Analyzer 
! Rohde-Schwarz,ZNB8-4Port,1311601044102961,2.82
! Created: UTC 3/4/2022, 3:42:02 PM
! freq[Hz]                db:S11                  ang:S11                 db:S12                  ang:S12                 db:S13                  ang:S13
!                         db:S21                  ang:S21                 db:S22                  ang:S22                 db:S23                  ang:S23
!                         db:S31                  ang:S31                 db:S32                  ang:S32                 db:S33                  ang:S33
! 
 1.000000000000000E9    -4.273777598661972E1     7.445480672580698E1    -2.617887290430374E-2   -1.694865359139345E2    -3.044989433204931E1    -8.624875371568109E1
                        -4.822523129746678E-2   -1.694889981007467E2    -4.079931568785680E1     1.436428132415355E2    -7.537641280361093E1     4.986394106789732E1
                        -3.050782185315673E1    -8.665032927443825E1    -7.465926277386457E1     5.519062412514541E1    -3.725759078969137E1     1.613691655730212E2

 1.001000000000000E9    -4.339650528281081E1     7.642779953450105E1    -3.152205644684416E-2   -1.696581487833100E2    -3.047952697775886E1    -8.707160580587222E1
                        -4.034847820830099E-2   -1.696514562024615E2    -4.072455080196333E1     1.453633662299353E2    -7.450241837688473E1     4.473857572611220E1
                        -3.050052120040271E1    -8.743713755070924E1    -7.608774456729958E1     5.765967926939422E1    -3.714913692205218E1     1.601997553263188E2

 1.002000000000000E9    -4.378471976059916E1     7.656328008631189E1    -3.332434900087902E-2   -1.698405891653856E2    -3.051520647264992E1    -8.708265025696403E1
                        -4.352573885902350E-2   -1.698055993842679E2    -4.103944187400622E1     1.483999859400722E2    -7.315372582312804E1     3.910241064986634E1
                        -3.043241253689248E1    -8.691516203307279E1    -7.449696974009444E1     3.820415779546922E1    -3.697236144088571E1     1.593179345528436E2

 1.003000000000000E9    -4.416383096678347E1     7.581222950537374E1    -3.209889213708782E-2   -1.700114681302836E2    -3.052000957711647E1    -8.725015716315438E1
                        -4.030940787421611E-2   -1.700031482629850E2    -4.052698569460809E1     1.414907692238330E2    -7.441088848532958E1     6.197631438606972E1
                        -3.048703460189296E1    -8.679205359602130E1    -7.541390079611733E1     4.885986200088244E1    -3.712410539220114E1     1.604266574381871E2

 1.004000000000000E9    -4.332893946683178E1     7.490699746243503E1    -2.991869309928258E-2   -1.701850112841755E2    -3.044323126842281E1    -8.738277284129597E1
                        -3.969399804427545E-2   -1.701332172427673E2    -4.025908563689800E1     1.436789144815486E2    -7.232520286768573E1     4.915907854066886E1
                        -3.058279125583511E1    -8.842146126529286E1    -7.358722722310068E1     4.519882985220718E1    -3.698815288889024E1     1.610076757521017E2

 1.005000000000000E9    -4.329940909020717E1     7.651257438959277E1    -2.296127015186968E-2   -1.703738481218931E2    -3.056647595483601E1    -8.779702037928115E1
                        -3.914253327784155E-2   -1.703504584124058E2    -4.066106801492884E1     1.416010052895074E2    -7.446614175384272E1     6.251614200982255E1
                        -3.050100608950407E1    -8.745020646612389E1    -7.384650051569639E1     4.158481864174426E1    -3.704272983755789E1     1.599822872919094E2

 1.006000000000000E9    -4.394507185194858E1     7.556330985478365E1    -2.695515383927068E-2   -1.704733071703368E2    -3.053561176761893E1    -8.786381211112945E1
                        -3.943539543432272E-2   -1.704869024407675E2    -4.046135271240544E1     1.422765803643528E2    -7.790527462426188E1     7.115600300106907E1
                        -3.048291332083969E1    -8.759926460248759E1    -7.355643595663790E1     5.982368784985744E1    -3.672179327451672E1     1.612115486509680E2

 1.007000000000000E9    -4.363935067310698E1     7.929631712845099E1    -3.314646726020145E-2   -1.706427000280146E2    -3.046133886272562E1    -8.751380489255406E1
                        -4.308676935192942E-2   -1.706683375519589E2    -4.073570429043230E1     1.426769011701661E2    -7.536499782294116E1     5.616671948701197E1
                        -3.049617875135994E1    -8.775328565178623E1    -7.447158166232272E1     6.272173384141311E1    -3.680414084436472E1     1.602375869854339E2

 1.008000000000000E9    -4.415302196823618E1     8.063714784580729E1    -2.782920417705615E-2   -1.708365372135048E2    -3.050312253543909E1    -8.807162207688756E1
                        -3.920181541499247E-2   -1.708666410189306E2    -4.047698054753824E1     1.444455053933821E2    -7.341446696421380E1     4.347977317160165E1
                        -3.050388310312626E1    -8.754223487648640E1    -7.385532265481959E1     5.448632188939713E1    -3.646892943055383E1     1.588995083729115E2

 1.009000000000000E9    -4.351893327158696E1     7.350845618225080E1    -3.066789779260046E-2   -1.709797979669780E2    -3.046830703316261E1    -8.834373822350561E1
                        -3.880613025011743E-2   -1.710176698882353E2    -4.043157399954113E1     1.398512040672648E2    -7.378919456215772E1     6.755022704020824E1
                        -3.052945391348638E1    -8.810722655682572E1    -7.401178767467867E1     5.754140611558299E1    -3.651948946325401E1     1.576333519600827E2

 1.010000000000000E9    -4.307846988530639E1     7.792983616515851E1    -3.543389758482580E-2   -1.711342705201687E2    -3.044094922005044E1    -8.861570604831735E1
                        -4.132974092286679E-2   -1.711970361839239E2    -4.115738678466093E1     1.398078200426433E2    -7.248377526234567E1     6.882517958360805E1
                        -3.048249248735495E1    -8.854894842168342E1    -7.340965571368388E1     5.782294951538130E1    -3.659014921665898E1     1.579354348695310E2

 1.011000000000000E9    -4.312159961765950E1     7.567708742633035E1    -2.926239273316714E-2   -1.713660495691129E2    -3.042541156478840E1    -8.861477174063573E1
                        -4.201370422315295E-2   -1.713455490155854E2    -4.054759157682449E1     1.410590798276264E2    -7.465289023624662E1     5.534210099190022E1
                        -3.044088728696701E1    -8.881728840608994E1    -7.473868594806478E1     4.846508896644794E1    -3.664221183211654E1     1.580955938187749E2

 1.012000000000000E9    -4.320290887806297E1     7.621638307169727E1    -3.762180875114907E-2   -1.715340673581432E2    -3.039717397158116E1    -8.874633616331437E1
                        -4.608966905072350E-2   -1.715091541332788E2    -4.086814943387029E1     1.371818665589155E2    -7.849319635606166E1     6.937445203158407E1
                        -3.040973437397224E1    -8.830600533301632E1    -7.845362866443746E1     4.308927718239309E1    -3.639277163333250E1     1.587370192004687E2

 1.013000000000000E9    -4.353059349124106E1     7.619034960314822E1    -3.737917515065800E-2   -1.716837096615307E2    -3.048276469748650E1    -8.910303351009401E1
                        -4.047017100937653E-2   -1.717392781860397E2    -4.043832703974612E1     1.400271181963936E2    -7.167402308996623E1     5.556421050017371E1
                        -3.045406958410542E1    -8.863965337246025E1    -7.486817326656282E1     5.053808446345074E1    -3.618758589627429E1     1.580151814374939E2

 1.014000000000000E9    -4.310631278797917E1     7.593744964062854E1    -2.866098376131718E-2   -1.718437683111850E2    -3.039316854194967E1    -8.898071386821694E1
                        -4.359442272390678E-2   -1.718599763307746E2    -4.042063457926865E1     1.392543411752389E2    -7.578302569506965E1     7.232359376084195E1
                        -3.037578495601137E1    -8.939572037570454E1    -7.323532129179989E1     4.852213192340563E1    -3.635090687103044E1     1.587127682642436E2

 1.015000000000000E9    -4.333767169211851E1     7.640386800845931E1    -3.267120810646041E-2   -1.720090092158312E2    -3.052041982332015E1    -8.859103292195832E1
                        -4.759753546678514E-2   -1.720204701685628E2    -4.082279928237863E1     1.403303421263099E2    -7.617372997061422E1     5.647018136643202E1
                        -3.039785781153249E1    -8.915401006855768E1    -7.393373101761526E1     5.572532854881690E1    -3.607830364427381E1     1.582821241716208E2

 1.016000000000000E9    -4.383727671247706E1     7.761576338315301E1    -3.119059389350941E-2   -1.722085731079710E2    -3.038057604297205E1    -8.997479943711518E1
                        -3.765978704207197E-2   -1.722215240719977E2    -4.069681445386591E1     1.370888960140944E2    -7.360522561450361E1     7.033514068318270E1
                        -3.031692086388598E1    -8.971539365961063E1    -7.512252545572935E1     5.579372945054420E1    -3.593873171374893E1     1.577038921376128E2

 1.017000000000000E9    -4.311573308140125E1     8.171446440643716E1    -3.402327504538624E-2   -1.723772955179149E2    -3.039767793407071E1    -9.021203927464148E1
                        -3.807763893400131E-2   -1.723839735974881E2    -4.040003226231861E1     1.386243337877502E2    -7.641805660167546E1     6.608715545044696E1
                        -3.040210730934683E1    -9.070957720502997E1    -7.461853919721474E1     5.589058626882183E1    -3.593882934165920E1     1.582592125882484E2

 1.018000000000000E9    -4.323406503996333E1     7.944451924154113E1    -3.423843991733880E-2   -1.725145030127086E2    -3.043021218921326E1    -9.008465726075356E1
                        -4.202166410352944E-2   -1.725376771111288E2    -4.102431246782105E1     1.388018073331149E2    -7.663788214097498E1     4.713622208971353E1
                        -3.047769500124866E1    -8.974216689591468E1    -7.778178736622562E1     4.474451615718432E1    -3.610770364350231E1     1.587917748840116E2

 1.019000000000000E9    -4.333015902985465E1     7.529550977152196E1    -3.184603389072323E-2   -1.727239450687254E2    -3.042288575347597E1    -8.947424136289449E1
                        -4.404540714332977E-2   -1.727512812555313E2    -4.038260993361347E1     1.381256046737010E2    -7.312709406782484E1     6.275538952076548E1
                        -3.049792056044557E1    -9.038578493850811E1    -7.717840105826348E1     7.553648787708772E1    -3.600121538487898E1     1.577016897814266E2

 1.020000000000000E9    -4.303843197602322E1     7.927470900493999E1    -3.254169194484459E-2   -1.728879161605913E2    -3.047732960346264E1    -9.049663960373646E1
                        -3.784779496821073E-2   -1.729268099309975E2    -4.051829614554451E1     1.342886064112903E2    -7.551827212890254E1     4.678767912108073E1
                        -3.049053630454187E1    -9.048972707859339E1    -7.460884642399259E1     5.884827204372233E1    -3.584136140659083E1     1.570062720572731E2

 1.021000000000000E9    -4.312600062216158E1     7.817340931111291E1    -3.547720509151672E-2   -1.730161332905333E2    -3.032059073874451E1    -8.977958442089411E1
                        -4.020954843957995E-2   -1.730558400916603E2    -4.069856404115939E1     1.378700048373144E2    -7.384818121963976E1     7.158444254901613E1
                        -3.039325410306708E1    -8.996215899564044E1    -7.250331604280147E1     7.104552849946508E1    -3.580190687044834E1     1.580703156231095E2

 1.022000000000000E9    -4.352050213986141E1     8.136898877258953E1    -3.649730227472688E-2   -1.732167564316568E2    -3.048895882699933E1    -8.962669586786466E1
                        -4.429097389891752E-2   -1.732116050656027E2    -4.028546827857685E1     1.370839456671988E2    -7.724690286622325E1     5.664082689914598E1
                        -3.039660003097415E1    -8.962728993996251E1    -7.486553947855467E1     5.947801260395298E1    -3.574436158701943E1     1.577901891600152E2

 1.023000000000000E9    -4.354488030867586E1     7.998794268378219E1    -2.850509887896226E-2   -1.733890638373885E2    -3.031630971590794E1    -9.105753657456081E1
                        -4.623198070213822E-2   -1.733897511651774E2    -4.064577080615688E1     1.350818551622512E2    -7.548528836125054E1     7.624722283400448E1
                        -3.033224245254361E1    -9.062405553516636E1    -7.383821026520668E1     6.520122495804263E1    -3.565864987131147E1     1.570246423805537E2

 1.024000000000000E9    -4.341230001269889E1     7.868364916620718E1    -3.470728639895355E-2   -1.735205321012433E2    -3.033168085066826E1    -9.121673970712841E1
                        -4.238663899146968E-2   -1.735428223286252E2    -4.062641713123757E1     1.362742671347229E2    -7.547600970186379E1     3.897109740374734E1
                        -3.034518563203621E1    -9.094244648712062E1    -7.320485124709235E1     5.598676648530471E1    -3.580146181538588E1     1.567390244370997E2

 1.025000000000000E9    -4.312120782604684E1     8.028886965269793E1    -3.859750008449774E-2   -1.737523529894638E2    -3.040590699279458E1    -9.047935860484419E1
                        -4.343148065195954E-2   -1.737013578398751E2    -4.093118996330252E1     1.348743082897072E2    -7.670770041766028E1     6.097312911279551E1
                        -3.047881725145695E1    -9.085915179280038E1    -7.187872453775560E1     5.618931871326553E1    -3.545401115164624E1     1.572512908280948E2

 1.026000000000000E9    -4.322664845024234E1     8.053841408870103E1    -2.961802782922166E-2   -1.739283579619778E2    -3.038634298550315E1    -9.192734509272762E1
                        -4.424042894237722E-2   -1.739036329706015E2    -4.064199660180542E1     1.361691548751518E2    -7.493401684156098E1     5.075901877535599E1
                        -3.035593027981873E1    -9.145336654876513E1    -7.398878689089185E1     6.252615298716184E1    -3.568777702863282E1     1.576537858461525E2

 1.027000000000000E9    -4.320009261256666E1     8.122738912740500E1    -2.727658294620377E-2   -1.740670337344804E2    -3.034482358483611E1    -9.121589811932779E1
                        -4.042598515246820E-2   -1.740959967431671E2    -4.080341314480361E1     1.349863280056852E2    -7.121729091701859E1     5.330606336186686E1
                        -3.048257434418606E1    -9.146506597884464E1    -7.466506297108700E1     5.889899857051498E1    -3.538149424409545E1     1.575658067760883E2

 1.028000000000000E9    -4.357608789635059E1     8.365028442755109E1    -2.965964634371367E-2   -1.742018469468432E2    -3.036156738652819E1    -9.100594291463513E1
                        -4.783422817170136E-2   -1.742257746481792E2    -4.084285074647659E1     1.326459073872865E2    -7.586890170504080E1     6.863851951505481E1
                        -3.052350678015026E1    -9.189100169355467E1    -7.559627444946443E1     7.089346019493239E1    -3.529115201585009E1     1.579933324431506E2

 1.029000000000000E9    -4.322090704021373E1     7.717662413123769E1    -3.184792731769395E-2   -1.743995996668608E2    -3.038772878754602E1    -9.165666949746550E1
                        -4.589359206381899E-2   -1.744251823016697E2    -4.110735460375295E1     1.354515509436089E2    -7.406759410825090E1     5.253339985438129E1
                        -3.037834597303087E1    -9.155206032767610E1    -7.359677971694370E1     6.239450780818772E1    -3.529739281043189E1     1.567061508251661E2

 1.030000000000000E9    -4.392057982940984E1     8.105814756449720E1    -3.419622015400446E-2   -1.745915795896623E2    -3.030143627479444E1    -9.209319799006154E1
                        -3.979078609310587E-2   -1.746173817901106E2    -4.100442518867872E1     1.341182828926239E2    -7.391033542183044E1     6.082968181691648E1
                        -3.028274011426654E1    -9.194454359520215E1    -7.314803746045240E1     6.324863704751082E1    -3.543037375762009E1     1.574506904255246E2

 1.031000000000000E9    -4.354422759072159E1     8.562082853125095E1    -3.167548424775823E-2   -1.747802301636766E2    -3.030391167404167E1    -9.250163654486967E1
                        -3.575035892975534E-2   -1.747649675475611E2    -4.139946576099366E1     1.337768849940692E2    -7.356298932252832E1     5.726190481277163E1
                        -3.035604356929676E1    -9.258327802303808E1    -7.343625592900872E1     5.393949941540862E1    -3.540901430095816E1     1.567290305328105E2

 1.032000000000000E9    -4.352490818530627E1     7.763714547471658E1    -3.474834521418165E-2   -1.748938721563755E2    -3.033144014954626E1    -9.221507111110178E1
                        -3.967356366911037E-2   -1.749271950992889E2    -4.099758258648460E1     1.364518198387001E2    -7.345935397381892E1     5.591760991733127E1
                        -3.030923806968403E1    -9.239322126174231E1    -7.431884186342728E1     4.594253787794499E1    -3.515331127237728E1     1.570035134392718E2

 1.033000000000000E9    -4.327195800061874E1     8.073779563278740E1    -3.366732148537432E-2   -1.751009119393231E2    -3.038025798064710E1    -9.242429891173322E1
                        -4.148215932935663E-2   -1.750779877177764E2    -4.026329110624012E1     1.332057141224863E2    -7.216700071745392E1     5.267276587506229E1
                        -3.038354231644640E1    -9.200070811274273E1    -7.376937370189823E1     5.176214897011852E1    -3.522327565333230E1     1.571366931125488E2

 1.034000000000000E9    -4.385641097251907E1     7.926082701633212E1    -3.199649978050027E-2   -1.752677850776655E2    -3.037894467855199E1    -9.290831270335890E1
                        -3.702100470079481E-2   -1.752628079957508E2    -4.109826521305733E1     1.308285403983915E2    -7.589656786191179E1     2.634335133994642E1
                        -3.024626713894452E1    -9.290249584780352E1    -7.404909349107066E1     4.821391791979638E1    -3.534789652901640E1     1.571611711757984E2

 1.035000000000000E9    -4.340380301069436E1     8.045434710891576E1    -3.357237589531122E-2   -1.754145734382487E2    -3.043470987478209E1    -9.232782962064327E1
                        -3.641063083231883E-2   -1.754164718717671E2    -4.132849434122952E1     1.331721367969584E2    -7.454495345523861E1     5.280483207937941E1
                        -3.034528010555242E1    -9.316085587636495E1    -7.711028663821000E1     4.575242507047476E1    -3.507912702682687E1     1.580200558627586E2

 1.036000000000000E9    -4.328349307383446E1     8.427520557836532E1    -3.367881767982837E-2   -1.755743405720054E2    -3.020915379788139E1    -9.280255307136879E1
                        -4.020603815469234E-2   -1.756136535423564E2    -4.135706674802314E1     1.290232660102631E2    -7.220826138401893E1     6.559613015538470E1
                        -3.039348217706423E1    -9.255434209469969E1    -7.416073964568811E1     7.352477001098221E1    -3.517919500312200E1     1.557889803780223E2

 1.037000000000000E9    -4.366828976937897E1     7.959629878571853E1    -3.443525950167405E-2   -1.757568067435024E2    -3.034882587309745E1    -9.315501015078506E1
                        -3.821963327821801E-2   -1.757658244058794E2    -4.133286602616109E1     1.331708876759457E2    -7.573730956800672E1     7.596473506932550E1
                        -3.033915247415840E1    -9.355700717772706E1    -7.395428936665473E1     5.377219767843796E1    -3.498166753409563E1     1.566922670689734E2

 1.038000000000000E9    -4.353592626932894E1     8.154945663329856E1    -3.234315007022722E-2   -1.759219888189055E2    -3.026211881895996E1    -9.349506246150634E1
                        -3.581159986511695E-2   -1.759670837508485E2    -4.141809597261462E1     1.307324723454044E2    -7.712173463493012E1     3.635821524686739E1
                        -3.017475747695285E1    -9.375653378958143E1    -7.440617962009773E1     6.162680979363785E1    -3.496320662742729E1     1.574804789220444E2

