#  HZ   S   DB   R     50.00 
! Rohde & Schwarz Vector Network Analyzer 
! Rohde-Schwarz,ZNB8-4Port,1311601044102961,2.82
! Created: UTC 3/4/2022, 3:39:58 PM
! freq[Hz]                db:S11                  ang:S11                 db:S12                  ang:S12                 db:S13                  ang:S13                 db:S14                  ang:S14
!                         db:S21                  ang:S21                 db:S22                  ang:S22                 db:S23                  ang:S23                 db:S24                  ang:S24
!                         db:S31                  ang:S31                 db:S32                  ang:S32                 db:S33                  ang:S33                 db:S34                  ang:S34
!                         db:S41                  ang:S41                 db:S42                  ang:S42                 db:S43                  ang:S43                 db:S44                  ang:S44
! 
 1.000000000000000E9    -2.764130609792787E1    -4.474580387601289E1    -3.288733721412124      -1.626952443472233E2    -2.836150437966815       1.094740183631787E2    -2.822885649628247E1     1.723495197583283E2
                        -3.302411859872647      -1.626334260807425E2    -2.908438112924964E1    -4.898444195857869E1    -2.747214316703558E1     1.724387008046880E2    -2.829638775962780       1.108224394858828E2
                        -2.839176472728252       1.094765287235693E2    -2.748750139930192E1     1.733453280593001E2    -2.914005081913542E1    -3.630264603844756E1    -3.277013094296840      -1.573212849053525E2
                        -2.816730473504024E1     1.726398776287005E2    -2.829815333195097       1.108168743660980E2    -3.276022833260298      -1.572807898582064E2    -2.899140981133114E1    -4.730448757461058E1

 1.001000000000000E9    -2.771765985228754E1    -4.560925604749080E1    -3.305473742658348      -1.628628022367989E2    -2.840199835165201       1.092424812899009E2    -2.818509441087840E1     1.721721820391193E2
                        -3.302538783026308      -1.628809704702894E2    -2.912673228088397E1    -4.909184228453830E1    -2.750281602929660E1     1.728916287867861E2    -2.824197164752377       1.106384201348331E2
                        -2.840623734014288       1.092103776182201E2    -2.754356241575109E1     1.731163613520885E2    -2.910242980392020E1    -3.634727396889909E1    -3.278148665555773      -1.574841472900934E2
                        -2.815516626593123E1     1.721227569681466E2    -2.827865676511078       1.106126215978048E2    -3.280922929598658      -1.575203367005351E2    -2.890117170826983E1    -4.727634406406121E1

 1.002000000000000E9    -2.766691809005546E1    -4.660311614984924E1    -3.293364504825073      -1.631019489840102E2    -2.841852973285113       1.090237177422973E2    -2.830547988647179E1     1.726221405562057E2
                        -3.302325288883629      -1.631373893551433E2    -2.916459599632895E1    -5.025804459794406E1    -2.751412168521179E1     1.735949445394773E2    -2.832564095514610       1.103705528615220E2
                        -2.846501658902377       1.089657408485733E2    -2.743528402848864E1     1.732542832067723E2    -2.915922839795427E1    -3.702427374864574E1    -3.282487528000050      -1.577595615500319E2
                        -2.830096189412297E1     1.717697620234968E2    -2.828456755184400       1.103577882922723E2    -3.287888694403190      -1.577482267200358E2    -2.895724111690369E1    -4.819568748317990E1

 1.003000000000000E9    -2.764331820422661E1    -4.628022755225050E1    -3.299266338397771      -1.633499946115510E2    -2.842271220193183       1.087534853912180E2    -2.824653820050170E1     1.721924844688419E2
                        -3.299205042148261      -1.633624273794933E2    -2.915014891805540E1    -5.025036705819181E1    -2.757832023691263E1     1.729173981995404E2    -2.832185757974026       1.100754530867920E2
                        -2.838284235356127       1.087857748544941E2    -2.749964943966065E1     1.733844078178144E2    -2.905043087665028E1    -3.672113686520190E1    -3.270865912958494      -1.580132039313880E2
                        -2.821388351297185E1     1.722657011511767E2    -2.827560178901155       1.101281679813527E2    -3.286363783549486      -1.579971686213431E2    -2.894577428559076E1    -4.877050636115035E1

 1.004000000000000E9    -2.769722264065794E1    -4.712404481820569E1    -3.290904857966704      -1.636375665002393E2    -2.836682906992834       1.085118665720692E2    -2.828014633474822E1     1.714589437873244E2
                        -3.303128051608850      -1.635945228383459E2    -2.918811755397803E1    -5.053359470299599E1    -2.759712548921384E1     1.730287054698734E2    -2.831798462630943       1.098640796874988E2
                        -2.844749432923539       1.085450583814709E2    -2.746735206465662E1     1.731913266083171E2    -2.910993913036683E1    -3.724600136876262E1    -3.281718770384591      -1.582388791317306E2
                        -2.828962449780641E1     1.716727204832973E2    -2.836913872079268       1.099117938884272E2    -3.278292717939146      -1.581845501218154E2    -2.880900224038546E1    -4.958184039847353E1

 1.005000000000000E9    -2.764576722723243E1    -4.675099755451560E1    -3.298865028416741      -1.638415760471471E2    -2.844750617873311       1.083274519178430E2    -2.820164039935798E1     1.715650287038460E2
                        -3.302639066364955      -1.638102603444653E2    -2.923102626455182E1    -5.063687324712576E1    -2.748039673658717E1     1.731099407520599E2    -2.835769061381097       1.096805347148329E2
                        -2.844870716293560       1.082901509360632E2    -2.743061852123496E1     1.727544611391312E2    -2.899967799852618E1    -3.789507675732501E1    -3.280042763249733      -1.584646418289188E2
                        -2.830385083767880E1     1.713338224746155E2    -2.836885900701897       1.096703525571934E2    -3.278557151265577      -1.584222071387858E2    -2.888191172233306E1    -5.044309742707920E1

 1.006000000000000E9    -2.767405447679957E1    -4.752453896528519E1    -3.298165586479344      -1.640631096608960E2    -2.845440465474991       1.080362449523951E2    -2.823918812608144E1     1.721169707286288E2
                        -3.295475060866159      -1.640734064598639E2    -2.922822256823582E1    -5.073314710427340E1    -2.743798523110386E1     1.732689519176168E2    -2.834127772717918       1.094224137898373E2
                        -2.840360763806866       1.080782793702951E2    -2.747419067037964E1     1.730080134963233E2    -2.898454108205971E1    -3.817564665390623E1    -3.275706853179630      -1.586717718461823E2
                        -2.825070030307778E1     1.716897976851623E2    -2.837028617994115       1.095015562098409E2    -3.274653622903883      -1.586749919771739E2    -2.870393330557814E1    -5.129920847772696E1

 1.007000000000000E9    -2.767611333688024E1    -4.746688752076464E1    -3.293895038505343      -1.643081248417764E2    -2.844947251003969       1.078477653262524E2    -2.822518977571868E1     1.713777631108682E2
                        -3.297096899494987      -1.642815925693127E2    -2.928504022194715E1    -5.186422834983727E1    -2.750950527179811E1     1.734141162869326E2    -2.839052046330824       1.092317631979797E2
                        -2.842967024610923       1.078194081292447E2    -2.751964508768539E1     1.734505146673008E2    -2.905548849490704E1    -3.823041618087875E1    -3.275054252092573      -1.588930513796432E2
                        -2.824836611446512E1     1.717696161719295E2    -2.836804709626518       1.092016396346557E2    -3.271367089627583      -1.588934282424081E2    -2.869666508459339E1    -5.215893166360444E1

 1.008000000000000E9    -2.767749314803128E1    -4.777704209828589E1    -3.293199254763662      -1.644850897120136E2    -2.848918907298215       1.075910747447336E2    -2.827760361031340E1     1.713647474940354E2
                        -3.296451510628682      -1.645449814835364E2    -2.917429544294035E1    -5.291035236422669E1    -2.742847584032970E1     1.730314703496894E2    -2.833976497632031       1.089825455423859E2
                        -2.845277885924976       1.075733968873152E2    -2.743039085813008E1     1.733219682969691E2    -2.893873977255730E1    -3.885058229009797E1    -3.274713078843590      -1.591482455689078E2
                        -2.830550628957059E1     1.708367606959300E2    -2.830483567833511       1.089601652171368E2    -3.272516091902959      -1.591475731663709E2    -2.858779176289634E1    -5.243711729161861E1

 1.009000000000000E9    -2.755007968293269E1    -4.806160417289921E1    -3.291605800788302      -1.647553153387641E2    -2.847633730111843       1.074087156338455E2    -2.823436094671362E1     1.711691203912540E2
                        -3.289834186099252      -1.647612863842030E2    -2.927679836311207E1    -5.322453308617223E1    -2.743918711100048E1     1.731150759336612E2    -2.837868298612481       1.087414241923048E2
                        -2.846732626473658       1.073553789497648E2    -2.739447743063826E1     1.727518626425631E2    -2.889636475345988E1    -3.882236697365883E1    -3.276509903046782      -1.593505081609269E2
                        -2.828941347110655E1     1.712519005299501E2    -2.834830498727244       1.087034031035518E2    -3.274351410140236      -1.593716086198181E2    -2.861781781677066E1    -5.321117506994563E1

 1.010000000000000E9    -2.770330560356369E1    -4.842030128063792E1    -3.293150538694503      -1.649708229757434E2    -2.840603306810334       1.070781642694533E2    -2.838876313983588E1     1.713194524921385E2
                        -3.291505331602525      -1.650148610031978E2    -2.921707151628907E1    -5.325438131423447E1    -2.755522980480283E1     1.729097061758594E2    -2.836906088637749       1.085175296232334E2
                        -2.850255976623743       1.071451964145944E2    -2.742964386375381E1     1.736284331721348E2    -2.890525151081928E1    -3.982955770566825E1    -3.271957707944940      -1.595679789903113E2
                        -2.828846350264388E1     1.709216450062995E2    -2.843437353397515       1.085303200413562E2    -3.273580268021617      -1.596150049318288E2    -2.850524907944897E1    -5.383766510492385E1

 1.011000000000000E9    -2.765288809541661E1    -4.839085180337330E1    -3.287545903370184      -1.652118291426069E2    -2.851806196816548       1.069343064377387E2    -2.825767729983966E1     1.710618586972593E2
                        -3.289954281471515      -1.652097327688242E2    -2.940287868745806E1    -5.387157678908144E1    -2.748208136417522E1     1.730015224675834E2    -2.848124514335486       1.082703372827785E2
                        -2.851194074561420       1.068764174973246E2    -2.747836686705337E1     1.736422889191119E2    -2.889594474353295E1    -3.956406326943581E1    -3.272391677123030      -1.598270017374605E2
                        -2.822776712807407E1     1.706398144377505E2    -2.838854132542955       1.083364437048210E2    -3.276066967196841      -1.598363962343184E2    -2.847090101366679E1    -5.471689041530522E1

 1.012000000000000E9    -2.764103582073237E1    -4.857388348575702E1    -3.293267008528019      -1.654993329793461E2    -2.851416963306885       1.066982467133505E2    -2.823051422048248E1     1.710121148512658E2
                        -3.286423301542266      -1.654817284092704E2    -2.939764843469479E1    -5.416825975738892E1    -2.740242831350916E1     1.730896799168686E2    -2.842653388406551       1.080344773756756E2
                        -2.854644528154713       1.066539822373839E2    -2.749614712136137E1     1.726097975127301E2    -2.882142911596161E1    -3.907944879398321E1    -3.267752336298305      -1.600836573098275E2
                        -2.825900650516998E1     1.708141911964947E2    -2.842749329209533       1.080329157156488E2    -3.269332352138450      -1.600637477310714E2    -2.845477458484818E1    -5.548645955661274E1

 1.013000000000000E9    -2.758707966182478E1    -4.936054509732242E1    -3.294814035149976      -1.656990607164651E2    -2.848155605206554       1.064371835892444E2    -2.825550130996104E1     1.702404192823727E2
                        -3.293386512968164      -1.657491548830107E2    -2.947638330024141E1    -5.430172898451233E1    -2.745783732256700E1     1.731933534899600E2    -2.835289889256780       1.078148998400725E2
                        -2.856592746192203       1.064541828376078E2    -2.742475487304559E1     1.729878501127803E2    -2.874974027793346E1    -4.026301261296840E1    -3.265607314489614      -1.602758023730326E2
                        -2.828299034034095E1     1.704361618229036E2    -2.846561545809832       1.078012989660532E2    -3.259635226861279      -1.602924856739433E2    -2.853659296515773E1    -5.563040556175958E1

 1.014000000000000E9    -2.755690763572908E1    -4.931034108741304E1    -3.292326535986491      -1.659427211777190E2    -2.852437112064195       1.062161735747161E2    -2.828350616075685E1     1.700278688660156E2
                        -3.289202185729284      -1.659628884057238E2    -2.931087921373017E1    -5.441914452373722E1    -2.742230919504737E1     1.729916228337206E2    -2.848373990176806       1.075558636503790E2
                        -2.854105635669281       1.061912419392515E2    -2.744108688100832E1     1.724699569685123E2    -2.883108199998128E1    -4.051091069544255E1    -3.276818284927050      -1.605291201016933E2
                        -2.831752855255689E1     1.698723540059321E2    -2.841795326276664       1.075856390417763E2    -3.264670367321376      -1.605218042371361E2    -2.829754893081395E1    -5.535265960819787E1

 1.015000000000000E9    -2.765143007207783E1    -4.932181601287107E1    -3.289343515684635      -1.661645959314717E2    -2.861102982344726       1.059857987697865E2    -2.822908355327058E1     1.703814490679022E2
                        -3.288279467645296      -1.661607536031310E2    -2.948594716172890E1    -5.511731854857780E1    -2.748132539185439E1     1.724457854035052E2    -2.846791677469547       1.073503562543970E2
                        -2.860590860588819       1.059675555207231E2    -2.738934618997775E1     1.727717806829317E2    -2.876563949622279E1    -4.111287310192974E1    -3.267430543653238      -1.607530892839313E2
                        -2.824895456323468E1     1.704078585291610E2    -2.837860046102056       1.073599080017589E2    -3.268957550046943      -1.607076675072477E2    -2.817868019748566E1    -5.635626143429409E1

 1.016000000000000E9    -2.758639071196021E1    -4.968790253488614E1    -3.283135426512165      -1.663714334693398E2    -2.856094916779843       1.057643785422677E2    -2.816040836272449E1     1.697027825744322E2
                        -3.288515789699498      -1.664380191074737E2    -2.947984122926651E1    -5.554403491400635E1    -2.740401274532687E1     1.723273075068434E2    -2.845803571913627       1.071013767425691E2
                        -2.854481906185438       1.057327506328063E2    -2.740744303379664E1     1.721553748537165E2    -2.874592385912832E1    -4.061917656021544E1    -3.266103599286555      -1.609839749390192E2
                        -2.818209938748982E1     1.697552024214579E2    -2.843749545000168       1.071080531130009E2    -3.269480353081109      -1.609975037865161E2    -2.810473680106469E1    -5.694472869396194E1

 1.017000000000000E9    -2.768858309020575E1    -5.058856743157359E1    -3.289182719346531      -1.666003755248166E2    -2.858411935843145       1.054990381147613E2    -2.823926347257043E1     1.699435690888252E2
                        -3.285934948827260      -1.666639425315342E2    -2.949613099523757E1    -5.540458205488013E1    -2.735457876880709E1     1.730277119617784E2    -2.844316923291255       1.068629508504718E2
                        -2.860371013773046       1.054887868959324E2    -2.738213732319902E1     1.718119550423145E2    -2.872698823561521E1    -4.133532727550597E1    -3.265612362895235      -1.612373929171220E2
                        -2.830304920839819E1     1.696638992242763E2    -2.854803361764106       1.069205456809394E2    -3.275075790172695      -1.612101256854934E2    -2.808179730879035E1    -5.686877461694865E1

 1.018000000000000E9    -2.757348989410502E1    -5.014913070024824E1    -3.284088495043209      -1.668801795910698E2    -2.860441160965746       1.052786351884839E2    -2.827210682764087E1     1.701096982045470E2
                        -3.288269748917449      -1.668668490098450E2    -2.937119269866081E1    -5.580045958417570E1    -2.740948679370252E1     1.722235498558229E2    -2.847894838502538       1.066672280072204E2
                        -2.853166138557934       1.052817051736399E2    -2.742870028521939E1     1.717048396197572E2    -2.879541093255211E1    -4.172481509992894E1    -3.263921130165550      -1.614772502992329E2
                        -2.824202323374717E1     1.692503665769274E2    -2.850662158202749       1.066512269103410E2    -3.268678643841771      -1.614870237951049E2    -2.800612993567411E1    -5.756598821165695E1

 1.019000000000000E9    -2.753415210020068E1    -5.011978381597620E1    -3.280533972819582      -1.670965164323072E2    -2.865737423489519       1.050401355402503E2    -2.827584924329737E1     1.694924203889111E2
                        -3.285933773612641      -1.671138125922810E2    -2.951800146620912E1    -5.631476846929014E1    -2.739241741691361E1     1.721464984493754E2    -2.849923004742441       1.064647323216441E2
                        -2.862001750445722       1.050558231184242E2    -2.730631498392825E1     1.721429885710491E2    -2.865749726765031E1    -4.205587684180641E1    -3.264401940103532      -1.616371530179943E2
                        -2.824504262158520E1     1.692511724312541E2    -2.848094802803691       1.064138142990124E2    -3.271047073708086      -1.616659843588112E2    -2.799119021069691E1    -5.740134700123572E1

 1.020000000000000E9    -2.756283184948219E1    -5.034125604703369E1    -3.279769171628388      -1.673331521382453E2    -2.856340091213207       1.048165508713010E2    -2.824075115738210E1     1.694255885940005E2
                        -3.277378635962148      -1.673625098081037E2    -2.961358656922551E1    -5.712342059509842E1    -2.735838227168379E1     1.715814072725739E2    -2.848840902120681       1.061700932834112E2
                        -2.860194916392857       1.047767017304769E2    -2.723393467059362E1     1.721962303891977E2    -2.866688790208123E1    -4.216262643936399E1    -3.268109122738925      -1.619017625068860E2
                        -2.819282148034834E1     1.684693294120570E2    -2.847478911582420       1.061828667460723E2    -3.265960205800171      -1.618978332834714E2    -2.786484398250951E1    -5.809600913766384E1

 1.021000000000000E9    -2.753848728460394E1    -5.098524425749363E1    -3.281693947669933      -1.675232780058558E2    -2.866412368822978       1.045914871312983E2    -2.823550257049167E1     1.689464825727769E2
                        -3.278889845493982      -1.675974666745232E2    -2.959248199251532E1    -5.645416694883079E1    -2.735054061866744E1     1.722466903946898E2    -2.852590939180915       1.059332367546408E2
                        -2.854801465180171       1.045614366476405E2    -2.733759074151845E1     1.725066202871371E2    -2.863674745375773E1    -4.209741886872945E1    -3.258256846184003      -1.621317695501163E2
                        -2.824290576431863E1     1.692434248946005E2    -2.855929971913426       1.059447370006086E2    -3.259636555252738      -1.621478847839632E2    -2.786497842873264E1    -5.848713466173025E1

 1.022000000000000E9    -2.756312189792780E1    -5.055201549038972E1    -3.286656792076722      -1.677754470407510E2    -2.862607334879636       1.043606964852478E2    -2.822794903259169E1     1.685523379189638E2
