#  HZ   S   DB   R     50.00 
! Rohde & Schwarz Vector Network Analyzer 
! Rohde-Schwarz,ZNB8-4Port,1311601044102961,2.82
! Created: UTC 3/4/2022, 3:51:17 PM
! freq[Hz]                db:S11                  ang:S11                 db:S21                  ang:S21                 db:S12                  ang:S12                 db:S22                  ang:S22
 1.000000000000000E9    -2.118946359456488E1     1.464731128668460E2    -6.338725252084558       1.214454428412876E2    -6.336559656552248       1.214617440216499E2    -2.484386613498084E1     1.056885066064780E1
 1.001000000000000E9    -2.122895915581328E1     1.456297137725592E2    -6.351572945268224       1.208671417898561E2    -6.342138836885800       1.208201646013266E2    -2.487848643781284E1     9.449129141008507
 1.002000000000000E9    -2.115618814320641E1     1.450749539912749E2    -6.348021427533696       1.202328007919154E2    -6.330989407242513       1.202533474698906E2    -2.490400918918801E1     9.343783414098741
 1.003000000000000E9    -2.117409311032081E1     1.448165633176069E2    -6.356809489676937       1.196798604556616E2    -6.338182672025939       1.196490410065803E2    -2.483050403523752E1     8.896124113430693
 1.004000000000000E9    -2.111871567508656E1     1.444174374373083E2    -6.339764921131300       1.191297320184065E2    -6.337073968186648       1.191133090924174E2    -2.488354723861013E1     7.989676726868011
 1.005000000000000E9    -2.113225318691112E1     1.439421454595610E2    -6.354442574754694       1.184483765387146E2    -6.340413707717987       1.184450186823870E2    -2.495857605643465E1     7.334524189810558
 1.006000000000000E9    -2.110929777079892E1     1.432794781426229E2    -6.356971979733372       1.178546132635387E2    -6.340458005611179       1.178912198299719E2    -2.493592272442411E1     6.483216304878639
 1.007000000000000E9    -2.109439880852035E1     1.428534651006617E2    -6.357285443013932       1.172759078451965E2    -6.346888131971383       1.173156659071853E2    -2.503337302508561E1     6.003576915508003
 1.008000000000000E9    -2.102703426927781E1     1.425993619073122E2    -6.354722507073146       1.166587017681733E2    -6.343215406674066       1.166832490050531E2    -2.499907114004444E1     5.462117009585469
 1.009000000000000E9    -2.109496300379785E1     1.418482642470857E2    -6.349324077055501       1.161112055519658E2    -6.341825518180971       1.160970477628163E2    -2.499458169019638E1     4.995247764386786
 1.010000000000000E9    -2.100532476552371E1     1.415613522765168E2    -6.361175427118836       1.154450355581591E2    -6.353380766423763       1.155150274341503E2    -2.505110155698525E1     4.385069923273671
 1.011000000000000E9    -2.101870721344102E1     1.412083166357043E2    -6.347419879000222       1.149061985681925E2    -6.346076136616655       1.149464844984510E2    -2.508485060518188E1     4.039493288387312
 1.012000000000000E9    -2.096254537933607E1     1.407478809177727E2    -6.355846272724578       1.143511689250240E2    -6.345215638358283       1.142818859107014E2    -2.513606955607877E1     3.339373688495713
 1.013000000000000E9    -2.098138778532873E1     1.404025724405432E2    -6.348831772053780       1.136800208370967E2    -6.344107198228130       1.136997914756568E2    -2.509538544346532E1     2.367869128176729
 1.014000000000000E9    -2.097555141812553E1     1.395870480792408E2    -6.352025052279994       1.130942793212625E2    -6.339856502905963       1.130748961697235E2    -2.519271749763252E1     1.847311088058116
 1.015000000000000E9    -2.094671733895961E1     1.393589537623703E2    -6.348003572305348       1.124815899728153E2    -6.347842533350159       1.124853219072920E2    -2.519396454028961E1     1.519585393617385
 1.016000000000000E9    -2.095792004156513E1     1.387964878761089E2    -6.356419841757744       1.118521738190419E2    -6.333273160999512       1.118789380952676E2    -2.519901364144550E1     3.624075345434455E-1
 1.017000000000000E9    -2.094482577581801E1     1.383423671943341E2    -6.354054095122526       1.113333406479372E2    -6.344081013506733       1.112973328759774E2    -2.519957210547021E1     4.584633098330079E-2
 1.018000000000000E9    -2.091037071393304E1     1.378699041451444E2    -6.351674180397071       1.107431943043605E2    -6.339036181193372       1.106277954464466E2    -2.532861175280888E1    -6.775385238169134E-1
 1.019000000000000E9    -2.092319961673376E1     1.375632837426155E2    -6.350078703099161       1.101052259194641E2    -6.336390706137738       1.101291317044845E2    -2.530397875502711E1    -6.293627185222523E-1
 1.020000000000000E9    -2.089089191780567E1     1.369982373833736E2    -6.352241343575812       1.094948652013937E2    -6.345453247103579       1.095038746520087E2    -2.535724797423307E1    -1.695790271632645
 1.021000000000000E9    -2.083116822222603E1     1.368549870038606E2    -6.359581902119055       1.089350670594698E2    -6.345953909705559       1.089350736309153E2    -2.541050620777358E1    -1.692363435899629
 1.022000000000000E9    -2.084673854558426E1     1.360505886063556E2    -6.344462285998351       1.083078518522348E2    -6.348099907536415       1.083134827259377E2    -2.534865748617248E1    -2.242793730948472
 1.023000000000000E9    -2.084394011940060E1     1.357281805064520E2    -6.359521305739305       1.076778002138272E2    -6.351778604492794       1.076952032679089E2    -2.544710902852152E1    -2.871956724524998
 1.024000000000000E9    -2.078739308161612E1     1.355000952615999E2    -6.354205701060050       1.070908593480712E2    -6.346669141272726       1.071098885034714E2    -2.548969225965938E1    -3.197953520360062
 1.025000000000000E9    -2.079527484461213E1     1.345412915691711E2    -6.356661647669991       1.065146080660383E2    -6.346131543454671       1.064883875317580E2    -2.555218092110473E1    -4.439162934527394
 1.026000000000000E9    -2.076344218780383E1     1.345112009305913E2    -6.357282333927252       1.058794023822063E2    -6.347860065224088       1.059019735732433E2    -2.558790245960268E1    -4.601284030328848
 1.027000000000000E9    -2.076173744400751E1     1.338894305254637E2    -6.358087390846369       1.053397135711434E2    -6.348552468754002       1.053220744341076E2    -2.566899031346848E1    -5.109583329386928
 1.028000000000000E9    -2.073794675236523E1     1.336628222923459E2    -6.358430632191072       1.047384132587061E2    -6.348450101949136       1.047545456040475E2    -2.563326701149047E1    -5.667700794152808
 1.029000000000000E9    -2.071305336934872E1     1.330151489382510E2    -6.351983885022991       1.041350207290417E2    -6.347051940591221       1.041038733108688E2    -2.570262836416760E1    -6.256757932684808
 1.030000000000000E9    -2.073019868851755E1     1.327232195831733E2    -6.351109076149047       1.035740629663597E2    -6.353412842091871       1.035281773921430E2    -2.571519565354391E1    -6.560727544787944
 1.031000000000000E9    -2.070402882904225E1     1.325113931386969E2    -6.353988929708100       1.029560368785256E2    -6.349255517080305       1.029356833227007E2    -2.575454888910950E1    -6.802606168928484
 1.032000000000000E9    -2.069072023557829E1     1.317200358575915E2    -6.362085562688488       1.023048239574857E2    -6.353039331579264       1.023126515566474E2    -2.574660037940943E1    -7.818699009963023
 1.033000000000000E9    -2.065984553967879E1     1.313933889246470E2    -6.352186859817016       1.017052369206196E2    -6.348133548188893       1.017291945175057E2    -2.587065180747437E1    -8.174429145243245
 1.034000000000000E9    -2.067883451874100E1     1.310175965045707E2    -6.367398520283638       1.011594827065869E2    -6.342477129555716       1.011512597708227E2    -2.588869521603747E1    -8.548274588297179
 1.035000000000000E9    -2.067010601786982E1     1.309217517114269E2    -6.354144627161144       1.004862161384690E2    -6.355013821325475       1.005630455546340E2    -2.602745221918491E1    -9.142915132997981
 1.036000000000000E9    -2.061865369613145E1     1.301834119700172E2    -6.363170332337582       9.990579045722646E1    -6.347485801138552       9.999710358392133E1    -2.606685532327003E1    -9.783347565235756
 1.037000000000000E9    -2.058777830584072E1     1.298140957238624E2    -6.363112073060975       9.927981841114922E1    -6.351397490278588       9.936712703019211E1    -2.607286813301475E1    -1.034464862911891E1
 1.038000000000000E9    -2.059221956940611E1     1.294415455482251E2    -6.345500079862815       9.873530342168213E1    -6.355146032334506       9.868192797564821E1    -2.620517083217404E1    -1.131881133061811E1
 1.039000000000000E9    -2.060010030796380E1     1.289875424946491E2    -6.361909680879823       9.814719795779908E1    -6.349787227739382       9.809815648280612E1    -2.614883395669310E1    -1.181006968393876E1
 1.040000000000000E9    -2.059091421598737E1     1.283204123136949E2    -6.362772382480324       9.757125050001510E1    -6.346738835107656       9.756759798927628E1    -2.625789610328404E1    -1.184865344853407E1
 1.041000000000000E9    -2.057739423017267E1     1.280823963014147E2    -6.356688443258860       9.692646647917871E1    -6.348954483955962       9.696278472955834E1    -2.632873921920408E1    -1.245147031813047E1
 1.042000000000000E9    -2.054789227108462E1     1.275733403385344E2    -6.365997035846847       9.630049356916462E1    -6.348954496774107       9.638496755144563E1    -2.638175755867962E1    -1.337588378642439E1
 1.043000000000000E9    -2.051192477132798E1     1.271457804062785E2    -6.355505993437122       9.574355270506808E1    -6.356623362437411       9.573247857490806E1    -2.653446627003471E1    -1.356694013225023E1
 1.044000000000000E9    -2.048745237051250E1     1.270663319491260E2    -6.361353080302498       9.515459855723221E1    -6.352263473451867       9.515578488445601E1    -2.658857252087195E1    -1.446771870440775E1
 1.045000000000000E9    -2.049056638969341E1     1.265452358645484E2    -6.353568140150284       9.458085415071587E1    -6.351508790434956       9.457251740110922E1    -2.659895003587061E1    -1.512026915088843E1
 1.046000000000000E9    -2.046189060707278E1     1.259892375173441E2    -6.354003506946485       9.395585481605842E1    -6.349410237850700       9.402539525732071E1    -2.665720355773669E1    -1.616772677595283E1
 1.047000000000000E9    -2.045113724044998E1     1.257083565359044E2    -6.362649174357466       9.333687416708341E1    -6.347841225605379       9.339503711414579E1    -2.674797714179457E1    -1.590441465833554E1
 1.048000000000000E9    -2.042301170138154E1     1.252773030866140E2    -6.362179918816915       9.274933850181881E1    -6.344804329644934       9.271963523169771E1    -2.680777424707513E1    -1.692376616935008E1
 1.049000000000000E9    -2.040027687924155E1     1.247978726270894E2    -6.363067767356130       9.221994560491824E1    -6.356247271888202       9.218847923507336E1    -2.686024023641059E1    -1.762123264031429E1
 1.050000000000000E9    -2.037571082993033E1     1.243345881514963E2    -6.365299443363699       9.162332081898587E1    -6.345214585719767       9.155192535480673E1    -2.701314421081992E1    -1.849918754226623E1
 1.051000000000000E9    -2.038499227624788E1     1.240530129035596E2    -6.359104252411805       9.100945675370267E1    -6.351421242004729       9.103114882318407E1    -2.709911303251213E1    -1.852395526804987E1
 1.052000000000000E9    -2.037869810480160E1     1.237839683649262E2    -6.357952420685225       9.035845237911711E1    -6.348448888215124       9.034902916530092E1    -2.719453688126270E1    -1.967333603414257E1
 1.053000000000000E9    -2.035417535423800E1     1.231151591849996E2    -6.364743747770826       8.977214603414120E1    -6.357822766762279       8.982188683822571E1    -2.723336817147214E1    -2.019362387301576E1
 1.054000000000000E9    -2.032389172244853E1     1.230454959700597E2    -6.350542984212506       8.916442857287744E1    -6.348239824033872       8.912389644329093E1    -2.734573254623150E1    -2.129613097284462E1
 1.055000000000000E9    -2.031719040109679E1     1.223516539453194E2    -6.352111038446878       8.857147167954054E1    -6.355185065569850       8.862148371841931E1    -2.738077523425358E1    -2.225191898868341E1
 1.056000000000000E9    -2.032149206753875E1     1.218631399652163E2    -6.364005657020874       8.800712532271473E1    -6.352275462207267       8.793622456632440E1    -2.750008778630971E1    -2.288235971974488E1
 1.057000000000000E9    -2.028488137168071E1     1.216048764672034E2    -6.364378583886562       8.738632693783572E1    -6.358282546980242       8.733880791266702E1    -2.756784012956895E1    -2.401374514679405E1
 1.058000000000000E9    -2.027296167901449E1     1.211774591581227E2    -6.353745311907614       8.677782680955070E1    -6.349547133855646       8.677818645391884E1    -2.772109965364821E1    -2.420482346270434E1
 1.059000000000000E9    -2.024190502969120E1     1.208239299292287E2    -6.371369204143033       8.615560535202246E1    -6.359536126447031       8.617907153553976E1    -2.773046411221575E1    -2.541697387843890E1
 1.060000000000000E9    -2.026206776445968E1     1.204611349641327E2    -6.362554718835019       8.554607567790986E1    -6.358618230980888       8.553234936403432E1    -2.778261100185527E1    -2.610448490612727E1
 1.061000000000000E9    -2.019518866931855E1     1.200550826134590E2    -6.356710947931172       8.499720015276274E1    -6.368328028149155       8.496887728562959E1    -2.796527327353025E1    -2.702073513902552E1
 1.062000000000000E9    -2.020485890921978E1     1.194753424620363E2    -6.360481690198884       8.439417059931968E1    -6.359178563727839       8.438920195341257E1    -2.799830667685420E1    -2.761503204827764E1
 1.063000000000000E9    -2.015620274688962E1     1.190984703853367E2    -6.360533991653782       8.376220549996114E1    -6.357523597752967       8.381871559244082E1    -2.806805587463867E1    -2.877006045751748E1
 1.064000000000000E9    -2.011234431651375E1     1.187068251187541E2    -6.362652656888876       8.322055308449374E1    -6.359766835926824       8.321480215674754E1    -2.812172735895784E1    -2.926427294441131E1
 1.065000000000000E9    -2.011870759393144E1     1.183028839480967E2    -6.358111562307693       8.261801160925003E1    -6.357027837433157       8.262224915426035E1    -2.825346355079057E1    -3.072260149262304E1
 1.066000000000000E9    -2.012710965761448E1     1.178214600731955E2    -6.362513586635222       8.202743267024528E1    -6.355033672755023       8.201197961802949E1    -2.829776738821955E1    -3.259121116185980E1
 1.067000000000000E9    -2.011881784061503E1     1.174852741793666E2    -6.362535907059792       8.142161838367230E1    -6.354922284336605       8.142945863721575E1    -2.840966317328426E1    -3.311923622098837E1
 1.068000000000000E9    -2.009416194658004E1     1.171156104264614E2    -6.370500780311586       8.074705692016956E1    -6.358773318367228       8.081709123109992E1    -2.848375931611253E1    -3.330836122329308E1
 1.069000000000000E9    -2.007487058626312E1     1.166259843044491E2    -6.366933941432540       8.014908804816295E1    -6.362670733538220       8.018849169190129E1    -2.853767655584505E1    -3.414762120999937E1
 1.070000000000000E9    -2.004326055445769E1     1.162277519870932E2    -6.371521706954031       7.956604767526707E1    -6.352805448005325       7.964140604110015E1    -2.862823459108633E1    -3.554298533368534E1
 1.071000000000000E9    -1.999958424615058E1     1.158315448758160E2    -6.365338271980413       7.899988685753557E1    -6.362351556765095       7.900153918351708E1    -2.861666141098790E1    -3.649597311205395E1
 1.072000000000000E9    -2.001415486828097E1     1.154921714608034E2    -6.363432317387896       7.841926859242352E1    -6.359352135542387       7.837689158994927E1    -2.869815150671676E1    -3.750511601996622E1
 1.073000000000000E9    -1.996587768988051E1     1.149910803897019E2    -6.363297967416751       7.777928239625797E1    -6.354737323706248       7.784839742022631E1    -2.876397637580244E1    -3.822311095930518E1
 1.074000000000000E9    -1.997660539618879E1     1.146100775107625E2    -6.358724210166918       7.720896559649766E1    -6.356872025183794       7.725643948702124E1    -2.884655436852251E1    -3.903806824213056E1
 1.075000000000000E9    -1.995806243033289E1     1.140424981199576E2    -6.360533163411758       7.665060566595939E1    -6.363281283152973       7.663732757457747E1    -2.893502046358053E1    -4.061976703494329E1
 1.076000000000000E9    -1.995583803911643E1     1.136549882810323E2    -6.364015422415962       7.603061349125764E1    -6.353354768689163       7.596362333149989E1    -2.896525903665295E1    -4.120373537882055E1
 1.077000000000000E9    -1.993952212724664E1     1.134484162744444E2    -6.361761938298058       7.543583019334152E1    -6.352573743354401       7.542686783186247E1    -2.913425566452798E1    -4.277835513188123E1
 1.078000000000000E9    -1.989018798757547E1     1.129476310344718E2    -6.366589586212587       7.483436977889282E1    -6.362575301160534       7.484554053872802E1    -2.899141135178355E1    -4.353569056958442E1
 1.079000000000000E9    -1.989757395129807E1     1.122803934843360E2    -6.366124514242305       7.419055900579097E1    -6.359601858760547       7.426559472097888E1    -2.915174779887565E1    -4.478975962654451E1
 1.080000000000000E9    -1.987757600615336E1     1.121802867729412E2    -6.367033869303961       7.362285710652796E1    -6.353548427716693       7.360592388911843E1    -2.924327413898048E1    -4.590378936696414E1
 1.081000000000000E9    -1.983889549550885E1     1.116317385789868E2    -6.363999709612616       7.306046644954954E1    -6.346224016567174       7.304776176226758E1    -2.927317424984192E1    -4.710447857624906E1
 1.082000000000000E9    -1.985425905909424E1     1.109786980016078E2    -6.361879562221711       7.249032122365836E1    -6.365456428201393       7.246883792450196E1    -2.928346043300828E1    -4.768486183739712E1
 1.083000000000000E9    -1.981512575850787E1     1.107771863090648E2    -6.368197443263202       7.185036155056328E1    -6.363849633511323       7.185362472679444E1    -2.949011601194665E1    -4.907335030958630E1
 1.084000000000000E9    -1.979972029976233E1     1.104255147205750E2    -6.370290790945083       7.122414097330309E1    -6.361292226154214       7.130044357329172E1    -2.955664130266145E1    -4.984612659719715E1
 1.085000000000000E9    -1.981295068288776E1     1.098948214508148E2    -6.371273360111815       7.065131013800446E1    -6.361735335111908       7.067434238672742E1    -2.949548715768596E1    -5.102364250169622E1
 1.086000000000000E9    -1.977547823016709E1     1.095189520987173E2    -6.363664060307103       7.002070551874309E1    -6.355453331482490       7.003509977633382E1    -2.956271536898704E1    -5.167264146683903E1
 1.087000000000000E9    -1.976547349190601E1     1.090163028219455E2    -6.354123591470903       6.944916249311488E1    -6.365221687059880       6.946884429607732E1    -2.960525597827786E1    -5.330208263142618E1
 1.088000000000000E9    -1.971670207876953E1     1.087239944563506E2    -6.372100930439631       6.885100170420540E1    -6.368802439810014       6.884226168752478E1    -2.975955189414175E1    -5.509143830131395E1
 1.089000000000000E9    -1.971989552841255E1     1.080265594140913E2    -6.368702517726010       6.818753532694993E1    -6.358131143381076       6.823207663489893E1    -2.969818622477486E1    -5.545907566442535E1
 1.090000000000000E9    -1.971369160799860E1     1.077949473066527E2    -6.372711469116920       6.765969242671035E1    -6.360971751306161       6.760742152334809E1    -2.966686061534691E1    -5.698163906937641E1
 1.091000000000000E9    -1.965424029055373E1     1.072182695967126E2    -6.368524800858751       6.703397379034487E1    -6.360976201430409       6.702772485842100E1    -2.967909867388942E1    -5.767606637545514E1
