#  HZ   S   DB   R     50.00 
! Rohde & Schwarz Vector Network Analyzer 
! Rohde-Schwarz,ZNB8-4Port,1311601044102961,2.82
! Created: UTC 3/4/2022, 3:51:53 PM
! freq[Hz]                db:S11                  ang:S11                 db:S21                  ang:S21                 db:S12                  ang:S12                 db:S22                  ang:S22
 1.000000000000000E9    -2.589012457180050E1     1.270444772518671E2    -9.392455079739042       1.237300682388377E2    -9.388961745225416       1.237284846872148E2    -2.067752139074650E1     4.474049137196105E1
 1.001000000000000E9    -2.591204450338652E1     1.267825269662701E2    -9.411140105965510       1.230778655458220E2    -9.399545890974148       1.232018492579298E2    -2.071853659402373E1     4.387580281972399E1
 1.002000000000000E9    -2.590027767990439E1     1.263333164259817E2    -9.407755210887599       1.225017614174333E2    -9.408109694565439       1.225383366580481E2    -2.069990459358936E1     4.343396190569978E1
 1.003000000000000E9    -2.589303659703310E1     1.258482163058301E2    -9.407259969639197       1.219875476445577E2    -9.389544758829448       1.219203440461225E2    -2.074847721300683E1     4.287198426020964E1
 1.004000000000000E9    -2.580950024221355E1     1.254200317811357E2    -9.407775315876558       1.213885665601170E2    -9.391064790980101       1.213894990671397E2    -2.073899139887910E1     4.235268483379900E1
 1.005000000000000E9    -2.581967723121169E1     1.251167273754677E2    -9.406570654243369       1.208287477171280E2    -9.390536417859345       1.206897777251424E2    -2.070609404460148E1     4.165135542170838E1
 1.006000000000000E9    -2.588798164879595E1     1.251647413452723E2    -9.392234711263841       1.201515759574286E2    -9.385741296411318       1.201130154041915E2    -2.074332139860063E1     4.092560021379700E1
 1.007000000000000E9    -2.577870437063618E1     1.245221613545809E2    -9.412754861285093       1.195439645234636E2    -9.390752211943719       1.195562056578809E2    -2.076888349620960E1     4.037948554566807E1
 1.008000000000000E9    -2.578542611266178E1     1.237786954377123E2    -9.402073607905159       1.189156221266340E2    -9.393928481438335       1.190139669055191E2    -2.076844609312265E1     3.996530623277781E1
 1.009000000000000E9    -2.573007705713070E1     1.236558638536119E2    -9.404426963616084       1.183894621376009E2    -9.393840820429173       1.184325486665313E2    -2.076942689094070E1     3.951997333166928E1
 1.010000000000000E9    -2.567319942558975E1     1.234806460883622E2    -9.406174740642184       1.177426272800363E2    -9.386690373244738       1.177569676398221E2    -2.082168892704072E1     3.876409409835226E1
 1.011000000000000E9    -2.565253066521661E1     1.226183787500214E2    -9.401302706849966       1.171462643259343E2    -9.394801812341632       1.171948726933749E2    -2.081038000308794E1     3.826495173941814E1
 1.012000000000000E9    -2.562651029263582E1     1.226477512969788E2    -9.401915209022780       1.166056691817942E2    -9.400388312800851       1.165931313327419E2    -2.078634489547108E1     3.781058437064195E1
 1.013000000000000E9    -2.564898942544695E1     1.221949488127043E2    -9.414565376065404       1.159734130604128E2    -9.394594595275166       1.159914449156619E2    -2.077813342398231E1     3.714034503757892E1
 1.014000000000000E9    -2.563136185179526E1     1.219279786339914E2    -9.417566335876073       1.153969069093751E2    -9.389012965346973       1.153364005143362E2    -2.079820182428240E1     3.664868941943105E1
 1.015000000000000E9    -2.553492000685747E1     1.213972899867944E2    -9.412425834283175       1.147298990517800E2    -9.394583927909061       1.148435974369806E2    -2.082475728684054E1     3.621332847239574E1
 1.016000000000000E9    -2.555491675211125E1     1.207241551328189E2    -9.395639706835418       1.141701448846438E2    -9.394992409971787       1.141886673102872E2    -2.080247776892790E1     3.555403095338541E1
 1.017000000000000E9    -2.553924071274425E1     1.203387910348244E2    -9.415496159448630       1.136023544251719E2    -9.397364997885548       1.136059664244425E2    -2.079406894846101E1     3.500391289394441E1
 1.018000000000000E9    -2.549691920988172E1     1.201562497436600E2    -9.406019524532351       1.129711869776570E2    -9.397560533709994       1.130291334695460E2    -2.085107000684308E1     3.441343634438697E1
 1.019000000000000E9    -2.549836096806654E1     1.197248056678110E2    -9.403447573235706       1.124086471501430E2    -9.396196764078763       1.124780483593742E2    -2.082130546580407E1     3.386333206341509E1
 1.020000000000000E9    -2.548545021494409E1     1.194373071575285E2    -9.406772128422338       1.118109650171505E2    -9.407422844186286       1.118586119471541E2    -2.086721817674351E1     3.327414896835180E1
 1.021000000000000E9    -2.543894211562186E1     1.187987093508062E2    -9.418681083260697       1.111634065064586E2    -9.407403469493481       1.112497550074514E2    -2.085943594422795E1     3.277476137235784E1
 1.022000000000000E9    -2.541778627156964E1     1.183258685868525E2    -9.405729286724077       1.106357527935198E2    -9.402674830042885       1.106677346026632E2    -2.082418027039704E1     3.266232891117362E1
 1.023000000000000E9    -2.538668131407182E1     1.180134837816915E2    -9.413240031607366       1.100843512423379E2    -9.393981439134862       1.100436238549457E2    -2.086593975803195E1     3.193096876957651E1
 1.024000000000000E9    -2.538921291355231E1     1.175736241827001E2    -9.404541543278281       1.094287005468758E2    -9.398848718542936       1.094555722104975E2    -2.090639399565375E1     3.158278597619954E1
 1.025000000000000E9    -2.534148531322695E1     1.175612308698947E2    -9.395843931394424       1.089176451007155E2    -9.400752841574700       1.088563051544746E2    -2.090421172972320E1     3.110189647100824E1
 1.026000000000000E9    -2.533859674950084E1     1.172665773599983E2    -9.409616767105206       1.082869155961843E2    -9.392944751597836       1.081923982929373E2    -2.093632115957595E1     3.052142184912588E1
 1.027000000000000E9    -2.536583322700604E1     1.169133301592638E2    -9.402534010572770       1.076082886233082E2    -9.398243676760222       1.076833116161387E2    -2.091860029957251E1     3.013316764520051E1
 1.028000000000000E9    -2.530160525239883E1     1.164494552640616E2    -9.415816435014344       1.070214212817750E2    -9.399452217815266       1.070220572709080E2    -2.091921512503025E1     2.943094018412075E1
 1.029000000000000E9    -2.524513436691422E1     1.158958445690212E2    -9.410968906853304       1.064709361058525E2    -9.391178748724862       1.064787629770589E2    -2.095647490393870E1     2.891196212447372E1
 1.030000000000000E9    -2.524251137070828E1     1.154921964045834E2    -9.409540442779523       1.057547545913597E2    -9.399064414174635       1.058586772798318E2    -2.093284643354282E1     2.855211884559073E1
 1.031000000000000E9    -2.526409997632173E1     1.148580190158583E2    -9.403582073251748       1.053148539370265E2    -9.401355233318556       1.053034010484522E2    -2.095905729555869E1     2.778930177269784E1
 1.032000000000000E9    -2.524777568141645E1     1.144300209595413E2    -9.408540032289888       1.046420711761604E2    -9.398242122303962       1.047142691583561E2    -2.099305570928339E1     2.743427918001661E1
 1.033000000000000E9    -2.520985244744838E1     1.143791260517616E2    -9.425804389766512       1.040516487551323E2    -9.416399989926067       1.040552595818269E2    -2.100276432356985E1     2.705373628078777E1
 1.034000000000000E9    -2.521309779089366E1     1.143218713078984E2    -9.400968992496519       1.034998062323422E2    -9.409288109087758       1.035422291430468E2    -2.103613866639897E1     2.662997322424249E1
 1.035000000000000E9    -2.516768443504234E1     1.138310624174219E2    -9.411781002724641       1.029220698449981E2    -9.402222834735191       1.029107699939713E2    -2.102581174103388E1     2.606168149274980E1
 1.036000000000000E9    -2.511066149848254E1     1.134942523492937E2    -9.411897648436622       1.022767381084127E2    -9.402686147119525       1.022429067380650E2    -2.105805721510438E1     2.562060697562934E1
 1.037000000000000E9    -2.510780178792673E1     1.129269914443684E2    -9.410775993758806       1.017453434896972E2    -9.405266665643900       1.017794796165275E2    -2.103700402302630E1     2.538225963639192E1
 1.038000000000000E9    -2.513127230163878E1     1.127598172764765E2    -9.403111074355859       1.011082089678458E2    -9.399489688505154       1.011016763072777E2    -2.108952031740666E1     2.460032127437482E1
 1.039000000000000E9    -2.505244641318016E1     1.127094814391708E2    -9.415280949809574       1.004885424605888E2    -9.406857732923680       1.005296209230137E2    -2.113459058364672E1     2.393684384909223E1
 1.040000000000000E9    -2.508732033623465E1     1.116823434672984E2    -9.417840515826114       9.981927699160576E1    -9.407425466275596       9.997524189389131E1    -2.110443355399140E1     2.373737564468445E1
 1.041000000000000E9    -2.502762716019090E1     1.118468696465708E2    -9.407710158716418       9.931887543526888E1    -9.397830810875282       9.933662893282175E1    -2.117845306412172E1     2.309849481031222E1
 1.042000000000000E9    -2.505001824928689E1     1.117113329924452E2    -9.413544221663406       9.870077303751482E1    -9.405136716960721       9.875115574356508E1    -2.117759951633277E1     2.270603937986998E1
 1.043000000000000E9    -2.500347494656332E1     1.108540600555759E2    -9.408214455744364       9.813888481130384E1    -9.401141403682487       9.812350264405465E1    -2.120191086327233E1     2.232120021195142E1
 1.044000000000000E9    -2.501510487625369E1     1.107488629756432E2    -9.405294119437288       9.744286870970707E1    -9.400247012112880       9.755526416436460E1    -2.123758324078650E1     2.176744828045894E1
 1.045000000000000E9    -2.500841886430912E1     1.100427463412768E2    -9.423340763726133       9.700195701659433E1    -9.406609497473481       9.692013373384755E1    -2.127827123212428E1     2.115178185116962E1
 1.046000000000000E9    -2.496286366391498E1     1.098422884524586E2    -9.412685084674408       9.630696942910339E1    -9.397908394000229       9.634546244127854E1    -2.132187092953302E1     2.082103998910892E1
 1.047000000000000E9    -2.494026259748907E1     1.095552783380638E2    -9.407590080748925       9.568445354649113E1    -9.398806892308190       9.571470045313654E1    -2.132797150323675E1     2.006755760436330E1
 1.048000000000000E9    -2.495505684477071E1     1.096417735558000E2    -9.415780094975395       9.521959091483296E1    -9.403084552496067       9.506194931135802E1    -2.136713103528017E1     1.971585962249686E1
 1.049000000000000E9    -2.494317489394390E1     1.088523571486391E2    -9.421795572003976       9.448576076960063E1    -9.403712191308152       9.453379885823945E1    -2.137952668894081E1     1.928423517016124E1
 1.050000000000000E9    -2.491608254217325E1     1.083238844512188E2    -9.415132478199590       9.403052866488652E1    -9.407066583271215       9.395768160740823E1    -2.142273132371611E1     1.885878223069524E1
 1.051000000000000E9    -2.484089011482399E1     1.082731231243280E2    -9.416435104441833       9.337152399696558E1    -9.397903562742316       9.337856568843019E1    -2.143848639715892E1     1.801256043703485E1
 1.052000000000000E9    -2.484436380498307E1     1.080459029189240E2    -9.416525980797935       9.278253007562010E1    -9.389464965565640       9.281660733170952E1    -2.144113170398029E1     1.776578257965104E1
 1.053000000000000E9    -2.484841311219467E1     1.076053151309995E2    -9.403347950445053       9.210089633576092E1    -9.404708415666519       9.216748913547059E1    -2.154216552049489E1     1.738851185059889E1
 1.054000000000000E9    -2.477631920558663E1     1.074607441513023E2    -9.408313910896053       9.161189441858117E1    -9.403709710136127       9.164961076022813E1    -2.151938180494688E1     1.670910043518349E1
 1.055000000000000E9    -2.478880891455741E1     1.072028562424273E2    -9.411956890837239       9.096754234641659E1    -9.406574132713855       9.100044717781371E1    -2.154204823221654E1     1.624303648825564E1
 1.056000000000000E9    -2.483447082746203E1     1.067326846998176E2    -9.419213807115565       9.042989124433753E1    -9.405824308473193       9.035356503470950E1    -2.160331771932820E1     1.541437582346796E1
 1.057000000000000E9    -2.470570258498768E1     1.059593633612104E2    -9.419210972293628       8.983687547233080E1    -9.412811309240844       8.985137390855176E1    -2.169159879690843E1     1.485707013155274E1
 1.058000000000000E9    -2.471184847004424E1     1.056974424465788E2    -9.416792753427872       8.923965856837648E1    -9.398444579306855       8.928573052275449E1    -2.171454636591248E1     1.431270937378112E1
 1.059000000000000E9    -2.475706006127066E1     1.057927220711575E2    -9.414120024351103       8.857766097400668E1    -9.416111015735622       8.857301174494661E1    -2.172272925094916E1     1.412827107993441E1
 1.060000000000000E9    -2.470618561930723E1     1.053016709542277E2    -9.414910431214230       8.802273205588656E1    -9.398875789970717       8.808614482011694E1    -2.173807987637833E1     1.331802547090881E1
 1.061000000000000E9    -2.469457998323924E1     1.047474157883334E2    -9.412139342760273       8.747087400346442E1    -9.397848020548047       8.742791061238540E1    -2.182368881195475E1     1.335921704649326E1
 1.062000000000000E9    -2.469213769031054E1     1.047191720904884E2    -9.414514038988655       8.679820523118364E1    -9.400673026793397       8.687394473335488E1    -2.184954989134944E1     1.213333687170608E1
 1.063000000000000E9    -2.466504441309370E1     1.042525046510910E2    -9.419955320978744       8.620075986157407E1    -9.410549184997528       8.624435819673356E1    -2.187210913669482E1     1.170722394301259E1
 1.064000000000000E9    -2.462091201513623E1     1.038541472809214E2    -9.401536120513260       8.561228294916880E1    -9.402601971540456       8.563690217554911E1    -2.194113879765073E1     1.117122811875592E1
 1.065000000000000E9    -2.465832244185060E1     1.033161707356803E2    -9.407433099750373       8.500470648628955E1    -9.405818219247884       8.501916534751918E1    -2.197771920950806E1     1.063855858892189E1
 1.066000000000000E9    -2.453378821486966E1     1.029773948124640E2    -9.416506280342908       8.446720068695171E1    -9.405718184389331       8.445801528948542E1    -2.197282796305960E1     9.861464090744933
 1.067000000000000E9    -2.458754055087353E1     1.027311920241355E2    -9.406367893355206       8.384556143384847E1    -9.407592355624420       8.391834431917528E1    -2.208513899208888E1     9.557891404830174
 1.068000000000000E9    -2.458694476814284E1     1.020664758954274E2    -9.405655990553068       8.330864454741662E1    -9.401752991990788       8.325094268383216E1    -2.210050028427386E1     8.467961041662212
 1.069000000000000E9    -2.457565736428791E1     1.021295991588195E2    -9.414655796705796       8.269483996603523E1    -9.394844308762202       8.262161768198202E1    -2.210215577054797E1     8.033386069208000
 1.070000000000000E9    -2.450793358230473E1     1.018388148188566E2    -9.409240390594626       8.201126744951604E1    -9.408052007757433       8.211115504085947E1    -2.211741472372184E1     7.647028946222421
 1.071000000000000E9    -2.444774697328410E1     1.011293987949422E2    -9.402906502582098       8.150228847780078E1    -9.401352601741023       8.144808096518860E1    -2.219267971131104E1     6.721686359658701
 1.072000000000000E9    -2.450078060350641E1     1.012205125237939E2    -9.412976982748628       8.081526294351829E1    -9.394904768374756       8.089703961396320E1    -2.222238863188022E1     6.547475069474463
 1.073000000000000E9    -2.443627859344577E1     1.004256757829678E2    -9.414780132344532       8.031294950329576E1    -9.400188876453903       8.024913301287086E1    -2.229032778738192E1     5.586776088145905
 1.074000000000000E9    -2.440206860842592E1     1.002730647232511E2    -9.402597163861541       7.971583937606954E1    -9.403042140323590       7.968978697242444E1    -2.231500262475262E1     4.879164943207909
 1.075000000000000E9    -2.443183070878195E1     1.001425793221518E2    -9.400645285466244       7.909842898305510E1    -9.394681586379583       7.902744449707774E1    -2.235070597619141E1     4.225395229252592
 1.076000000000000E9    -2.443249518609779E1     9.954959532046721E1    -9.414346894305357       7.846739393123403E1    -9.394466284770932       7.846693781766123E1    -2.238926112378595E1     3.477467698057798
 1.077000000000000E9    -2.439062698114205E1     9.972924973863239E1    -9.406748652085618       7.788404847742891E1    -9.408655846685903       7.789502288297160E1    -2.246243830925842E1     2.804985084008007
 1.078000000000000E9    -2.435561580616925E1     9.893421934520558E1    -9.410207384270787       7.726994368704870E1    -9.398381808063741       7.728883940987981E1    -2.240102145131009E1     2.353808719816474
 1.079000000000000E9    -2.441041595939085E1     9.832218112295487E1    -9.414953463499794       7.670642727658041E1    -9.398058925999344       7.673381680898676E1    -2.247791351313206E1     1.810003130308540
 1.080000000000000E9    -2.432133714516315E1     9.827156254702351E1    -9.404411108244238       7.613735335518877E1    -9.400419804214259       7.613165689675932E1    -2.255337281179048E1     9.771073289997602E-1
 1.081000000000000E9    -2.429987403239862E1     9.792890240304581E1    -9.411621969645573       7.551510266219022E1    -9.398127850003865       7.551912331421055E1    -2.257812996248870E1     2.053859921472500E-1
 1.082000000000000E9    -2.436079326553227E1     9.718747925419498E1    -9.416776508484841       7.491827447743732E1    -9.407362309442467       7.493769906951209E1    -2.265921370146433E1    -2.772425853848163E-1
 1.083000000000000E9    -2.422037089094440E1     9.706147142549131E1    -9.411199675756247       7.436718178215534E1    -9.404994197655592       7.433145395197128E1    -2.261982980021482E1    -1.146383561193144
 1.084000000000000E9    -2.426098471038323E1     9.684819747893221E1    -9.411342960888153       7.375243498141565E1    -9.403657034283746       7.375299945901931E1    -2.273846957666157E1    -1.671243883564928
 1.085000000000000E9    -2.420708445106749E1     9.674334334761645E1    -9.402924307382849       7.311429293604557E1    -9.407023218069572       7.316518140138393E1    -2.268535698373820E1    -2.329279097380162
 1.086000000000000E9    -2.422740955340171E1     9.660052243484033E1    -9.416814508572287       7.250265248860154E1    -9.403279790510219       7.264075236767376E1    -2.276305497432107E1    -2.998502274554336
 1.087000000000000E9    -2.419023581308958E1     9.543162058256674E1    -9.404381553452136       7.190061473404576E1    -9.404651022160607       7.195394186926012E1    -2.277815928993413E1    -3.524739820400854
 1.088000000000000E9    -2.414408208998484E1     9.497652633525932E1    -9.411312148246594       7.131826600848780E1    -9.399317991830507       7.133418031594042E1    -2.278905092835086E1    -4.646763565017934
 1.089000000000000E9    -2.419733743239249E1     9.483688247511589E1    -9.414200933006779       7.067250290565082E1    -9.393197442335993       7.073524174888910E1    -2.289249406883757E1    -5.159801031130066
 1.090000000000000E9    -2.417146000782456E1     9.458458269526503E1    -9.418666895966556       7.010936338635251E1    -9.407163275538693       7.012451549044044E1    -2.285386220019920E1    -6.060698846999823
 1.091000000000000E9    -2.409199125242154E1     9.435975325256970E1    -9.426816354748754       6.951787106816379E1    -9.413503876095703       6.960402378433476E1    -2.294030353033628E1    -6.572478193532402
