#  HZ   S   DB   R     50.00 
! Rohde & Schwarz Vector Network Analyzer 
! Rohde-Schwarz,ZNB8-4Port,1311601044102961,2.82
! Created: UTC 3/4/2022, 3:50:14 PM
! freq[Hz]                db:S11                  ang:S11                 db:S21                  ang:S21                 db:S12                  ang:S12                 db:S22                  ang:S22
 1.000000000000000E9    -2.614591113632434E1     7.103592939295753E1    -2.242559807809863       1.207738669112863E2    -2.229892830115402       1.207765102765211E2    -2.556689427325658E1     7.450135474389139
 1.001000000000000E9    -2.611901774817489E1     7.064452982096955E1    -2.235645172149564       1.201523759600623E2    -2.228161814428848       1.201582726229280E2    -2.558563856563040E1     7.131803882749138
 1.002000000000000E9    -2.614188697254745E1     7.049224872019688E1    -2.243766134149620       1.195715231133334E2    -2.232500261859192       1.195509929076803E2    -2.561037558958347E1     6.412207530832522
 1.003000000000000E9    -2.616659186263994E1     7.009014504197236E1    -2.246906497901288       1.189560172343845E2    -2.233213977605431       1.189908725685499E2    -2.563703363358812E1     5.776774728355406
 1.004000000000000E9    -2.620947618936437E1     6.946855293217540E1    -2.243114176744726       1.183663293392170E2    -2.233968493585099       1.183128833972824E2    -2.567258463311287E1     5.188465869124599
 1.005000000000000E9    -2.622620376472902E1     6.927958481699227E1    -2.243995232995956       1.177451292867013E2    -2.238779683235884       1.177801955016145E2    -2.566112722778547E1     4.346104446698800
 1.006000000000000E9    -2.624101208811429E1     6.868840653591890E1    -2.247802310750867       1.171376582749641E2    -2.233583999909073       1.171678905003842E2    -2.570851750415375E1     3.392194420462782
 1.007000000000000E9    -2.626976363182970E1     6.841809696173525E1    -2.241364038302152       1.165559053241661E2    -2.232453357789355       1.165648235694669E2    -2.572943559780997E1     2.589110888059819
 1.008000000000000E9    -2.626574433267843E1     6.815811929727809E1    -2.237840807466876       1.159931987102258E2    -2.233064566817784       1.159937817670276E2    -2.578204788956752E1     2.573487411614456
 1.009000000000000E9    -2.631527796960905E1     6.829287760971278E1    -2.245560146692286       1.153869817707784E2    -2.238667298226556       1.153721892734480E2    -2.583613838113728E1     2.223878559875075
 1.010000000000000E9    -2.632808480211624E1     6.751474249149969E1    -2.248892760774757       1.147730832454281E2    -2.228221755893116       1.147973107329812E2    -2.590023949320332E1     7.046135909049521E-1
 1.011000000000000E9    -2.634075862238796E1     6.723469823924221E1    -2.247684759290930       1.141738156043080E2    -2.235530344864927       1.141814678614994E2    -2.593633065716736E1     3.074421354981403E-1
 1.012000000000000E9    -2.641314869307485E1     6.745413753040319E1    -2.248229900128037       1.135731916464490E2    -2.231830417455222       1.135540615521818E2    -2.590319738387516E1    -5.306552021837497E-1
 1.013000000000000E9    -2.644954973491684E1     6.633686772009327E1    -2.249656941280190       1.129997146837330E2    -2.239456574496359       1.129894912940021E2    -2.594274084347597E1    -5.978544559110183E-1
 1.014000000000000E9    -2.641431420231220E1     6.588804346034672E1    -2.238258312286852       1.123917463786936E2    -2.234935094415240       1.124075647834892E2    -2.595931314786236E1    -1.817625273474290
 1.015000000000000E9    -2.642168867018072E1     6.583722032006611E1    -2.245362811094922       1.118178472351494E2    -2.236908032228071       1.117135526730750E2    -2.600817807081246E1    -2.453064140032212
 1.016000000000000E9    -2.648414056325669E1     6.541964791952951E1    -2.241434176390005       1.111437232983424E2    -2.238644263723246       1.111978165013235E2    -2.612770198394887E1    -2.996128449837079
 1.017000000000000E9    -2.644904682366459E1     6.489696299646973E1    -2.240262133688187       1.105520227739617E2    -2.234463832839023       1.105806189245048E2    -2.605062382006492E1    -3.543986068222776
 1.018000000000000E9    -2.650640848459733E1     6.450835528792463E1    -2.252447315328971       1.099812025448970E2    -2.233202010983989       1.099417873014551E2    -2.615460605107619E1    -4.282935191374994
 1.019000000000000E9    -2.658972543980401E1     6.388260227775525E1    -2.243555994417493       1.093781494568942E2    -2.236145559449237       1.094085892228197E2    -2.615095705118348E1    -5.031241618585237
 1.020000000000000E9    -2.658535801214121E1     6.385541504458728E1    -2.236676298593664       1.088068477918001E2    -2.236521458102510       1.088124380781119E2    -2.630495447053086E1    -5.667969043069910
 1.021000000000000E9    -2.663603851304578E1     6.345503444419668E1    -2.242849264710014       1.081711490464693E2    -2.228437253503316       1.082184421023133E2    -2.632993482858241E1    -5.487757202470720
 1.022000000000000E9    -2.659495892550539E1     6.324737253539131E1    -2.247193116102819       1.075950352236416E2    -2.233796810625344       1.076065679282116E2    -2.635151123567929E1    -5.980430119101041
 1.023000000000000E9    -2.668268737435465E1     6.239332608975609E1    -2.244758427376512       1.070327809865777E2    -2.233646255519267       1.070105859833037E2    -2.638261597078649E1    -7.487161006781923
 1.024000000000000E9    -2.672887952277911E1     6.211604576177449E1    -2.238110555032826       1.063811373147098E2    -2.241640804349964       1.064298650015126E2    -2.642075177674465E1    -7.755426545256039
 1.025000000000000E9    -2.672949495517795E1     6.199160660685430E1    -2.243909286956918       1.058376572959388E2    -2.236010579337044       1.057936151422530E2    -2.655226456563728E1    -8.004513413316454
 1.026000000000000E9    -2.681266647418492E1     6.139708901232601E1    -2.248549973356226       1.051969062077591E2    -2.233899915453876       1.052057192697928E2    -2.660944489798261E1    -8.957679762499257
 1.027000000000000E9    -2.679023545986630E1     6.123692514200930E1    -2.241359913655902       1.045758735545036E2    -2.235355596890351       1.045748517455867E2    -2.664239833242975E1    -9.663025774176685
 1.028000000000000E9    -2.681941850308496E1     6.101067711843123E1    -2.248844237197309       1.039637946530184E2    -2.233053852649302       1.039895086725415E2    -2.668018270784916E1    -1.023769297611139E1
 1.029000000000000E9    -2.686453962470086E1     6.066955534418101E1    -2.247044747291508       1.033686573307323E2    -2.239410451285255       1.034016865028259E2    -2.667570240055811E1    -9.818289437216643
 1.030000000000000E9    -2.694264117969615E1     6.007538916257720E1    -2.244830942887525       1.027762668881641E2    -2.236969290187105       1.027923381859496E2    -2.680429059757840E1    -1.099244595495479E1
 1.031000000000000E9    -2.692322936880794E1     6.019004948982776E1    -2.240474029978360       1.021625308880360E2    -2.235236380690432       1.022130578435866E2    -2.696566825094153E1    -1.204038976811836E1
 1.032000000000000E9    -2.704918866188189E1     5.969710435527507E1    -2.241503339563625       1.016010283329879E2    -2.233856692802448       1.016073394590777E2    -2.697671107674794E1    -1.200522070513641E1
 1.033000000000000E9    -2.704018441849891E1     5.921036351489610E1    -2.248063679970724       1.009860860384800E2    -2.239464167945382       1.009729738248215E2    -2.699966043973154E1    -1.318023495238289E1
 1.034000000000000E9    -2.711918911527020E1     5.964924975575181E1    -2.243500134978063       1.003638522380389E2    -2.240061963283099       1.003756712869142E2    -2.712217051691848E1    -1.369128604664916E1
 1.035000000000000E9    -2.712535711793732E1     5.931879844815071E1    -2.243809932214577       9.979840256022533E1    -2.229498243746706       9.981733548161645E1    -2.716936620665008E1    -1.397935209643252E1
 1.036000000000000E9    -2.720463367561653E1     5.841932444516862E1    -2.249431956688753       9.924568074658863E1    -2.243042310760933       9.920443607308430E1    -2.728417564411118E1    -1.518220226346485E1
 1.037000000000000E9    -2.725642988611585E1     5.834935688925496E1    -2.246674709715098       9.859311627851564E1    -2.238138579050351       9.862327286113656E1    -2.737366687379442E1    -1.547760048701762E1
 1.038000000000000E9    -2.726109993194654E1     5.789947497546021E1    -2.241604981262282       9.801601372617635E1    -2.234828815867398       9.798854530020400E1    -2.746008033193310E1    -1.672608105114060E1
 1.039000000000000E9    -2.738063038703052E1     5.734971033944123E1    -2.246713618664886       9.738372735259289E1    -2.234951550498212       9.738469980227332E1    -2.751754111822738E1    -1.617353321170358E1
 1.040000000000000E9    -2.738202833209282E1     5.711385193419631E1    -2.242798690717027       9.677763262750881E1    -2.237260583165186       9.683065921960203E1    -2.758189714494424E1    -1.741819388111473E1
 1.041000000000000E9    -2.751646841272715E1     5.746232037898243E1    -2.238660865825789       9.622334808341307E1    -2.237681397252446       9.622116186763704E1    -2.775269078105150E1    -1.807851593577804E1
 1.042000000000000E9    -2.744168159294436E1     5.727280106572106E1    -2.245829742906861       9.558785204774253E1    -2.232628655981248       9.558984159385231E1    -2.776584864634655E1    -1.878108026690714E1
 1.043000000000000E9    -2.760588731527818E1     5.668347707249625E1    -2.242524857313110       9.505005689111816E1    -2.243386443447820       9.497285590499061E1    -2.790918489119808E1    -1.901387191830677E1
 1.044000000000000E9    -2.769758983400749E1     5.712128075748109E1    -2.245353915130683       9.437565180556504E1    -2.241725068467614       9.441733599476650E1    -2.794375428444221E1    -2.015063064450111E1
 1.045000000000000E9    -2.768467274308310E1     5.627279664363998E1    -2.243246643869447       9.382654915496347E1    -2.238503429498060       9.380175597575949E1    -2.807886682632676E1    -2.087173811353839E1
 1.046000000000000E9    -2.775740796668384E1     5.642748648407052E1    -2.250924895631107       9.319577939816118E1    -2.236049140782383       9.320623540779984E1    -2.829475848592541E1    -2.165944653169122E1
 1.047000000000000E9    -2.774411567895955E1     5.616444459058241E1    -2.247673439576036       9.257226906096383E1    -2.234798338497289       9.261189893939638E1    -2.829664005191353E1    -2.238318725516829E1
 1.048000000000000E9    -2.780553443702782E1     5.596777411234002E1    -2.247048878356593       9.199903388177810E1    -2.234093372565355       9.203048337642406E1    -2.845460246865674E1    -2.332130269077337E1
 1.049000000000000E9    -2.784259593048066E1     5.559984615223864E1    -2.242735243155456       9.138642958420427E1    -2.237745568515553       9.143423160062181E1    -2.841502489543035E1    -2.313906659292395E1
 1.050000000000000E9    -2.797001569538960E1     5.625352227317763E1    -2.242832478146343       9.087027295310082E1    -2.238289778701573       9.078989886362457E1    -2.871697767100504E1    -2.457702121860144E1
 1.051000000000000E9    -2.797027017124058E1     5.607776890424773E1    -2.249115818400925       9.023120017036455E1    -2.235083924774300       9.021043140900284E1    -2.874121235668455E1    -2.524365183791540E1
 1.052000000000000E9    -2.806110188429529E1     5.600583076599569E1    -2.248348427504343       8.960389896054281E1    -2.238998758669822       8.960263699229220E1    -2.888505093382470E1    -2.646490036477733E1
 1.053000000000000E9    -2.803631686387557E1     5.592141195687185E1    -2.239657569371445       8.900659741853659E1    -2.237628071847875       8.900976409263936E1    -2.906477552113761E1    -2.751722520170662E1
 1.054000000000000E9    -2.813973569142946E1     5.561437325007095E1    -2.244195661711688       8.837591087203384E1    -2.234865939711388       8.844791033821252E1    -2.918136259571907E1    -2.801280183518896E1
 1.055000000000000E9    -2.817085143444094E1     5.538989717146276E1    -2.241413839407359       8.778610177697026E1    -2.236602710552234       8.779377834401088E1    -2.921998935306959E1    -2.967990027424437E1
 1.056000000000000E9    -2.822758123542857E1     5.566234298427219E1    -2.252662072564765       8.722441866959927E1    -2.234903640311273       8.717696957314659E1    -2.912890319089333E1    -2.940596174824089E1
 1.057000000000000E9    -2.822274953518205E1     5.545816566655311E1    -2.248674626711659       8.659285713335761E1    -2.236478050563815       8.662177421798677E1    -2.942521297109187E1    -3.074080243777456E1
 1.058000000000000E9    -2.832642336928836E1     5.590907636589601E1    -2.237397560002107       8.604094230998236E1    -2.236195115176647       8.599915188929073E1    -2.946713577087346E1    -3.249503729322473E1
 1.059000000000000E9    -2.839078346337740E1     5.575084015672118E1    -2.250211544673848       8.539780634808047E1    -2.239441123970393       8.540941077993439E1    -2.957273518679148E1    -3.280082956336094E1
 1.060000000000000E9    -2.830510766262245E1     5.572639330554180E1    -2.242716686228750       8.481044458775045E1    -2.243277495379304       8.487955371865949E1    -2.978342432498816E1    -3.339688435412659E1
 1.061000000000000E9    -2.836978626700595E1     5.579645366494518E1    -2.243051107657528       8.418127366490471E1    -2.236906020023213       8.424679514565594E1    -2.986454839992295E1    -3.475700368028151E1
 1.062000000000000E9    -2.845442906393849E1     5.603946318742324E1    -2.247814171362577       8.361838434727360E1    -2.240531371941876       8.366766011256922E1    -2.996545707705153E1    -3.631648783075563E1
 1.063000000000000E9    -2.846478584557060E1     5.601887333706193E1    -2.245252558021026       8.301952597117594E1    -2.235987749555536       8.297805501524360E1    -3.013543643087633E1    -3.739566201526610E1
 1.064000000000000E9    -2.856404402968344E1     5.602819627515498E1    -2.242975599936962       8.241769015475801E1    -2.237467584237368       8.237685988908386E1    -3.031406091133058E1    -3.840048685127562E1
 1.065000000000000E9    -2.864729482735393E1     5.597446698982507E1    -2.243582042453248       8.183802724996589E1    -2.230680252639720       8.182947624079500E1    -3.040111333650721E1    -3.963414132427447E1
 1.066000000000000E9    -2.858497908286273E1     5.626085119262821E1    -2.242014570126219       8.121716216957279E1    -2.232716659092283       8.119110610786291E1    -3.048851988327211E1    -4.149680956439759E1
 1.067000000000000E9    -2.860339527553211E1     5.601476153718674E1    -2.247765469219747       8.060784652669707E1    -2.239044250544549       8.062713355146410E1    -3.064632317773002E1    -4.259326908625974E1
 1.068000000000000E9    -2.861152492097187E1     5.539359524934724E1    -2.245722304689650       7.998737394519087E1    -2.232742787473129       8.005562853821175E1    -3.059585744990109E1    -4.347713226168286E1
 1.069000000000000E9    -2.865463344605345E1     5.627141816393876E1    -2.239638498281376       7.940664007074759E1    -2.240785302650242       7.942172441303232E1    -3.075751208968007E1    -4.472243247211409E1
 1.070000000000000E9    -2.867935682376647E1     5.605565654574396E1    -2.246589509030756       7.881719797409878E1    -2.242595218487756       7.881152013502454E1    -3.086114063734429E1    -4.629979374284672E1
 1.071000000000000E9    -2.863024852833101E1     5.555979543045134E1    -2.245545493423579       7.820776065098380E1    -2.236474322864561       7.823441303899854E1    -3.092959628861662E1    -4.679397089771039E1
 1.072000000000000E9    -2.862713229064804E1     5.631411614769262E1    -2.246561876235007       7.762885209271215E1    -2.240154989151618       7.763783057797494E1    -3.104797304362056E1    -4.838387881781759E1
 1.073000000000000E9    -2.870296555947697E1     5.664287506387345E1    -2.246742521879427       7.703212718083415E1    -2.235028309524868       7.702596239958304E1    -3.121661715140206E1    -5.005892331148598E1
 1.074000000000000E9    -2.872324738019670E1     5.689468714400414E1    -2.243449226300148       7.644614639119531E1    -2.240375679180820       7.641310661653216E1    -3.129227369171016E1    -5.061443977995564E1
 1.075000000000000E9    -2.875173974763885E1     5.651696718969435E1    -2.239938763328016       7.584094295917741E1    -2.239644930082318       7.583416961917720E1    -3.137545592446134E1    -5.241615385962094E1
 1.076000000000000E9    -2.880808337582150E1     5.627061121040089E1    -2.246354127021252       7.522129278717793E1    -2.234801003299733       7.520309154919386E1    -3.137903184025454E1    -5.302841951282854E1
 1.077000000000000E9    -2.877027551147598E1     5.661960375852415E1    -2.246721739710897       7.465591234868293E1    -2.234987474924925       7.464021587738148E1    -3.147278452750051E1    -5.501898011056706E1
 1.078000000000000E9    -2.880663518429498E1     5.639065624530817E1    -2.246246064591869       7.406162304752704E1    -2.235666640114771       7.403841091429644E1    -3.157095419135844E1    -5.631314341478304E1
 1.079000000000000E9    -2.893093834075155E1     5.628938186643018E1    -2.253199320801929       7.342198344607888E1    -2.237069969204290       7.347131589719911E1    -3.172693791914709E1    -5.872119374556208E1
 1.080000000000000E9    -2.883970388993546E1     5.662672626852191E1    -2.240960900928676       7.283500872143419E1    -2.234827525281140       7.280213801502109E1    -3.184503072778138E1    -6.059701066768898E1
 1.081000000000000E9    -2.878902454290030E1     5.684807373380651E1    -2.242884737688399       7.221632317562221E1    -2.238598484797579       7.218964031684449E1    -3.187508357119985E1    -6.121231158385427E1
 1.082000000000000E9    -2.881703828880692E1     5.617430070718330E1    -2.251591377707122       7.159786005664449E1    -2.245933194165867       7.161870747882887E1    -3.179465582694044E1    -6.283958924615990E1
 1.083000000000000E9    -2.877717047203804E1     5.637156519982091E1    -2.250045762142404       7.101441093807107E1    -2.242140054935796       7.103737340959366E1    -3.199128488187272E1    -6.233452609070078E1
 1.084000000000000E9    -2.879183149163317E1     5.696019120275786E1    -2.254344833164981       7.041352727662688E1    -2.241541044475470       7.044768806429735E1    -3.205023676713222E1    -6.475203566512442E1
 1.085000000000000E9    -2.879821067894003E1     5.626155887114721E1    -2.240961118590630       6.983673320661848E1    -2.242884366703498       6.988474419465945E1    -3.217279008912594E1    -6.723065607821573E1
 1.086000000000000E9    -2.883790869860926E1     5.708106700292585E1    -2.245037139468101       6.919968265998337E1    -2.241066257620795       6.924327198135229E1    -3.203368824315314E1    -6.818867796857278E1
 1.087000000000000E9    -2.892077617054188E1     5.584389148880557E1    -2.246139143755769       6.859456817472473E1    -2.245336864268551       6.864817419702577E1    -3.213686561844603E1    -6.855949718443765E1
 1.088000000000000E9    -2.878312967921264E1     5.704341513630232E1    -2.249680524940821       6.807012425619965E1    -2.240946765825661       6.806231513376307E1    -3.230277571177820E1    -6.965322381541813E1
 1.089000000000000E9    -2.876227795028690E1     5.700023575703543E1    -2.242380053490956       6.746503650677826E1    -2.237481140505779       6.742668035435766E1    -3.238226490561517E1    -7.236851378174038E1
 1.090000000000000E9    -2.889150344527199E1     5.687995488814225E1    -2.247503521547464       6.687026307554353E1    -2.246824975445078       6.684418942336593E1    -3.236755155161431E1    -7.416757704101559E1
 1.091000000000000E9    -2.877933413212629E1     5.665660319160318E1    -2.251186834658526       6.623143680756535E1    -2.238269996148938       6.624630059583238E1    -3.250799000347791E1    -7.602290998700482E1
