#  HZ   S   DB   R     50.00 
! Rohde & Schwarz Vector Network Analyzer 
! Rohde-Schwarz,ZNB8-4Port,1311601044102961,2.82
! Created: UTC 3/4/2022, 3:51:04 PM
! freq[Hz]                db:S11                  ang:S11                 db:S21                  ang:S21                 db:S12                  ang:S12                 db:S22                  ang:S22
 1.000000000000000E9    -2.742558046027586E1     1.076236101724156E2    -5.262472680842810       1.212865297498784E2    -5.240965657072740       1.213297717424556E2    -2.787442501889333E1     1.352200981441862E1
 1.001000000000000E9    -2.734935966919679E1     1.073974397515564E2    -5.257335799513292       1.206650024985679E2    -5.255725604055966       1.207115215261377E2    -2.790000106036646E1     1.299214424652293E1
 1.002000000000000E9    -2.731752347771596E1     1.075971122769394E2    -5.265270586263361       1.200788623359660E2    -5.250440717482507       1.201521533809779E2    -2.796099480362687E1     1.244284857740987E1
 1.003000000000000E9    -2.739610697763376E1     1.070914485273944E2    -5.269717669542377       1.195097216836849E2    -5.249983423128459       1.194709424736939E2    -2.802317847816583E1     1.170632883321338E1
 1.004000000000000E9    -2.732701463495960E1     1.070825117705879E2    -5.270762787397977       1.189273983648135E2    -5.251056194743726       1.189171034624227E2    -2.800014290110197E1     1.080078871798817E1
 1.005000000000000E9    -2.732760060073674E1     1.067517848431734E2    -5.266045023844862       1.182721380241079E2    -5.261527086047963       1.183022181082885E2    -2.806822926496022E1     1.050929324889828E1
 1.006000000000000E9    -2.732252203569897E1     1.064672114566058E2    -5.263791181313156       1.176872140605450E2    -5.256228107743545       1.177182867298267E2    -2.808839676055808E1     9.551320531772712
 1.007000000000000E9    -2.731131358535528E1     1.067356023857813E2    -5.269370952987391       1.170971344550116E2    -5.246727267518333       1.170423678032546E2    -2.814856008600665E1     9.244829211863626
 1.008000000000000E9    -2.727452698066914E1     1.050980801448990E2    -5.265278164491731       1.164936945938215E2    -5.260044768587386       1.164879728517639E2    -2.809137332238679E1     8.917921785286806
 1.009000000000000E9    -2.726964712637437E1     1.057688844169728E2    -5.254639100499366       1.158891947583535E2    -5.254378913266567       1.159085958404019E2    -2.809981905414444E1     8.802454040331142
 1.010000000000000E9    -2.718513830391967E1     1.051421568393239E2    -5.264545748473601       1.152947636476016E2    -5.258589635418929       1.153359399568199E2    -2.821169172216473E1     7.622481943762325
 1.011000000000000E9    -2.725500136375391E1     1.051366233294815E2    -5.268674218758367       1.147383118300769E2    -5.249900763726220       1.147250149940112E2    -2.826040252634698E1     6.656010526715990
 1.012000000000000E9    -2.716238397080087E1     1.048267636244071E2    -5.268265253315771       1.140871836807886E2    -5.251992158284572       1.141176509808382E2    -2.823517642235503E1     6.483178261893626
 1.013000000000000E9    -2.716964615772579E1     1.046971344254542E2    -5.270997704561022       1.135026447937771E2    -5.257666090102672       1.135155476003412E2    -2.827913117112842E1     6.110815001905835
 1.014000000000000E9    -2.715852228965870E1     1.032800174517998E2    -5.268285554384164       1.128966631206215E2    -5.257119024391258       1.129727635310417E2    -2.837044261803356E1     5.426713301072811
 1.015000000000000E9    -2.723021239851186E1     1.038551055531740E2    -5.265170570708731       1.123483135437368E2    -5.260955235190991       1.123542793719721E2    -2.846780791875171E1     4.661875062977994
 1.016000000000000E9    -2.723770861526266E1     1.037634756348493E2    -5.267334287044646       1.116770714242303E2    -5.251599764814612       1.117044978420398E2    -2.841972582682023E1     4.673902540641137
 1.017000000000000E9    -2.716618906364943E1     1.029589632944402E2    -5.269314709836880       1.110980324089156E2    -5.254208051679926       1.111071609582290E2    -2.841998921278053E1     3.963822660793432
 1.018000000000000E9    -2.715785183396585E1     1.030094588250958E2    -5.268451952454435       1.104849773694930E2    -5.255213050845135       1.105873152143926E2    -2.847520873873729E1     3.414343194676818
 1.019000000000000E9    -2.719535996189318E1     1.025056135810683E2    -5.270350971694750       1.099236514835922E2    -5.267251060431358       1.098644680099799E2    -2.858312827465267E1     3.083095006096143
 1.020000000000000E9    -2.713448014274636E1     1.027766250156143E2    -5.263368946225860       1.093480078933243E2    -5.261392825808925       1.093289124207501E2    -2.857891697849303E1     1.974366929645552
 1.021000000000000E9    -2.712349460780299E1     1.020503683868727E2    -5.269422211881461       1.087010451441075E2    -5.254795115607942       1.087108951239727E2    -2.873098512436524E1     2.140710545947197
 1.022000000000000E9    -2.711788509522496E1     1.023358870707589E2    -5.266366301785745       1.080600431590352E2    -5.257188022047417       1.081504979635806E2    -2.871883827622891E1     1.746622959590549
 1.023000000000000E9    -2.712060052467037E1     1.011624010380138E2    -5.265714507311755       1.075175138242516E2    -5.253213195305878       1.075409875581101E2    -2.875523800419628E1     1.017703527075081
 1.024000000000000E9    -2.713889310538507E1     1.009512119310133E2    -5.264158167752056       1.069411197118135E2    -5.261400739828633       1.068575550093871E2    -2.883792021560944E1     9.388457063003984E-1
 1.025000000000000E9    -2.712913683828347E1     1.007992626881008E2    -5.274612262758570       1.062795249833317E2    -5.256291835003285       1.063540029377666E2    -2.889087421498078E1    -2.674291746331530E-1
 1.026000000000000E9    -2.710666729645735E1     1.003579312053121E2    -5.272715416321851       1.057263040928056E2    -5.255767548413715       1.057306770030627E2    -2.895677439653716E1    -2.993032212101112E-1
 1.027000000000000E9    -2.708023694366186E1     1.006773640966600E2    -5.265730873806648       1.051381726040262E2    -5.262606823960573       1.051520493647136E2    -2.902817440785555E1    -7.108415474281861E-1
 1.028000000000000E9    -2.708129700110712E1     1.001839198002686E2    -5.266893433372720       1.045291278004538E2    -5.253086795194148       1.045870805879443E2    -2.898431243694445E1    -9.208063731965354E-1
 1.029000000000000E9    -2.707554050846336E1     9.944261974110016E1    -5.263846763893259       1.038644817699049E2    -5.259532815847148       1.039147922206367E2    -2.913510663326912E1    -1.454979296540646
 1.030000000000000E9    -2.709792635039646E1     9.933897820073763E1    -5.265321645701731       1.033454556274931E2    -5.252317692020226       1.033184224010185E2    -2.913387570898029E1    -2.368253975748665
 1.031000000000000E9    -2.708420940876947E1     9.911849610977215E1    -5.268161778122142       1.027488880925358E2    -5.258844504793718       1.027158563637019E2    -2.935404799004740E1    -2.686774156449630
 1.032000000000000E9    -2.714989591846621E1     9.895757926800911E1    -5.265606366095966       1.021027166331411E2    -5.264318311762471       1.021150845306873E2    -2.946020057159830E1    -2.201505616237013
 1.033000000000000E9    -2.712111425440640E1     9.905575779661376E1    -5.264719288365934       1.015320809754858E2    -5.263000446900612       1.015297529020619E2    -2.950322150636551E1    -3.386381549327093
 1.034000000000000E9    -2.714760496349800E1     9.840446533733035E1    -5.261735502411348       1.009066759263002E2    -5.254401662646142       1.009372763196429E2    -2.954901637544683E1    -3.285692238200519
 1.035000000000000E9    -2.710855001446274E1     9.874888471800352E1    -5.265871376962386       1.003039984113528E2    -5.259214986886232       1.003465746444619E2    -2.969636220570697E1    -4.050148355171785
 1.036000000000000E9    -2.701802568378420E1     9.813656065453257E1    -5.269823896281732       9.972665210681960E1    -5.251806220887313       9.976253673523424E1    -2.972083638097889E1    -4.761130734366648
 1.037000000000000E9    -2.712397096531927E1     9.804094213496009E1    -5.269151351800721       9.914135109648950E1    -5.256445127283004       9.914065158772121E1    -2.963634845309472E1    -4.661551075427989
 1.038000000000000E9    -2.706697750599647E1     9.783526031246292E1    -5.272483468685600       9.855065983345304E1    -5.262498992767753       9.856629031525087E1    -2.985476636526839E1    -5.193544560555665
 1.039000000000000E9    -2.706941247022954E1     9.792886515533797E1    -5.270528287639829       9.796530286692209E1    -5.259533517147085       9.795594664210542E1    -2.993120939410080E1    -5.925161585713755
 1.040000000000000E9    -2.712936719109538E1     9.715488736637076E1    -5.269547698492035       9.737479140997141E1    -5.251606692095773       9.736130051750841E1    -3.000222330717968E1    -7.312935556014758
 1.041000000000000E9    -2.703955086389138E1     9.736257098261352E1    -5.273405191323409       9.680265698004828E1    -5.254505142972212       9.677121625272646E1    -3.013974258365288E1    -6.773529716159571
 1.042000000000000E9    -2.700544857198664E1     9.676507288331952E1    -5.274962510377835       9.616639975425922E1    -5.261272591422566       9.616577645689837E1    -3.031746329469461E1    -7.213666691118443
 1.043000000000000E9    -2.705951343119537E1     9.679370141807983E1    -5.259950835975569       9.551836870309273E1    -5.263823884092545       9.556711021394953E1    -3.038891889969286E1    -7.499553356875619
 1.044000000000000E9    -2.700400794214046E1     9.676717010214649E1    -5.267259772263754       9.489825842282279E1    -5.260546818859959       9.492643067304188E1    -3.056103952069589E1    -9.159914212705447
 1.045000000000000E9    -2.704268149879126E1     9.626916083564709E1    -5.264314553135013       9.437295966663176E1    -5.258629516182845       9.431306790954911E1    -3.059095113800391E1    -8.641236282501186
 1.046000000000000E9    -2.698016308263311E1     9.597923645638988E1    -5.267846054839397       9.373378073572157E1    -5.257700304700577       9.377070797166726E1    -3.075405487445808E1    -1.002500344426153E1
 1.047000000000000E9    -2.698845753193638E1     9.607312445750333E1    -5.263245673124474       9.312981035012771E1    -5.252103198257997       9.317304534338233E1    -3.092249286144032E1    -1.067098611414810E1
 1.048000000000000E9    -2.693069400843818E1     9.566094948106739E1    -5.267184158226314       9.261449696952349E1    -5.260961627843956       9.252794358115065E1    -3.112702659431917E1    -1.103586343660974E1
 1.049000000000000E9    -2.690126857048368E1     9.576288701823415E1    -5.274756605950896       9.195577890990371E1    -5.264995957532127       9.194641248354894E1    -3.115018976617893E1    -1.133334880603587E1
 1.050000000000000E9    -2.697112665350259E1     9.523492804443630E1    -5.268573516280021       9.135017149979908E1    -5.252109443043347       9.134565048398487E1    -3.126527689226056E1    -1.177240831328302E1
 1.051000000000000E9    -2.700512015568780E1     9.491640887609105E1    -5.270973028792284       9.073455029779969E1    -5.261480432475937       9.077479374945457E1    -3.144197624784862E1    -1.209411410444190E1
 1.052000000000000E9    -2.700977334761539E1     9.484213400320765E1    -5.270762133570140       9.012528771148575E1    -5.262032423823746       9.019514074629502E1    -3.154669500358042E1    -1.326418040927320E1
 1.053000000000000E9    -2.686230666142679E1     9.530228313793010E1    -5.267122470059887       8.959539637798252E1    -5.259990073777988       8.959631594827056E1    -3.174809436120940E1    -1.284414738282532E1
 1.054000000000000E9    -2.702568901749219E1     9.556398052229780E1    -5.267486158772518       8.895784545147699E1    -5.254316189271443       8.897432010383209E1    -3.190409876279222E1    -1.352269075383993E1
 1.055000000000000E9    -2.689600859721310E1     9.470412971727274E1    -5.267544529879063       8.834566166769531E1    -5.267137673326010       8.835374621604207E1    -3.189079911961765E1    -1.533164236960629E1
 1.056000000000000E9    -2.692116407326740E1     9.460140464067509E1    -5.262561315687319       8.774865754158198E1    -5.256396213271399       8.774529669256546E1    -3.207637876486304E1    -1.591853398873457E1
 1.057000000000000E9    -2.687003016503317E1     9.411983519993420E1    -5.264830135028308       8.715381440510751E1    -5.262327812903681       8.721149362079692E1    -3.218386069456936E1    -1.640686032287411E1
 1.058000000000000E9    -2.679547424530191E1     9.436857348762995E1    -5.270738518272124       8.658432970226635E1    -5.256871083101759       8.663226775161149E1    -3.258506986173602E1    -1.770450668568410E1
 1.059000000000000E9    -2.681855509811245E1     9.397639035802844E1    -5.272739962190917       8.597759186152285E1    -5.259181210428238       8.599908468433696E1    -3.265946950678723E1    -1.869630093932770E1
 1.060000000000000E9    -2.686429707060518E1     9.379977567876145E1    -5.267077339915518       8.535990197853786E1    -5.257716332261401       8.538462867289397E1    -3.269902697190157E1    -1.794845098230459E1
 1.061000000000000E9    -2.684626724395829E1     9.358741694304241E1    -5.267263351508290       8.474025413176020E1    -5.266068074583936       8.480749722700570E1    -3.297027712817675E1    -1.900416767042148E1
 1.062000000000000E9    -2.688535796888635E1     9.396001010306084E1    -5.275427593050839       8.411957976790419E1    -5.268817425978791       8.415513533273695E1    -3.315800773390122E1    -2.234240587294693E1
 1.063000000000000E9    -2.674613843949631E1     9.330358613175032E1    -5.273604839110650       8.356683512608369E1    -5.258743856699710       8.357774574520032E1    -3.319192203449208E1    -2.151000744925111E1
 1.064000000000000E9    -2.672360653682789E1     9.322670428650962E1    -5.266979106921307       8.295939490704815E1    -5.262729929621384       8.300627645377320E1    -3.339279604697389E1    -2.330477763796936E1
 1.065000000000000E9    -2.674554350556137E1     9.349201924389313E1    -5.264602022027781       8.238611163927438E1    -5.250865361266394       8.239477457973510E1    -3.365920198030291E1    -2.333799966537704E1
 1.066000000000000E9    -2.670466355522260E1     9.296628678430679E1    -5.268222985500618       8.174150206466084E1    -5.261619222669443       8.174237798576114E1    -3.363939032477412E1    -2.575930960005620E1
 1.067000000000000E9    -2.666916427059366E1     9.251800310356467E1    -5.268878502150544       8.119648338115658E1    -5.258953940776237       8.114457482252865E1    -3.396634054110305E1    -2.611610860369810E1
 1.068000000000000E9    -2.660188440852727E1     9.270791662844030E1    -5.273570685017647       8.060411766779794E1    -5.258559026428080       8.056123192605462E1    -3.400630280572754E1    -2.748179450926925E1
 1.069000000000000E9    -2.665126308463128E1     9.254114349025451E1    -5.269878091616888       7.995070401414151E1    -5.261322765430897       7.995818742014420E1    -3.433464965562495E1    -2.808798143598199E1
 1.070000000000000E9    -2.665706401249271E1     9.259877197370778E1    -5.267870603395586       7.938129319483218E1    -5.261956948451779       7.940382382645123E1    -3.440877376989255E1    -3.042669730528897E1
 1.071000000000000E9    -2.662183215861406E1     9.182296623237809E1    -5.268596723226297       7.879211534526077E1    -5.262599331875620       7.874393412763281E1    -3.466634725228933E1    -3.079244662038120E1
 1.072000000000000E9    -2.654319953259321E1     9.171999850908448E1    -5.264853749542803       7.819161140869669E1    -5.261548191490282       7.820693817840648E1    -3.471720608124544E1    -3.310480736477592E1
 1.073000000000000E9    -2.650939329492243E1     9.134250497825218E1    -5.267755971840449       7.754154988869355E1    -5.260594194140853       7.759940869980895E1    -3.469976706119231E1    -3.384518244961435E1
 1.074000000000000E9    -2.645947930628295E1     9.121097660421779E1    -5.263408505764459       7.697353339495970E1    -5.265857872412881       7.700885449318959E1    -3.497657058008414E1    -3.490561541388028E1
 1.075000000000000E9    -2.654911640830807E1     9.102900758158509E1    -5.266365724042013       7.635892062566900E1    -5.259422642571043       7.640303439542797E1    -3.507421893619821E1    -3.814966689086181E1
 1.076000000000000E9    -2.650600311978338E1     9.078688024578747E1    -5.271185643366726       7.579180146626021E1    -5.266686205321577       7.581203408187632E1    -3.525690458852075E1    -3.862475578311751E1
 1.077000000000000E9    -2.647540607434526E1     9.054289271412003E1    -5.271533632442401       7.515313645336819E1    -5.263037789752305       7.522897181751128E1    -3.551705263804476E1    -3.931292388731657E1
 1.078000000000000E9    -2.644491278484271E1     9.019089551056463E1    -5.269473186851238       7.459794313147472E1    -5.260424586594583       7.458581107341705E1    -3.553443010908322E1    -4.194728221794312E1
 1.079000000000000E9    -2.643544331117196E1     8.987448772927537E1    -5.269852418602731       7.397747471575578E1    -5.270882093246508       7.402251543080395E1    -3.562374304176636E1    -4.348636228782452E1
 1.080000000000000E9    -2.637513244838655E1     8.978500327076445E1    -5.274259256877891       7.341414290308174E1    -5.269983617614225       7.341315637514678E1    -3.587782277520582E1    -4.498771283087962E1
 1.081000000000000E9    -2.633938857310296E1     8.967425856832566E1    -5.271989529792150       7.274323311618380E1    -5.270479228651258       7.284587841518409E1    -3.623347589999498E1    -4.347639167599014E1
 1.082000000000000E9    -2.636027159298109E1     8.931259010260547E1    -5.277939262693790       7.220360326123006E1    -5.264053853248024       7.220269672879483E1    -3.612876498361010E1    -4.598460961285898E1
 1.083000000000000E9    -2.628417472443948E1     8.915456369589776E1    -5.267970644065498       7.158161589755058E1    -5.265257798879071       7.161083543069771E1    -3.594489941352046E1    -4.906461020661777E1
 1.084000000000000E9    -2.629354498938531E1     8.859667413825993E1    -5.275880951703170       7.099781954893736E1    -5.268648780550649       7.103593117818976E1    -3.618998908964177E1    -5.017945748690704E1
 1.085000000000000E9    -2.617330288472961E1     8.810603169913222E1    -5.270727420797337       7.036834268218792E1    -5.271682178853244       7.046666505736185E1    -3.634828467499719E1    -5.293140776457957E1
 1.086000000000000E9    -2.623136861288482E1     8.872237046380865E1    -5.272441592540462       6.978846467214689E1    -5.265973478351937       6.983158173170665E1    -3.664614140685217E1    -5.300813934458732E1
 1.087000000000000E9    -2.617492201086986E1     8.840767514617080E1    -5.262418290739925       6.915307111859789E1    -5.267238631175029       6.925527618029196E1    -3.681074028523332E1    -5.484096612561062E1
 1.088000000000000E9    -2.619796540629424E1     8.776512548670033E1    -5.271367280199505       6.857511110141297E1    -5.263445435482187       6.860597435847841E1    -3.671466478783503E1    -5.677035446127510E1
 1.089000000000000E9    -2.619235068192182E1     8.760476811335640E1    -5.277249331048889       6.799085951628916E1    -5.258390630486743       6.801114807667830E1    -3.714814068658779E1    -5.809847669240415E1
 1.090000000000000E9    -2.617124015225892E1     8.726703219009362E1    -5.277371699450005       6.742795663305404E1    -5.267844289607924       6.741682814618984E1    -3.671128686489220E1    -5.953762906970085E1
 1.091000000000000E9    -2.607862785503948E1     8.726495287849154E1    -5.263733537796739       6.679740804870136E1    -5.260109760821682       6.680571305850737E1    -3.721266594599781E1    -6.254311601227889E1
