#  HZ   S   DB   R     50.00 
! Rohde & Schwarz Vector Network Analyzer 
! Rohde-Schwarz,ZNB8-4Port,1311601044102961,2.82
! Created: UTC 3/4/2022, 3:52:07 PM
! freq[Hz]                db:S11                  ang:S11                 db:S21                  ang:S21                 db:S12                  ang:S12                 db:S22                  ang:S22
 1.000000000000000E9    -2.255751445783761E1     9.269521628384985E1    -1.018578814443879E1     1.219464463949822E2    -1.017589586552101E1     1.220658760851665E2    -2.279432305333660E1     1.259860655753429E1
 1.001000000000000E9    -2.252632219245925E1     9.224273149400079E1    -1.017195220873390E1     1.214331081453779E2    -1.017934249034544E1     1.214143314976655E2    -2.285289912639582E1     1.191634238174562E1
 1.002000000000000E9    -2.250463458791739E1     9.208617642802528E1    -1.018610738728403E1     1.208518396589248E2    -1.017035908810459E1     1.208500206039692E2    -2.284440496262582E1     1.124073925685188E1
 1.003000000000000E9    -2.249483574554415E1     9.131510262687920E1    -1.016955973852090E1     1.202179652980886E2    -1.015170777375822E1     1.202541875065751E2    -2.282617738607434E1     1.055889738552822E1
 1.004000000000000E9    -2.248128188067329E1     9.124009369491841E1    -1.017803944673611E1     1.196485948698699E2    -1.016381536976347E1     1.196005689167397E2    -2.286337365550043E1     9.582318952519131
 1.005000000000000E9    -2.251588451611328E1     9.051449883852592E1    -1.018380417455931E1     1.191181441869987E2    -1.016726805746074E1     1.190436648332612E2    -2.288697272796147E1     9.169209521779111
 1.006000000000000E9    -2.249350515122336E1     9.033665597111578E1    -1.018623564967701E1     1.183616087072655E2    -1.016674084600592E1     1.185183958195072E2    -2.286548112820081E1     8.306636247120308
 1.007000000000000E9    -2.246352233579884E1     9.004568973612146E1    -1.018603677233104E1     1.178210486754109E2    -1.016284242774840E1     1.178363982362762E2    -2.289830384150136E1     8.022108346083417
 1.008000000000000E9    -2.246203541043862E1     8.965083062776495E1    -1.018221886663773E1     1.172607987885160E2    -1.016962716361167E1     1.172444435626311E2    -2.291131309283657E1     7.513882233699686
 1.009000000000000E9    -2.244057398949284E1     8.932086297330926E1    -1.017291065513782E1     1.166324815820132E2    -1.017326972213579E1     1.166874964815195E2    -2.291129245833472E1     6.798485486477921
 1.010000000000000E9    -2.240337138734021E1     8.905888619945965E1    -1.017493117348412E1     1.160491991470694E2    -1.017660641270272E1     1.161026926635730E2    -2.295515444058850E1     6.549687435931807
 1.011000000000000E9    -2.238914770061366E1     8.811030039644101E1    -1.017749703210477E1     1.154330180916109E2    -1.016911732838766E1     1.154343095455490E2    -2.299777629945924E1     5.898611689838404
 1.012000000000000E9    -2.240212888892840E1     8.814960361711502E1    -1.018758263972998E1     1.148889576273174E2    -1.017693512566939E1     1.148889338719708E2    -2.301821065296894E1     5.218034899533222
 1.013000000000000E9    -2.243258777846331E1     8.779858163964599E1    -1.018239765301531E1     1.142821262642671E2    -1.016593054540378E1     1.142758034601396E2    -2.297930072820883E1     4.478632434231958
 1.014000000000000E9    -2.240553703661142E1     8.710694818004458E1    -1.018578740916940E1     1.136223585994903E2    -1.016592610475716E1     1.136056337105467E2    -2.302962757959527E1     4.167809031600923
 1.015000000000000E9    -2.240125628798531E1     8.683007466371292E1    -1.018597509991575E1     1.130739959686826E2    -1.017949794396868E1     1.130976249201939E2    -2.305649411402018E1     3.535065882771232
 1.016000000000000E9    -2.238734694412214E1     8.643762871332577E1    -1.016246898545672E1     1.124820431893630E2    -1.017952779974428E1     1.125160296116019E2    -2.304249880135107E1     2.935247086112108
 1.017000000000000E9    -2.239090277381792E1     8.590790978504609E1    -1.018266301370496E1     1.118659381820043E2    -1.016469072633304E1     1.118864755736310E2    -2.302420751300640E1     2.184929889258353
 1.018000000000000E9    -2.235378458909545E1     8.579165515689709E1    -1.019081526689038E1     1.113140859297170E2    -1.017045777795657E1     1.113312193880979E2    -2.308039829884033E1     1.498347029967615
 1.019000000000000E9    -2.237024508848748E1     8.537569000875773E1    -1.016548422588893E1     1.106666534482893E2    -1.017178177851330E1     1.107133829026229E2    -2.309600113049145E1     1.243665046089693
 1.020000000000000E9    -2.232829324221727E1     8.460856245188285E1    -1.018832324985024E1     1.101023921738471E2    -1.017400939880743E1     1.100587687320601E2    -2.314055448267227E1     5.946674759724004E-1
 1.021000000000000E9    -2.234370147608477E1     8.444125827295143E1    -1.018688536508603E1     1.094233296177021E2    -1.016750751217483E1     1.094915012151059E2    -2.314909410391752E1     1.446551126751702E-1
 1.022000000000000E9    -2.230135650261495E1     8.411123080386278E1    -1.018554590681185E1     1.088726963452312E2    -1.016641068113496E1     1.088780892981110E2    -2.313012912956118E1    -3.995865030474501E-1
 1.023000000000000E9    -2.231044256625917E1     8.369718368816507E1    -1.018378764828991E1     1.082577933704539E2    -1.017261908684944E1     1.082724308626507E2    -2.322764674442245E1    -1.111535380992808
 1.024000000000000E9    -2.232825477464918E1     8.358256686641498E1    -1.018172114266603E1     1.076567518760759E2    -1.017391544993964E1     1.077265419092881E2    -2.324554572524500E1    -1.679128667901664
 1.025000000000000E9    -2.229604680183442E1     8.287398936024452E1    -1.017984446663491E1     1.071339332075993E2    -1.017172371528886E1     1.070559527754035E2    -2.319159252527072E1    -2.542569267377393
 1.026000000000000E9    -2.228406627323110E1     8.276818814452243E1    -1.018138389981709E1     1.065653656538755E2    -1.016864720401200E1     1.065587491087021E2    -2.327265555270720E1    -2.480594636033464
 1.027000000000000E9    -2.231560905993720E1     8.247673263987623E1    -1.018572975755096E1     1.059125943278665E2    -1.017512380679930E1     1.059399562785371E2    -2.329326555534956E1    -3.471770798662614
 1.028000000000000E9    -2.232610841631392E1     8.216478076969145E1    -1.019553545335673E1     1.052941226021992E2    -1.017739736844558E1     1.052728081555622E2    -2.329793536917251E1    -3.741565631595364
 1.029000000000000E9    -2.226722223555331E1     8.163167052755961E1    -1.018206621728066E1     1.047579136958089E2    -1.016850525303459E1     1.047407839450604E2    -2.334996362073238E1    -4.420884654191300
 1.030000000000000E9    -2.225102173643316E1     8.130811739614585E1    -1.019116102700354E1     1.040892708492370E2    -1.016782625481457E1     1.040810147562246E2    -2.338119909026912E1    -4.841846888686896
 1.031000000000000E9    -2.228162658315442E1     8.075143824223575E1    -1.018008494980856E1     1.035305234868893E2    -1.017259033644286E1     1.035144917423021E2    -2.339259495848577E1    -5.395200824082208
 1.032000000000000E9    -2.224815721912851E1     8.039288417711170E1    -1.018716759468017E1     1.029010574433649E2    -1.016988180726735E1     1.029767749816792E2    -2.343704720784129E1    -6.012817153644308
 1.033000000000000E9    -2.224277409892921E1     8.009194006325896E1    -1.018615092609633E1     1.023063864872094E2    -1.017007932965396E1     1.023456707525050E2    -2.348880596258548E1    -6.443033643540976
 1.034000000000000E9    -2.223908793873818E1     7.951397769440632E1    -1.018644706552649E1     1.017348467330233E2    -1.017689416905493E1     1.017396511492557E2    -2.352638723891548E1    -6.909385407406402
 1.035000000000000E9    -2.224761351862018E1     7.905387554292891E1    -1.018661200301161E1     1.010902810046504E2    -1.017438899502770E1     1.010857606454388E2    -2.361832512535397E1    -7.753574624455058
 1.036000000000000E9    -2.224181172794350E1     7.909740829640073E1    -1.018964066896064E1     1.004649781740733E2    -1.016982944946358E1     1.005263588153000E2    -2.359581793057845E1    -8.341165765340840
 1.037000000000000E9    -2.222914808223770E1     7.857800894016401E1    -1.018872570594383E1     9.986938134029286E1    -1.017374469911592E1     9.996770784308220E1    -2.357170069682711E1    -8.547610111384605
 1.038000000000000E9    -2.223016588152341E1     7.822329897533346E1    -1.018374199597791E1     9.936474839914402E1    -1.017387062699991E1     9.938339218925532E1    -2.363497593114197E1    -9.390441207300494
 1.039000000000000E9    -2.222775234958391E1     7.794375536945073E1    -1.018627563162758E1     9.872043416041382E1    -1.016516248184880E1     9.877988416783633E1    -2.368338242308428E1    -9.592086792501107
 1.040000000000000E9    -2.219810445281507E1     7.725956298188204E1    -1.018019989960679E1     9.813080219249800E1    -1.017866422472729E1     9.814144897684402E1    -2.376589393743489E1    -1.093160615423273E1
 1.041000000000000E9    -2.223355943738588E1     7.679411995618662E1    -1.019298977680236E1     9.753271484378644E1    -1.016993005461312E1     9.760716392412427E1    -2.380425373554644E1    -1.125568636692518E1
 1.042000000000000E9    -2.225843053587667E1     7.651547894462104E1    -1.018147248344335E1     9.687904975690798E1    -1.017363083101992E1     9.695602774680479E1    -2.376809683461451E1    -1.153024009083794E1
 1.043000000000000E9    -2.220213896252080E1     7.622951835834347E1    -1.019324339418280E1     9.644121165624217E1    -1.018345508484176E1     9.632860471628631E1    -2.390477911197901E1    -1.238289203566915E1
 1.044000000000000E9    -2.217659139708466E1     7.597639394956377E1    -1.018746999174599E1     9.580662884853459E1    -1.017537812339231E1     9.578244702041233E1    -2.394700311233453E1    -1.282483065335466E1
 1.045000000000000E9    -2.222273943484699E1     7.560033909781151E1    -1.018633669786626E1     9.517802098314185E1    -1.017296020211431E1     9.511016155388492E1    -2.395935930759311E1    -1.377251123019904E1
 1.046000000000000E9    -2.218477718992937E1     7.537923500147798E1    -1.019108074146844E1     9.454738018823487E1    -1.018074174909006E1     9.453965870215153E1    -2.401031104728801E1    -1.473817902990407E1
 1.047000000000000E9    -2.220845016133031E1     7.478961649940938E1    -1.019107445214896E1     9.399425097933458E1    -1.017957137269870E1     9.396162005092317E1    -2.406388434731842E1    -1.496058052959233E1
 1.048000000000000E9    -2.218932406484180E1     7.436574604466343E1    -1.018631047679850E1     9.335924242109621E1    -1.017254483382788E1     9.337491044769722E1    -2.408727485624230E1    -1.561787228833846E1
 1.049000000000000E9    -2.216275142234616E1     7.387965230200450E1    -1.019209526443269E1     9.276418923811659E1    -1.017466328552807E1     9.272032396130861E1    -2.417191621373840E1    -1.630211963439217E1
 1.050000000000000E9    -2.218204725623170E1     7.367517620847573E1    -1.018815697797939E1     9.211727722324957E1    -1.017362642155338E1     9.218965454287142E1    -2.414848358637801E1    -1.690218674669407E1
 1.051000000000000E9    -2.219226658207432E1     7.310627814762340E1    -1.018902444764184E1     9.150388557767761E1    -1.016773763675845E1     9.155007226651435E1    -2.426968354092994E1    -1.775448848238703E1
 1.052000000000000E9    -2.220956672751616E1     7.286588704336339E1    -1.019315872161540E1     9.101150266108287E1    -1.017664724764886E1     9.089080440318645E1    -2.433513023579395E1    -1.854361531399945E1
 1.053000000000000E9    -2.217786632825523E1     7.261426392333259E1    -1.018542415337582E1     9.039320782745439E1    -1.017707310715755E1     9.037623497226758E1    -2.442727560079036E1    -1.902606665657492E1
 1.054000000000000E9    -2.215364842137531E1     7.211513916584495E1    -1.017452711362989E1     8.970085030825693E1    -1.018598294160644E1     8.980989054126542E1    -2.444970863725533E1    -1.936668562466254E1
 1.055000000000000E9    -2.216278238161603E1     7.188069072888418E1    -1.017726419600990E1     8.908956469832950E1    -1.017253376822306E1     8.914717312977844E1    -2.451722436695732E1    -2.017513866544744E1
 1.056000000000000E9    -2.216132672651938E1     7.148820607409094E1    -1.018848713006718E1     8.849656766029850E1    -1.016998920692964E1     8.861653987298651E1    -2.448694501814294E1    -2.111834273125774E1
 1.057000000000000E9    -2.216297130800674E1     7.102521657253095E1    -1.018429999366013E1     8.799095811550339E1    -1.019079705912850E1     8.801275809027673E1    -2.456312591604348E1    -2.195467322968670E1
 1.058000000000000E9    -2.212169581386911E1     7.090983594361973E1    -1.017490214588467E1     8.735794761411833E1    -1.018772845364557E1     8.744689685809250E1    -2.463124004526101E1    -2.258541001383764E1
 1.059000000000000E9    -2.211657877449875E1     7.054802198760200E1    -1.018640037655722E1     8.677887389080181E1    -1.018999559651021E1     8.682325685665745E1    -2.470669775095339E1    -2.334009542650984E1
 1.060000000000000E9    -2.212725539134305E1     7.005816444225160E1    -1.018276803927345E1     8.611241111173693E1    -1.018696486720468E1     8.620056246148820E1    -2.478365760712938E1    -2.377551471921111E1
 1.061000000000000E9    -2.210429392612593E1     6.957276743044677E1    -1.017882124811480E1     8.552397684150057E1    -1.018491361926309E1     8.564414318760966E1    -2.477967211218754E1    -2.518162591539517E1
 1.062000000000000E9    -2.208372731892300E1     6.926845024788067E1    -1.018541372529760E1     8.498053685579299E1    -1.017898766543986E1     8.503023122393098E1    -2.484736970233347E1    -2.592344106720982E1
 1.063000000000000E9    -2.211498724539581E1     6.904451720432088E1    -1.018669218340522E1     8.439034629975772E1    -1.018374076298769E1     8.437430528653232E1    -2.489529391845552E1    -2.649835864147175E1
 1.064000000000000E9    -2.209054391684880E1     6.840274490292741E1    -1.019256873231857E1     8.377769973156586E1    -1.017572644154591E1     8.379840991706907E1    -2.495808145627103E1    -2.735140589621456E1
 1.065000000000000E9    -2.211367421396457E1     6.824791410923127E1    -1.017557598017574E1     8.321626091048611E1    -1.017343122426235E1     8.325080745967932E1    -2.504924516537461E1    -2.827644872486111E1
 1.066000000000000E9    -2.209709577024597E1     6.772576519217152E1    -1.018470294801032E1     8.256736348766758E1    -1.018448507323933E1     8.255013252674293E1    -2.509803973037059E1    -2.922128269229072E1
 1.067000000000000E9    -2.208501974482456E1     6.761491255621228E1    -1.019769530630566E1     8.201845418845807E1    -1.018032163543180E1     8.203685097576236E1    -2.512289274160278E1    -2.962105344986902E1
 1.068000000000000E9    -2.210041371670122E1     6.709625167663639E1    -1.019194545577429E1     8.141437082322409E1    -1.017472534708977E1     8.140195646614643E1    -2.512837629089417E1    -3.099819840918621E1
 1.069000000000000E9    -2.209820298555655E1     6.681622733401898E1    -1.018581458147685E1     8.083593239393797E1    -1.017485069702247E1     8.085545128106153E1    -2.517365206972249E1    -3.145329383183609E1
 1.070000000000000E9    -2.207355911579729E1     6.637931702920800E1    -1.018219933544196E1     8.017917054114217E1    -1.017602364210944E1     8.022198867851827E1    -2.526040184626407E1    -3.263885679643958E1
 1.071000000000000E9    -2.206345270047723E1     6.624383632049187E1    -1.019364540702689E1     7.956810002817394E1    -1.016973441503111E1     7.954345815196110E1    -2.523481886782299E1    -3.296632815586141E1
 1.072000000000000E9    -2.206890856700631E1     6.544060553504740E1    -1.018626042910811E1     7.893968339147632E1    -1.018482610730407E1     7.906021152621081E1    -2.536986440772514E1    -3.411826360367149E1
 1.073000000000000E9    -2.206764921284831E1     6.560291521847543E1    -1.018525247837184E1     7.842033709612507E1    -1.018022436734704E1     7.842149327837048E1    -2.536986692557607E1    -3.521810146940514E1
 1.074000000000000E9    -2.209626078528172E1     6.479924709222820E1    -1.019036841011087E1     7.780334670799748E1    -1.018106376184549E1     7.785049951600121E1    -2.540393010999567E1    -3.618385081729272E1
 1.075000000000000E9    -2.203871975747770E1     6.466751844173416E1    -1.018954803613007E1     7.729547389233940E1    -1.018009129079147E1     7.716537311133631E1    -2.536540150102567E1    -3.689534011845480E1
 1.076000000000000E9    -2.202003973988103E1     6.420685262968172E1    -1.019816279188998E1     7.654049076630460E1    -1.018539279195092E1     7.664431241187081E1    -2.555349113876115E1    -3.793413762235905E1
 1.077000000000000E9    -2.208394512378600E1     6.392424481705633E1    -1.018157069745976E1     7.597279466015901E1    -1.017997726278214E1     7.607400804864867E1    -2.547264343382375E1    -3.902139036092217E1
 1.078000000000000E9    -2.204067278989150E1     6.354493729552657E1    -1.019264215429629E1     7.536385009706478E1    -1.017909298343836E1     7.541752629435192E1    -2.558910599352278E1    -3.987629218483930E1
 1.079000000000000E9    -2.209482646865322E1     6.342047701143306E1    -1.017639282853271E1     7.482584251714340E1    -1.018712714071182E1     7.483251962438014E1    -2.557838654259479E1    -4.042830847450769E1
 1.080000000000000E9    -2.200410414438851E1     6.292537500614537E1    -1.019520603966963E1     7.412451601433043E1    -1.018326424534292E1     7.427320899033882E1    -2.555440713597173E1    -4.154233144712294E1
 1.081000000000000E9    -2.202668460440991E1     6.226202532928696E1    -1.018392330209534E1     7.355183397787022E1    -1.017355551025219E1     7.364487396915793E1    -2.558553070454600E1    -4.223301972177666E1
 1.082000000000000E9    -2.206734137569045E1     6.200354464276513E1    -1.019446719241287E1     7.297926528822832E1    -1.018305194469007E1     7.299380254398109E1    -2.566836693870307E1    -4.382453883270483E1
 1.083000000000000E9    -2.202454670089491E1     6.175147730035006E1    -1.018863830964346E1     7.244721359184652E1    -1.018319972501001E1     7.251392769476306E1    -2.565836012052110E1    -4.429784776827859E1
 1.084000000000000E9    -2.202962732400824E1     6.147533252567752E1    -1.019415360308432E1     7.195237442924416E1    -1.017574637050203E1     7.184009943389141E1    -2.571334071045696E1    -4.505754315485758E1
 1.085000000000000E9    -2.205052217137559E1     6.082634794663877E1    -1.019720773013933E1     7.123723800560725E1    -1.018141501126054E1     7.117682635347472E1    -2.576028922787540E1    -4.566602373056607E1
 1.086000000000000E9    -2.205975576107242E1     6.047608023092418E1    -1.019106405278705E1     7.067287992039304E1    -1.017892188335980E1     7.066272140944541E1    -2.577302041696479E1    -4.683352286721329E1
 1.087000000000000E9    -2.204864994720067E1     6.018784243798540E1    -1.018798198052474E1     7.003183921488299E1    -1.018405521016166E1     7.003187618759590E1    -2.580719263911295E1    -4.813578434168209E1
 1.088000000000000E9    -2.201304130624165E1     5.959428870799358E1    -1.019417074312412E1     6.945154857961916E1    -1.019078591492688E1     6.945836140152902E1    -2.586856411680841E1    -4.889888605498630E1
 1.089000000000000E9    -2.202659284389540E1     5.950594126455306E1    -1.018325417702371E1     6.884087293363582E1    -1.019228806693680E1     6.882033257120138E1    -2.580933243568090E1    -4.941124296364572E1
 1.090000000000000E9    -2.203552259844525E1     5.906677767882641E1    -1.018986793069378E1     6.826348174886161E1    -1.017939845732848E1     6.828741863086245E1    -2.591624551829037E1    -5.063760936609258E1
 1.091000000000000E9    -2.204027273176731E1     5.909940122317705E1    -1.019290216787030E1     6.770139426428872E1    -1.017586352213319E1     6.766712086665037E1    -2.591441605702148E1    -5.154031946385596E1
