#  HZ   S   DB   R     50.00 
! Rohde & Schwarz Vector Network Analyzer 
! Rohde-Schwarz,ZNB8-4Port,1311601044102961,2.82
! Created: UTC 3/4/2022, 3:50:41 PM
! freq[Hz]                db:S11                  ang:S11                 db:S21                  ang:S21                 db:S12                  ang:S12                 db:S22                  ang:S22
 1.000000000000000E9    -2.699845281598001E1     7.149890913309322E1    -4.291662468556195       1.211125895637913E2    -4.272311311443187       1.211292758467055E2    -2.751757870764589E1     8.261579753394971
 1.001000000000000E9    -2.698629631838306E1     7.125290708888997E1    -4.290571770883870       1.205528168441762E2    -4.283782362773298       1.205281545707020E2    -2.764087035895129E1     6.624706095927258
 1.002000000000000E9    -2.697113083709695E1     7.146486573422018E1    -4.287175004942350       1.199613157115864E2    -4.285386452318415       1.199101063744628E2    -2.770880637423941E1     6.806340971550841
 1.003000000000000E9    -2.704841777994485E1     7.032904872231039E1    -4.288006208392656       1.193526803886753E2    -4.279245126848901       1.193538908708363E2    -2.759162724678730E1     5.781591579156967
 1.004000000000000E9    -2.700296856524673E1     7.060371573949988E1    -4.282761223395163       1.187810937120649E2    -4.284597171415008       1.187521012777012E2    -2.771037612256242E1     4.427849070365366
 1.005000000000000E9    -2.703476078174917E1     7.028083533284678E1    -4.289886538666902       1.181356063543979E2    -4.282312554001218       1.181560253396185E2    -2.777503337154684E1     4.369953029328281
 1.006000000000000E9    -2.709160643875610E1     6.972410197569572E1    -4.291550621305415       1.175471865242684E2    -4.281087511491838       1.175823268752239E2    -2.778372726688846E1     3.944989431114834
 1.007000000000000E9    -2.704397032590819E1     6.999191963509855E1    -4.294899958031824       1.169239493425692E2    -4.283230017126682       1.169840210423760E2    -2.775631355016128E1     3.177040549405874
 1.008000000000000E9    -2.705182744475593E1     6.901835638028783E1    -4.292076766492067       1.163274032407061E2    -4.279335510625215       1.162916251806581E2    -2.785537437409073E1     2.576636792273888
 1.009000000000000E9    -2.710273469810860E1     6.903843449321607E1    -4.296037369240345       1.157782571493454E2    -4.284935931201026       1.157404019812677E2    -2.785626026865416E1     1.635317036718197
 1.010000000000000E9    -2.710076028560338E1     6.852302320057767E1    -4.297938230403847       1.151711254520213E2    -4.278321168489002       1.151587686425143E2    -2.787341364823946E1     1.275113401453367
 1.011000000000000E9    -2.716235604363060E1     6.832470999713621E1    -4.293469810715894       1.145979327023443E2    -4.281291284981847       1.145610537773193E2    -2.791376074645741E1     3.968335686082653E-1
 1.012000000000000E9    -2.718934567865021E1     6.795133325891362E1    -4.294199938148983       1.139638491319195E2    -4.288059602166539       1.139760383552246E2    -2.796388818309890E1    -4.648232816870945E-1
 1.013000000000000E9    -2.717438317811968E1     6.798039708424973E1    -4.291034298990477       1.133769007042458E2    -4.278238987319952       1.133619952222175E2    -2.805175157207713E1    -1.320467583265162
 1.014000000000000E9    -2.709936255763502E1     6.678953533624927E1    -4.293545205329510       1.127677673172640E2    -4.282431612160077       1.127843421689011E2    -2.801038932962548E1    -1.380095500347901
 1.015000000000000E9    -2.726700998163918E1     6.739030550618244E1    -4.294069001431121       1.121686584513641E2    -4.279584518317606       1.121763666537569E2    -2.809168885470798E1    -2.532378628121840
 1.016000000000000E9    -2.728990066074290E1     6.653959049014475E1    -4.289498469216751       1.115389735545020E2    -4.278935627705722       1.115465144835486E2    -2.820795053460353E1    -2.495684597699950
 1.017000000000000E9    -2.724438200548173E1     6.619524846399307E1    -4.292545058230938       1.109660551698929E2    -4.285830442860141       1.109343311581833E2    -2.816529483598551E1    -2.914132922342933
 1.018000000000000E9    -2.725428449375337E1     6.598141685662854E1    -4.290479765211034       1.103316849245954E2    -4.279522841948634       1.103328937311309E2    -2.828832060484359E1    -3.723326005732015
 1.019000000000000E9    -2.726357044530260E1     6.617517209548251E1    -4.292035464573165       1.097594111629229E2    -4.277233746263224       1.098034579870780E2    -2.823669245507775E1    -3.958680718685736
 1.020000000000000E9    -2.727489782595905E1     6.573909540712269E1    -4.287164197983637       1.091079826131402E2    -4.285769821074493       1.092116680325710E2    -2.838225357544484E1    -4.582062403705386
 1.021000000000000E9    -2.732774434228227E1     6.523178459233621E1    -4.296050348229240       1.085470612781250E2    -4.277714312053385       1.085588835765088E2    -2.846621089797480E1    -4.987558578372228
 1.022000000000000E9    -2.726652252132231E1     6.493014829614809E1    -4.296720411382458       1.079708714140065E2    -4.277143288948238       1.079583899533829E2    -2.851928740448429E1    -4.991673069953004
 1.023000000000000E9    -2.732043515606307E1     6.462430434217308E1    -4.291843212773013       1.074070118233082E2    -4.285590028201413       1.073925212830552E2    -2.854792719736939E1    -6.640322913846076
 1.024000000000000E9    -2.740143594250931E1     6.403636096748053E1    -4.292766521307670       1.067027096976788E2    -4.286495885259379       1.068067405448344E2    -2.860027136082880E1    -6.730150877618715
 1.025000000000000E9    -2.738829387962558E1     6.398416453411812E1    -4.289252358142895       1.062154522600889E2    -4.283351543343679       1.062005446848369E2    -2.865220854008409E1    -6.999489951617645
 1.026000000000000E9    -2.742193549898869E1     6.387596710203898E1    -4.292543275710497       1.055527384623806E2    -4.280971659463656       1.056024874721639E2    -2.860104786841546E1    -8.067044851058133
 1.027000000000000E9    -2.746679229557164E1     6.344352551860517E1    -4.291852352069964       1.049513959913234E2    -4.285977829112219       1.049900501020744E2    -2.873449009806024E1    -8.989415740677263
 1.028000000000000E9    -2.752120705022167E1     6.303409860586122E1    -4.291290415682419       1.043823152025690E2    -4.281133080887375       1.044125652694357E2    -2.880612679862868E1    -9.038659843671157
 1.029000000000000E9    -2.757562003828302E1     6.280489934080966E1    -4.293969538615202       1.037692751412794E2    -4.279575541609900       1.038362246805697E2    -2.891468608035770E1    -9.127718790852706
 1.030000000000000E9    -2.749399397809219E1     6.186833819212804E1    -4.290275334544529       1.031961345842921E2    -4.284876780955319       1.032025049619848E2    -2.899897184319931E1    -9.066602471302586
 1.031000000000000E9    -2.759739980367741E1     6.248243953966835E1    -4.292862318951344       1.025788512834440E2    -4.286463753142859       1.025751036351996E2    -2.904281199262386E1    -1.050269392820025E1
 1.032000000000000E9    -2.757736324659244E1     6.229702260969878E1    -4.291289451298309       1.019400051475632E2    -4.285526781746508       1.019781777673459E2    -2.916674020938538E1    -1.057986963658873E1
 1.033000000000000E9    -2.759366900950648E1     6.180858826919529E1    -4.295472707030207       1.014144001143566E2    -4.287750974044769       1.013825651480808E2    -2.924766193368847E1    -1.235918892289534E1
 1.034000000000000E9    -2.764089898079865E1     6.134513193613841E1    -4.289207179238934       1.007760804757457E2    -4.283304357781567       1.007807909700925E2    -2.932757210809830E1    -1.187931423664026E1
 1.035000000000000E9    -2.767190470977431E1     6.106251236487758E1    -4.289793387077043       1.001762812865160E2    -4.281827797576654       1.001924086141107E2    -2.955217218343820E1    -1.248452800829216E1
 1.036000000000000E9    -2.774268128828474E1     6.063076725432119E1    -4.286162671311380       9.960774587880736E1    -4.289515283656787       9.959455249630747E1    -2.957780759094817E1    -1.306584137412746E1
 1.037000000000000E9    -2.780127163595694E1     6.091934007672604E1    -4.290354544665576       9.897713175267460E1    -4.287899095008678       9.898353326513667E1    -2.959469080304858E1    -1.372837458470383E1
 1.038000000000000E9    -2.781944747498667E1     6.091615892516872E1    -4.292975912756203       9.837520125199235E1    -4.283344160432574       9.838456936996545E1    -2.991381981183041E1    -1.359659294386984E1
 1.039000000000000E9    -2.779240098090270E1     5.976450224086302E1    -4.289046451690865       9.781330327149057E1    -4.284523031973119       9.777516895392627E1    -2.981122693638200E1    -1.476723981967511E1
 1.040000000000000E9    -2.784460293790459E1     6.012654290943613E1    -4.294498647142530       9.715679293481949E1    -4.276713416345933       9.718426053960643E1    -2.995169525090842E1    -1.528660445964745E1
 1.041000000000000E9    -2.783258871850584E1     5.978573639368716E1    -4.297357983516345       9.656508788245252E1    -4.276416695516050       9.661082283073718E1    -3.007160092319822E1    -1.550465024630072E1
 1.042000000000000E9    -2.793914585179403E1     5.973054142034689E1    -4.294300247865291       9.596920137136188E1    -4.281279811665049       9.603875208862630E1    -3.007461546513671E1    -1.685278620689978E1
 1.043000000000000E9    -2.793095971944257E1     5.946047093165301E1    -4.288316200974200       9.540356439140007E1    -4.289733673398561       9.539460308366517E1    -3.025248891659686E1    -1.724875917118064E1
 1.044000000000000E9    -2.807325776013900E1     5.929556112792114E1    -4.297076600650635       9.476394244502781E1    -4.286520643978235       9.477915995118917E1    -3.043164067570675E1    -1.767293136204487E1
 1.045000000000000E9    -2.800142790058451E1     5.881882597087267E1    -4.297455238900616       9.422828971034814E1    -4.285584244775732       9.416193878129474E1    -3.051252352468890E1    -1.855086030550183E1
 1.046000000000000E9    -2.803739187882701E1     5.876733863752627E1    -4.293468543813984       9.361518550538065E1    -4.287236114394931       9.359333995116498E1    -3.072491195955644E1    -1.981324881561848E1
 1.047000000000000E9    -2.805947276297064E1     5.882018056430115E1    -4.297513240203227       9.302700653808859E1    -4.285053517095426       9.299097376029611E1    -3.082822742291075E1    -2.051767441245688E1
 1.048000000000000E9    -2.818914102498114E1     5.936802361090948E1    -4.294435208591326       9.244074528075244E1    -4.282310154347043       9.241666621297095E1    -3.081203122216525E1    -2.001982109072725E1
 1.049000000000000E9    -2.819688332888838E1     5.831870886445991E1    -4.303844521569777       9.183656036678019E1    -4.281401571704911       9.177231793094296E1    -3.108851431698476E1    -2.165229947023197E1
 1.050000000000000E9    -2.821629130496758E1     5.788554111721212E1    -4.278865860589677       9.121024273794629E1    -4.286720293525165       9.119752567897088E1    -3.127338192365544E1    -2.231721052715608E1
 1.051000000000000E9    -2.823074997062795E1     5.824428443307455E1    -4.287652955329305       9.063400032473619E1    -4.278412542501072       9.062035204985213E1    -3.140572920393090E1    -2.254937563890213E1
 1.052000000000000E9    -2.826366912661249E1     5.776491759199066E1    -4.291736825856127       8.999659983893322E1    -4.288097436221094       9.002812611929576E1    -3.148179376288489E1    -2.408480160852638E1
 1.053000000000000E9    -2.818993677008815E1     5.812858141073049E1    -4.289041102272035       8.944577944708483E1    -4.294018216822454       8.944376339488740E1    -3.171587292441772E1    -2.527996725321595E1
 1.054000000000000E9    -2.838557702370299E1     5.803270111706125E1    -4.289758823863515       8.884982242259424E1    -4.286321444498617       8.879262373213183E1    -3.177257618142194E1    -2.614601657694665E1
 1.055000000000000E9    -2.834378585052581E1     5.802491988668412E1    -4.298879028037858       8.825134065175580E1    -4.283682184012720       8.824390795620609E1    -3.184500700275633E1    -2.632105468841859E1
 1.056000000000000E9    -2.835963656608189E1     5.755136163363770E1    -4.295865491603911       8.763770971624646E1    -4.288729417813481       8.761693363975788E1    -3.197830233090354E1    -2.766636274999087E1
 1.057000000000000E9    -2.841567582533658E1     5.793468127003601E1    -4.296809977699240       8.700237093382651E1    -4.284898473541378       8.700898339897512E1    -3.194682964895535E1    -2.830135431330174E1
 1.058000000000000E9    -2.849050200406098E1     5.759861681949531E1    -4.297215037479337       8.643046761497469E1    -4.284795564534441       8.638209388046504E1    -3.235066308870454E1    -2.895928334708378E1
 1.059000000000000E9    -2.851386846751167E1     5.799676033998684E1    -4.292740210929712       8.579528339791219E1    -4.289296595550234       8.583490416131419E1    -3.256358956939143E1    -2.965429031826886E1
 1.060000000000000E9    -2.846974349981698E1     5.761532005033575E1    -4.294596852116871       8.523445806585197E1    -4.286627322755312       8.524299178507206E1    -3.246847875839715E1    -3.148242235952753E1
 1.061000000000000E9    -2.845192560881536E1     5.778171222216407E1    -4.298438483948300       8.459566843559607E1    -4.286833827308707       8.461446221636477E1    -3.269092722622717E1    -3.319131192314420E1
 1.062000000000000E9    -2.852889625379917E1     5.659860000161358E1    -4.286935334349238       8.400819587181660E1    -4.283808330217555       8.406879735428556E1    -3.301331741158314E1    -3.383921913338709E1
 1.063000000000000E9    -2.862946255137908E1     5.723206229417612E1    -4.288778846956113       8.343913690303488E1    -4.285945450084193       8.343592873478379E1    -3.311245811423251E1    -3.385663139415189E1
 1.064000000000000E9    -2.854465163183843E1     5.675787168630836E1    -4.292886592150843       8.283764311030258E1    -4.287962859801818       8.280708797417998E1    -3.327523971870750E1    -3.610398344838900E1
 1.065000000000000E9    -2.859865871339897E1     5.720627710492862E1    -4.285616056746309       8.225180031202825E1    -4.276575227292271       8.224152418581281E1    -3.358731019678282E1    -3.776247310295497E1
 1.066000000000000E9    -2.865090447191586E1     5.739304508545869E1    -4.287859235136124       8.163255483200962E1    -4.288183536377595       8.163700309129891E1    -3.357512654223352E1    -3.981225093636007E1
 1.067000000000000E9    -2.863379210266904E1     5.722200755088448E1    -4.295387184602840       8.104885066781846E1    -4.290632211661951       8.102186325851753E1    -3.383189056220214E1    -4.097256378202206E1
 1.068000000000000E9    -2.865955173920936E1     5.757843259175564E1    -4.299457740085003       8.040060629766050E1    -4.289849256769575       8.042886226775737E1    -3.386118812006996E1    -4.211036798609374E1
 1.069000000000000E9    -2.867442718754919E1     5.656590618991685E1    -4.293281593129760       7.979977168920055E1    -4.286405264530590       7.983405608618038E1    -3.391856130433539E1    -4.258705018228383E1
 1.070000000000000E9    -2.870061086498259E1     5.686996154190373E1    -4.288757225698907       7.925612770624129E1    -4.291152377907444       7.923326983012089E1    -3.394969274279732E1    -4.625761833385306E1
 1.071000000000000E9    -2.866500234946794E1     5.634117505459472E1    -4.297607985489575       7.859461592439195E1    -4.288897452605710       7.861567682310643E1    -3.416177654017433E1    -4.553958274407693E1
 1.072000000000000E9    -2.865065952966189E1     5.661886226225372E1    -4.292018030550892       7.803056529641717E1    -4.289599299970462       7.806586785205829E1    -3.429516772566598E1    -4.799360180607415E1
 1.073000000000000E9    -2.870258199217301E1     5.644021468457745E1    -4.291147214822264       7.742925143161965E1    -4.292660062580566       7.747929609138535E1    -3.439409980495991E1    -4.956316197377118E1
 1.074000000000000E9    -2.869867696686161E1     5.670158943520750E1    -4.294100957478938       7.687852072081648E1    -4.294023041740329       7.679747688864134E1    -3.475187876534635E1    -5.227710164557102E1
 1.075000000000000E9    -2.875094000896142E1     5.670364247923339E1    -4.295317409648784       7.626099013116848E1    -4.292466049742591       7.622900092638649E1    -3.462258969718280E1    -5.278297865746337E1
 1.076000000000000E9    -2.880773111964309E1     5.639884803870848E1    -4.293358348175659       7.567532638743965E1    -4.286396734748895       7.564230051321253E1    -3.468920963857759E1    -5.406299419756309E1
 1.077000000000000E9    -2.873099893848291E1     5.677579396661783E1    -4.287205135649716       7.505093729727980E1    -4.282845836542456       7.504616803926838E1    -3.475035855409382E1    -5.600889049426465E1
 1.078000000000000E9    -2.870469476691982E1     5.648938098998588E1    -4.287928646647576       7.440021322891180E1    -4.286667905735601       7.445563728540648E1    -3.484618576130757E1    -5.866932477260528E1
 1.079000000000000E9    -2.890310644527263E1     5.614935119821642E1    -4.303318102254591       7.382499302022985E1    -4.290262925762066       7.384545891683619E1    -3.505764424677854E1    -5.982682258671953E1
 1.080000000000000E9    -2.880892876994700E1     5.627966667520423E1    -4.294737032923976       7.323143003806909E1    -4.289232650321793       7.326007672195728E1    -3.501331432161648E1    -6.241073356155210E1
 1.081000000000000E9    -2.877962911458413E1     5.678015527149309E1    -4.295862244035793       7.266215377038213E1    -4.290991202182458       7.267370667134908E1    -3.514171811870326E1    -6.263142401655686E1
 1.082000000000000E9    -2.885244391608764E1     5.531480057785449E1    -4.298154305892544       7.205491700661177E1    -4.288161129480520       7.203560407669124E1    -3.535762863745775E1    -6.416464948116847E1
 1.083000000000000E9    -2.877236967240523E1     5.621779893746764E1    -4.297595590631361       7.143556382153265E1    -4.290830798569550       7.147043204462752E1    -3.534053263691732E1    -6.713616083419657E1
 1.084000000000000E9    -2.877765812526774E1     5.608717414656823E1    -4.294360368163234       7.087348872476972E1    -4.288529229688752       7.083861776260036E1    -3.548873880149876E1    -6.599051167189815E1
 1.085000000000000E9    -2.879891585222295E1     5.593296373748567E1    -4.291323020298934       7.026224360362603E1    -4.287198947972586       7.025234709309032E1    -3.561834057547974E1    -6.984680225331883E1
 1.086000000000000E9    -2.884100687511791E1     5.650129231954664E1    -4.295678246712550       6.969183338459715E1    -4.295247546555410       6.967456846411571E1    -3.557063396839447E1    -7.224747334565049E1
 1.087000000000000E9    -2.883064241583501E1     5.602897882316391E1    -4.295018408736499       6.904921118198067E1    -4.294082163589239       6.903331317238865E1    -3.572191199769927E1    -7.372752041567243E1
 1.088000000000000E9    -2.888167831941878E1     5.608227313605312E1    -4.294394321579852       6.848926148956441E1    -4.289689964840954       6.843469587239100E1    -3.566861681212505E1    -7.432749282079531E1
 1.089000000000000E9    -2.885513460100732E1     5.585928676713332E1    -4.288000596488147       6.786414889930379E1    -4.287049377094058       6.782528834209769E1    -3.581237217412185E1    -7.532141611153888E1
 1.090000000000000E9    -2.897368593929975E1     5.553186539436980E1    -4.299612439945902       6.721862436029376E1    -4.290393515043246       6.727694515661220E1    -3.573434198609954E1    -7.922180404646687E1
 1.091000000000000E9    -2.872751500803268E1     5.574567183322085E1    -4.303374839963785       6.662929876898367E1    -4.293747786134436       6.665691562252121E1    -3.585459986247443E1    -8.185970522144660E1
