#  HZ   S   DB   R     50.00 
! Rohde & Schwarz Vector Network Analyzer 
! Rohde-Schwarz,ZNB8-4Port,1311601044102961,2.82
! Created: UTC 3/4/2022, 3:51:28 PM
! freq[Hz]                db:S11                  ang:S11                 db:S21                  ang:S21                 db:S12                  ang:S12                 db:S22                  ang:S22
 1.000000000000000E9    -2.504622089390650E1     9.442969386664957E1    -7.218092340763422       1.212526244166651E2    -7.198286034562242       1.212319583618074E2    -2.225374234852541E1     2.423798661732033E1
 1.001000000000000E9    -2.494069080246333E1     9.448161942492774E1    -7.210790488698336       1.206524088438747E2    -7.202869809194299       1.206639963248312E2    -2.222964419006880E1     2.347486978388104E1
 1.002000000000000E9    -2.501624610479461E1     9.400029519037145E1    -7.205039572961383       1.201221743725610E2    -7.196445624203061       1.200722431967872E2    -2.225180061385530E1     2.320668815127788E1
 1.003000000000000E9    -2.502534950502034E1     9.309716310607222E1    -7.214445430194033       1.194791365279146E2    -7.203334901725739       1.194529073742726E2    -2.222517450350095E1     2.223471540018462E1
 1.004000000000000E9    -2.499678124330232E1     9.296250685851926E1    -7.213638287003380       1.188575383046215E2    -7.194550010348793       1.188519383675335E2    -2.225848440822481E1     2.155713438461854E1
 1.005000000000000E9    -2.497374066550212E1     9.287117209228873E1    -7.206071842535869       1.182287362215320E2    -7.198175424387578       1.182725157553257E2    -2.230273248253905E1     2.107457394379445E1
 1.006000000000000E9    -2.499453110566413E1     9.215214574980423E1    -7.217033798794647       1.176542559474822E2    -7.205635667275240       1.176410986975684E2    -2.237036494292828E1     2.091472357123930E1
 1.007000000000000E9    -2.498869509790949E1     9.250997842983185E1    -7.202817342971802       1.170520934439400E2    -7.207103075770683       1.170953671856748E2    -2.232882329715953E1     1.999745423296190E1
 1.008000000000000E9    -2.496211981007058E1     9.145580014978332E1    -7.215313665121497       1.164461139460463E2    -7.199479745318930       1.164415182036410E2    -2.232843340366414E1     1.931216503072140E1
 1.009000000000000E9    -2.501620748089499E1     9.124757121377780E1    -7.218381075422759       1.158437694849536E2    -7.193624770202391       1.159032158746802E2    -2.237218976026255E1     1.909765172767314E1
 1.010000000000000E9    -2.497836219615873E1     9.119448499656888E1    -7.212385294485824       1.152594171714483E2    -7.207264876501100       1.152841284901342E2    -2.233107317554426E1     1.843725164280269E1
 1.011000000000000E9    -2.499060942281717E1     9.105768485255992E1    -7.221668105874278       1.146696121284532E2    -7.191423016211433       1.146996175314028E2    -2.240542889395763E1     1.742552381704842E1
 1.012000000000000E9    -2.493215874716516E1     9.036534757831454E1    -7.206469669747714       1.140718314576128E2    -7.197369816102144       1.140915460590699E2    -2.242274497386283E1     1.709667337795766E1
 1.013000000000000E9    -2.498439227587426E1     9.035155391079208E1    -7.208200562953343       1.134261843620455E2    -7.203923993029213       1.134657746142436E2    -2.238861711918833E1     1.644795467189261E1
 1.014000000000000E9    -2.491464393787535E1     8.995921446212053E1    -7.216349476753649       1.129080427139491E2    -7.199668183976402       1.129025645504460E2    -2.246367615726004E1     1.604329118303675E1
 1.015000000000000E9    -2.488672284608541E1     8.950141366554193E1    -7.210685406169052       1.122601647160075E2    -7.205289467035938       1.123057094498998E2    -2.243483901949109E1     1.533296224736659E1
 1.016000000000000E9    -2.498445082575969E1     8.874797642503168E1    -7.206485266431047       1.116897242238342E2    -7.197759403533830       1.117304594612360E2    -2.244089104924434E1     1.500150240605034E1
 1.017000000000000E9    -2.490970167770437E1     8.862175457353706E1    -7.213622372697078       1.110754612787687E2    -7.204286007605203       1.110968513797549E2    -2.247011540767547E1     1.449466587123794E1
 1.018000000000000E9    -2.493828448801797E1     8.843168126363659E1    -7.211180617624281       1.105071051462837E2    -7.205722055135894       1.104555896306123E2    -2.249150029450421E1     1.373997432794576E1
 1.019000000000000E9    -2.490957752907863E1     8.853162258583141E1    -7.209323218459071       1.099158012142867E2    -7.209379459602932       1.099357359152619E2    -2.249447708035124E1     1.300594457560519E1
 1.020000000000000E9    -2.491942899886331E1     8.722774075963824E1    -7.214465533053219       1.092578222252425E2    -7.209493518852427       1.093105066689748E2    -2.251502494923031E1     1.262632384503672E1
 1.021000000000000E9    -2.490930245373053E1     8.740283202788244E1    -7.215387735666262       1.086566618325460E2    -7.199082454743984       1.087215775804161E2    -2.260393561417006E1     1.241979358718032E1
 1.022000000000000E9    -2.491414887044205E1     8.717422842651619E1    -7.218123409456911       1.080621947447371E2    -7.204810743411766       1.081257074475250E2    -2.257011456503406E1     1.180138576798236E1
 1.023000000000000E9    -2.498611745775646E1     8.688086558707892E1    -7.226443471209173       1.075366175575089E2    -7.210728704332237       1.075346866598757E2    -2.260656089721992E1     1.121149103025579E1
 1.024000000000000E9    -2.494115336055424E1     8.649784483167740E1    -7.217516731839431       1.069317040719311E2    -7.210550109014737       1.069248182924867E2    -2.259579376053310E1     1.054966709081713E1
 1.025000000000000E9    -2.492344042957720E1     8.629397165002185E1    -7.215147815738884       1.062941941551374E2    -7.199088010074068       1.063074017743947E2    -2.265107959137396E1     1.027842182978531E1
 1.026000000000000E9    -2.488228473191484E1     8.585815762934394E1    -7.216116041381048       1.057282543989430E2    -7.207117630242469       1.057525402696689E2    -2.265466495684839E1     9.788383387452603
 1.027000000000000E9    -2.490446700320840E1     8.557445882967909E1    -7.213135957079203       1.051108068257663E2    -7.206884760894010       1.050825439721509E2    -2.274841151759372E1     9.660097419203879
 1.028000000000000E9    -2.491347797443498E1     8.512552233186007E1    -7.220167719273485       1.044881658752841E2    -7.204325817078747       1.044961967568131E2    -2.275110234448777E1     8.516252257924100
 1.029000000000000E9    -2.490484656733225E1     8.487134269022329E1    -7.216176424088291       1.038997835964227E2    -7.211478332797420       1.039000665447914E2    -2.275399090631073E1     8.333828413807204
 1.030000000000000E9    -2.497039088854857E1     8.422843451932083E1    -7.214812428556748       1.032798050759766E2    -7.212073255113639       1.032673630942426E2    -2.274625381369729E1     7.611258678553413
 1.031000000000000E9    -2.494214941596896E1     8.431457062312475E1    -7.217833299170014       1.027481552647007E2    -7.205941993338119       1.027794104787983E2    -2.278004966945663E1     6.956532267875412
 1.032000000000000E9    -2.492545959707195E1     8.429278668736032E1    -7.213408166159824       1.021072019696799E2    -7.208842076353957       1.021407181601572E2    -2.280067223668122E1     6.535395881771943
 1.033000000000000E9    -2.491732454919496E1     8.382720013326461E1    -7.226144034466353       1.015419587100214E2    -7.208316187641705       1.014515799121255E2    -2.282830946980210E1     6.137983987854776
 1.034000000000000E9    -2.492698068011784E1     8.373850736650893E1    -7.215636316801074       1.009157504666295E2    -7.213464966175074       1.009385096384319E2    -2.286953041419788E1     5.612432669653431
 1.035000000000000E9    -2.494083868643903E1     8.308918648861473E1    -7.214231298836871       1.003072269436937E2    -7.206494474066252       1.003441282177233E2    -2.291165202957554E1     5.270999581669800
 1.036000000000000E9    -2.492192102473202E1     8.290276961168537E1    -7.218801949298070       9.976424146365220E1    -7.214764193671761       9.970056286318363E1    -2.293757742015656E1     4.606640099074946
 1.037000000000000E9    -2.492821824178106E1     8.261713172188186E1    -7.216480819814583       9.914031516785067E1    -7.203195614314288       9.910847902621826E1    -2.297089247293156E1     3.837578912289613
 1.038000000000000E9    -2.495821598826649E1     8.236557545331192E1    -7.217996326080161       9.850116808136653E1    -7.205027013939844       9.850950914673648E1    -2.306702439987002E1     3.467219633717137
 1.039000000000000E9    -2.497389026625885E1     8.172165346015322E1    -7.215520829804609       9.789948535744151E1    -7.208571124758045       9.788682230310999E1    -2.306394342217863E1     3.089937806306767
 1.040000000000000E9    -2.490146924554411E1     8.161877222732989E1    -7.214368192380954       9.733059361054615E1    -7.207173372455817       9.730035900729887E1    -2.317710786155636E1     2.069731326289265
 1.041000000000000E9    -2.493338419922354E1     8.144929250128011E1    -7.202366283821410       9.678014085897968E1    -7.198334184087047       9.669344689012151E1    -2.317031570281381E1     1.738367175231868
 1.042000000000000E9    -2.489428713761410E1     8.107349634104769E1    -7.228335025097021       9.608465856668866E1    -7.211928880801271       9.609003833926178E1    -2.317548764165977E1     1.224381185991933
 1.043000000000000E9    -2.489512848199129E1     8.067398212336470E1    -7.217257728284282       9.554404417999899E1    -7.212075289985171       9.552269306476192E1    -2.322869255133357E1     6.913848168093705E-1
 1.044000000000000E9    -2.493978376548010E1     8.077419147694015E1    -7.216831362778422       9.498919980043614E1    -7.208518926421822       9.495240417775925E1    -2.329474256308686E1     2.677704075522250E-1
 1.045000000000000E9    -2.497310492043523E1     7.986127576944203E1    -7.218977832181142       9.430909680676653E1    -7.212510754509357       9.437511842571536E1    -2.327491840142622E1    -3.417756096695169E-1
 1.046000000000000E9    -2.487847598206139E1     7.997496597170307E1    -7.216123586418385       9.369046859137912E1    -7.208278472518996       9.372997110948928E1    -2.339231447290839E1    -1.076570347536328
 1.047000000000000E9    -2.489724104200052E1     7.974008648944947E1    -7.213274669088786       9.313106761149020E1    -7.205317099658456       9.312632083185608E1    -2.335972927295241E1    -1.528314397502547
 1.048000000000000E9    -2.489365431278227E1     7.940368967026079E1    -7.215931863150724       9.252608186510737E1    -7.204878943340943       9.254899374172071E1    -2.344203916779503E1    -2.230055795623431
 1.049000000000000E9    -2.488577951925550E1     7.917402170617422E1    -7.222942651620377       9.195300428908332E1    -7.206499253535111       9.194959174326581E1    -2.348259239792390E1    -2.947902089257549
 1.050000000000000E9    -2.493641506972598E1     7.872682956199688E1    -7.222825227253656       9.135720539903055E1    -7.204222452239481       9.128647344752230E1    -2.355610515499919E1    -2.870223653052675
 1.051000000000000E9    -2.489177126632869E1     7.865904267874596E1    -7.218181668658284       9.075867589198927E1    -7.204417945272512       9.080066938237974E1    -2.354816126269612E1    -3.654043328328159
 1.052000000000000E9    -2.491313864050964E1     7.840973006312703E1    -7.211100555835898       9.014101157469585E1    -7.204629807304866       9.013592080741574E1    -2.361058445846997E1    -4.305498764957560
 1.053000000000000E9    -2.483825346038609E1     7.789231080365281E1    -7.202740479562319       8.952345595000443E1    -7.208446073164058       8.952201917634088E1    -2.376536413312781E1    -5.024294277231372
 1.054000000000000E9    -2.492987731137823E1     7.790582548662601E1    -7.217821056372962       8.897514356609196E1    -7.209587720900300       8.895404868697814E1    -2.378064154465810E1    -6.033245750248470
 1.055000000000000E9    -2.494807379421498E1     7.749285511223295E1    -7.218211326527314       8.836806031910889E1    -7.209313120042207       8.837323476481853E1    -2.383340076564818E1    -6.218402971890991
 1.056000000000000E9    -2.492301142292955E1     7.711284793064006E1    -7.210046694894514       8.773280477968665E1    -7.214091271279552       8.778898245958169E1    -2.393440411521191E1    -6.845944461130844
 1.057000000000000E9    -2.487927608747879E1     7.662008309956188E1    -7.211458094128415       8.717652644405567E1    -7.203810290517437       8.716601000302613E1    -2.392522342194386E1    -7.365383233673988
 1.058000000000000E9    -2.489362448253132E1     7.668568299527814E1    -7.216923969829958       8.652820416837240E1    -7.205684739878144       8.658790260595946E1    -2.399065318443624E1    -8.182323953949195
 1.059000000000000E9    -2.493199814249892E1     7.644561572764908E1    -7.218208808294635       8.594815320228111E1    -7.202440355314023       8.595325416564663E1    -2.404383600900955E1    -8.484919562836527
 1.060000000000000E9    -2.488950359552964E1     7.613159071894752E1    -7.216685543183351       8.535981304317966E1    -7.209414589701968       8.537813680071125E1    -2.405403052076446E1    -9.045948875016567
 1.061000000000000E9    -2.488586930778005E1     7.597847913999873E1    -7.211121069491231       8.473345229456346E1    -7.218822220910072       8.480909534409132E1    -2.412198823984372E1    -9.731237737502113
 1.062000000000000E9    -2.492813888512490E1     7.586958770582642E1    -7.218744594085394       8.416048212088778E1    -7.216802619572827       8.419305153376263E1    -2.424092651283878E1    -1.095950261867781E1
 1.063000000000000E9    -2.489042177195160E1     7.528098292052687E1    -7.211179001561666       8.356674486195014E1    -7.206355632183428       8.360223632132554E1    -2.429043264052567E1    -1.161549392844699E1
 1.064000000000000E9    -2.488237474974208E1     7.539041166285226E1    -7.216385115515153       8.300121219312898E1    -7.216476338749943       8.297964685058361E1    -2.432317734124939E1    -1.224427755004496E1
 1.065000000000000E9    -2.489860685270035E1     7.470233161738506E1    -7.213199051028751       8.240852157518805E1    -7.210057813168884       8.233464395090701E1    -2.438811125569810E1    -1.330354797969881E1
 1.066000000000000E9    -2.489570857800849E1     7.463187168594159E1    -7.213035480860066       8.177477888002895E1    -7.203625881255177       8.177883210987454E1    -2.447712687577092E1    -1.372534750295813E1
 1.067000000000000E9    -2.487782524367260E1     7.449024457584358E1    -7.215325407799553       8.112174449928267E1    -7.201318976410455       8.121208756137878E1    -2.443281307895002E1    -1.411894863999629E1
 1.068000000000000E9    -2.491689501785005E1     7.399806126648217E1    -7.215050345259875       8.049222515725859E1    -7.209450281575180       8.058475065612312E1    -2.452616783905498E1    -1.545727257473786E1
 1.069000000000000E9    -2.491080523506166E1     7.396745473925630E1    -7.216530492425086       7.996171509549464E1    -7.206279299624367       7.997863595238634E1    -2.454064801777484E1    -1.622727933813949E1
 1.070000000000000E9    -2.482964024359239E1     7.369097699406517E1    -7.219931161756710       7.935674603169301E1    -7.208679693801495       7.937624999415182E1    -2.464343191093481E1    -1.700755909921579E1
 1.071000000000000E9    -2.481884425089980E1     7.281944545652706E1    -7.218041582798710       7.884932094857135E1    -7.213876786965400       7.879822759061496E1    -2.465159559261641E1    -1.777049539164706E1
 1.072000000000000E9    -2.484985153894681E1     7.292703716090466E1    -7.216077517063320       7.820481586525115E1    -7.203122187731665       7.819049459433927E1    -2.474397925991461E1    -1.821571452911454E1
 1.073000000000000E9    -2.485164000826295E1     7.277446321433224E1    -7.221002858013259       7.758731043327425E1    -7.205100475996249       7.759456375630283E1    -2.478921030849920E1    -1.943652101105008E1
 1.074000000000000E9    -2.485281849279169E1     7.254234976472546E1    -7.219596938062770       7.698781970608022E1    -7.213479063315329       7.700348990408813E1    -2.484498241762873E1    -1.948150912652558E1
 1.075000000000000E9    -2.482594800083209E1     7.198628395700089E1    -7.220941005450461       7.641017727607422E1    -7.213205043390152       7.640395965238535E1    -2.489681946188678E1    -2.080371388411699E1
 1.076000000000000E9    -2.481113751141937E1     7.218701729670464E1    -7.216465491225756       7.578606174845498E1    -7.209318301007793       7.578257308474510E1    -2.492934879626966E1    -2.167625133676477E1
 1.077000000000000E9    -2.485590843164248E1     7.199440088275672E1    -7.215347159199000       7.518710611768061E1    -7.200566398320190       7.524534166990624E1    -2.502900856830824E1    -2.262519267057569E1
 1.078000000000000E9    -2.479269791690216E1     7.143511794950734E1    -7.215148324642548       7.458435155339134E1    -7.207688837837417       7.464376471191180E1    -2.495763311941315E1    -2.339951432422248E1
 1.079000000000000E9    -2.483938920509045E1     7.109081239335588E1    -7.223711888912462       7.398330387279400E1    -7.207604429676941       7.402915162282608E1    -2.502256825698229E1    -2.405733821855765E1
 1.080000000000000E9    -2.486538273208935E1     7.085232622473778E1    -7.228327360128754       7.330320118743920E1    -7.212538065392987       7.342585133737315E1    -2.513173669272349E1    -2.514732618652510E1
 1.081000000000000E9    -2.481670919001296E1     7.066213308363211E1    -7.219475967515951       7.275843619400709E1    -7.208718485330853       7.278206054418413E1    -2.509447358822072E1    -2.590971211786707E1
 1.082000000000000E9    -2.478173674109033E1     7.012801331126795E1    -7.217716935871260       7.220586539009445E1    -7.214540714040848       7.218749204032709E1    -2.521900963904742E1    -2.622671783210796E1
 1.083000000000000E9    -2.480643368289701E1     7.004310337479348E1    -7.219296487882057       7.160894114379710E1    -7.204971260745426       7.161154606049209E1    -2.522872712831345E1    -2.704760300594655E1
 1.084000000000000E9    -2.477315293225934E1     7.023209303641743E1    -7.219790737092194       7.096251100706796E1    -7.211975669355208       7.105269242006951E1    -2.521173391101913E1    -2.832558966822406E1
 1.085000000000000E9    -2.476901648290286E1     6.971049349995278E1    -7.227509765806872       7.041212459312884E1    -7.209521460810579       7.045377982665126E1    -2.532051734625426E1    -2.879419070773375E1
 1.086000000000000E9    -2.480226495643827E1     6.923614193071910E1    -7.225681614480930       6.980662069445324E1    -7.211426676885622       6.980392190644376E1    -2.535474089963381E1    -2.945941392123466E1
 1.087000000000000E9    -2.482644918553302E1     6.886917347702477E1    -7.213802048018826       6.917159187493198E1    -7.212446423848270       6.917669237821131E1    -2.539466882096831E1    -3.082931654755110E1
 1.088000000000000E9    -2.479839077017623E1     6.893503700007244E1    -7.221877806639412       6.864962064018606E1    -7.202646344268178       6.862732782992906E1    -2.539665477309527E1    -3.161828337040318E1
 1.089000000000000E9    -2.479991433681809E1     6.839936434239708E1    -7.210242556375825       6.803359878127580E1    -7.208670996689389       6.800883378624000E1    -2.545786320087814E1    -3.214982308221583E1
 1.090000000000000E9    -2.481729501507169E1     6.844321877402334E1    -7.217611532205694       6.740393592347675E1    -7.217504185105237       6.737385668639018E1    -2.543478961963322E1    -3.323236197700622E1
 1.091000000000000E9    -2.480368003482072E1     6.787944917661896E1    -7.214092940328661       6.686145997921648E1    -7.217192711685038       6.682008991789125E1    -2.553452996913166E1    -3.413916547108740E1
