#  HZ   S   DB   R     50.00 
! Rohde & Schwarz Vector Network Analyzer 
! Rohde-Schwarz,ZNB8-4Port,1311601044102961,2.82
! Created: UTC 3/4/2022, 3:49:44 PM
! freq[Hz]                db:S11                  ang:S11                 db:S21                  ang:S21                 db:S12                  ang:S12                 db:S22                  ang:S22
 1.000000000000000E9    -3.117935295003194E1     6.879559361310858E1    -2.629637864303607E-1    1.207103279842143E2    -2.482561797466634E-1    1.207760289139240E2    -3.106044602285845E1    -1.567766484063307E1
 1.001000000000000E9    -3.114808117830978E1     6.853304358059052E1    -2.603434744828490E-1    1.201164613383523E2    -2.555641895719979E-1    1.201326652331268E2    -3.097379542699148E1    -1.631565880982934E1
 1.002000000000000E9    -3.120639446668467E1     6.871951650366520E1    -2.657249957564699E-1    1.195223264975296E2    -2.572168660932090E-1    1.195660650146182E2    -3.111179724502404E1    -1.734298121178205E1
 1.003000000000000E9    -3.121911138229825E1     6.908013744229417E1    -2.696132206260285E-1    1.189681284081853E2    -2.498925070541065E-1    1.189339195843488E2    -3.108968454511732E1    -1.792784286956292E1
 1.004000000000000E9    -3.133477304367953E1     6.832399954535129E1    -2.580117203260557E-1    1.184002924545236E2    -2.503955784207649E-1    1.183366009405057E2    -3.091615398705998E1    -2.073015072394700E1
 1.005000000000000E9    -3.127538049278059E1     6.814537326242895E1    -2.630812673997517E-1    1.177351148225175E2    -2.483114794044217E-1    1.177423592176441E2    -3.120005752791995E1    -2.048618718956460E1
 1.006000000000000E9    -3.150495544833848E1     6.738209525863900E1    -2.676628837076026E-1    1.171031443531771E2    -2.547397895711997E-1    1.171458838505677E2    -3.117853720134468E1    -2.217516477389506E1
 1.007000000000000E9    -3.137262043526310E1     6.744545918702372E1    -2.663588382014415E-1    1.165316975983868E2    -2.559990663557495E-1    1.165515760832460E2    -3.125985149662272E1    -2.324202672164546E1
 1.008000000000000E9    -3.148643612619045E1     6.725687164288434E1    -2.629142313831067E-1    1.159150475862762E2    -2.521417850548272E-1    1.159129182795463E2    -3.134270033072708E1    -2.434721583429027E1
 1.009000000000000E9    -3.161689248247840E1     6.842656963453636E1    -2.689601876543861E-1    1.153101691732698E2    -2.557861189271425E-1    1.153415917767857E2    -3.135241015555511E1    -2.517906919154277E1
 1.010000000000000E9    -3.160651885325147E1     6.670553163222034E1    -2.681400204267981E-1    1.146835171541479E2    -2.549104778915264E-1    1.147291217480926E2    -3.147290133808986E1    -2.641206122585456E1
 1.011000000000000E9    -3.172451903731723E1     6.642541021809157E1    -2.695448611298905E-1    1.141357000181208E2    -2.615897172369510E-1    1.141631123521960E2    -3.151003758665447E1    -2.777234061367085E1
 1.012000000000000E9    -3.174832270594029E1     6.693467921628515E1    -2.671674183860733E-1    1.135800467398101E2    -2.601985479921720E-1    1.135605026020832E2    -3.140704712717580E1    -2.949256955944036E1
 1.013000000000000E9    -3.188313232689347E1     6.590402016348223E1    -2.678182179464551E-1    1.129329435205548E2    -2.520631094157668E-1    1.129276437998451E2    -3.154574485272668E1    -3.014694753554770E1
 1.014000000000000E9    -3.192107452576671E1     6.559853423167438E1    -2.639542922360293E-1    1.123244627568091E2    -2.589740403631512E-1    1.123528032646223E2    -3.175415859547261E1    -3.107444154356599E1
 1.015000000000000E9    -3.208527015888107E1     6.543985014496967E1    -2.662545162302430E-1    1.117106644415155E2    -2.594997316509301E-1    1.117716344226255E2    -3.178600676305212E1    -3.296571294548625E1
 1.016000000000000E9    -3.213130193621838E1     6.505372735046340E1    -2.627216184880029E-1    1.111155635230835E2    -2.577912559451894E-1    1.111419576088026E2    -3.173330344997160E1    -3.357736474183468E1
 1.017000000000000E9    -3.196265438844632E1     6.483803159222045E1    -2.590870932966395E-1    1.105251363587350E2    -2.566029667519221E-1    1.105035761237916E2    -3.184572973308399E1    -3.404244509962872E1
 1.018000000000000E9    -3.215347779108437E1     6.451721231946237E1    -2.684220344798480E-1    1.099390181864535E2    -2.500490042607337E-1    1.099619702519688E2    -3.202568969598168E1    -3.609058714368432E1
 1.019000000000000E9    -3.243086576171794E1     6.551380822761055E1    -2.689956463034529E-1    1.092520868872184E2    -2.545185936667366E-1    1.093537752348134E2    -3.208286097670782E1    -3.520640626508614E1
 1.020000000000000E9    -3.237866043815049E1     6.365057400201667E1    -2.622465369215795E-1    1.087503584926910E2    -2.630809259624877E-1    1.087753155583592E2    -3.210876036692491E1    -3.808521247493135E1
 1.021000000000000E9    -3.247125669991565E1     6.535994629129893E1    -2.656850320541827E-1    1.081474241735720E2    -2.537262149468612E-1    1.081708948601515E2    -3.236370228616647E1    -3.943263603359951E1
 1.022000000000000E9    -3.237526862478744E1     6.485483101512423E1    -2.686404060346407E-1    1.075358109778075E2    -2.552537754670086E-1    1.075602147047766E2    -3.222175807056951E1    -3.908606207206938E1
 1.023000000000000E9    -3.256907979385793E1     6.354200422369729E1    -2.642404107197698E-1    1.069546772119007E2    -2.524136092684997E-1    1.069469436964458E2    -3.252758923972350E1    -4.124867295879353E1
 1.024000000000000E9    -3.275496491505481E1     6.387325867247895E1    -2.627493207902232E-1    1.063575812552714E2    -2.590281358724679E-1    1.063544248564467E2    -3.237172839987625E1    -4.193885302089125E1
 1.025000000000000E9    -3.291103623227114E1     6.376358530103827E1    -2.657743241964855E-1    1.057411496472985E2    -2.616058570361731E-1    1.057321029902684E2    -3.280597600482474E1    -4.416074683494851E1
 1.026000000000000E9    -3.296710150721394E1     6.310751389139772E1    -2.660231119363324E-1    1.051705507757184E2    -2.561073314283298E-1    1.051656570599884E2    -3.254019347047591E1    -4.662550626376984E1
 1.027000000000000E9    -3.296988709984392E1     6.363525936835112E1    -2.681826835459796E-1    1.045171115413581E2    -2.556914624451713E-1    1.045316725454531E2    -3.276773873312285E1    -4.659693566416156E1
 1.028000000000000E9    -3.319242942735917E1     6.430475449581915E1    -2.719816627069163E-1    1.039430707137018E2    -2.521266617113486E-1    1.039329136475160E2    -3.287305629039386E1    -4.751211307115017E1
 1.029000000000000E9    -3.314647646278276E1     6.301920768657771E1    -2.667560606491624E-1    1.033150642796172E2    -2.636870688939871E-1    1.033095579874559E2    -3.322235882110376E1    -4.840237797296319E1
 1.030000000000000E9    -3.339431685586025E1     6.302745169886414E1    -2.657589880968557E-1    1.027198073110768E2    -2.587316867757631E-1    1.027711891678708E2    -3.295963331147749E1    -4.962532369801528E1
 1.031000000000000E9    -3.347614687652192E1     6.265113709582541E1    -2.652475684563994E-1    1.021134924757585E2    -2.573799567821644E-1    1.021712294083393E2    -3.315668773525525E1    -5.247657854740538E1
 1.032000000000000E9    -3.380313342932718E1     6.414225854735280E1    -2.653157465129668E-1    1.015259232886821E2    -2.607312686281749E-1    1.015661901248771E2    -3.342858512386527E1    -5.125826786414598E1
 1.033000000000000E9    -3.399322968571652E1     6.499642464864849E1    -2.656905505659754E-1    1.009128137109475E2    -2.578707188085398E-1    1.009846461175770E2    -3.337792088403199E1    -5.356633751125477E1
 1.034000000000000E9    -3.411331364170501E1     6.498310313170852E1    -2.649198737681334E-1    1.003377655067571E2    -2.631510741256575E-1    1.003275340883206E2    -3.357244128583101E1    -5.733720100053944E1
 1.035000000000000E9    -3.435781616846454E1     6.449304182105443E1    -2.639662673747641E-1    9.973074048672142E1    -2.577306224586627E-1    9.975982790830167E1    -3.376401252077167E1    -5.776546377367974E1
 1.036000000000000E9    -3.444270978875002E1     6.502245636059337E1    -2.652742622830990E-1    9.912682917670107E1    -2.571836058120989E-1    9.914411016141655E1    -3.410830794053421E1    -6.017930617919163E1
 1.037000000000000E9    -3.430163394708672E1     6.536837331334330E1    -2.763277509146510E-1    9.854094056981940E1    -2.601706548860099E-1    9.855657208610649E1    -3.389929429875224E1    -6.082705964573106E1
 1.038000000000000E9    -3.453725922067727E1     6.577366129591054E1    -2.606410247054891E-1    9.791099934438434E1    -2.596581229059993E-1    9.792150376824836E1    -3.410482795449160E1    -6.291309363596991E1
 1.039000000000000E9    -3.450739133865633E1     6.603661031181157E1    -2.633831154692228E-1    9.734285737293757E1    -2.568510245818574E-1    9.735478915811821E1    -3.434270808163601E1    -6.413555784836180E1
 1.040000000000000E9    -3.483064133143645E1     6.611194969705643E1    -2.666429775271572E-1    9.671674307038833E1    -2.572181328835441E-1    9.678791283318085E1    -3.414569311260995E1    -6.568396784588953E1
 1.041000000000000E9    -3.501071122955877E1     6.588605840060579E1    -2.725784196648441E-1    9.614503070396526E1    -2.511741832464601E-1    9.611930762065703E1    -3.435750038401921E1    -6.913947361382856E1
 1.042000000000000E9    -3.516167323115666E1     6.729092781502074E1    -2.659008274702728E-1    9.555363056482398E1    -2.573186595907948E-1    9.554407588674808E1    -3.441482416090908E1    -7.087413348463961E1
 1.043000000000000E9    -3.528545617555076E1     6.772765669408163E1    -2.729619236604900E-1    9.494847349208746E1    -2.602168361120459E-1    9.489129521575264E1    -3.460268066784790E1    -7.194632604123169E1
 1.044000000000000E9    -3.567693821203235E1     7.077262239880467E1    -2.765212716718815E-1    9.436808610616424E1    -2.574269562755711E-1    9.432730242317184E1    -3.478549596966163E1    -7.641194130873500E1
 1.045000000000000E9    -3.545697612522834E1     6.916997391268168E1    -2.628449248284539E-1    9.372159702328202E1    -2.588186266315701E-1    9.375889339948623E1    -3.481911856732510E1    -7.661555344237827E1
 1.046000000000000E9    -3.591972117834965E1     7.095953564045718E1    -2.644535208380958E-1    9.311843390252031E1    -2.557829726512494E-1    9.313985105492493E1    -3.490314914703986E1    -8.102872276623967E1
 1.047000000000000E9    -3.588652346046141E1     7.260723208700659E1    -2.630776690949004E-1    9.250816095665168E1    -2.570472228140541E-1    9.253910004342180E1    -3.498676043466980E1    -8.382275284147681E1
 1.048000000000000E9    -3.607773590648253E1     7.324904652933046E1    -2.756158231762880E-1    9.191264443143352E1    -2.598943916059130E-1    9.192638059116113E1    -3.504689054621687E1    -8.423960368219643E1
 1.049000000000000E9    -3.609593060937360E1     7.286969521601701E1    -2.700065074961843E-1    9.131512852723165E1    -2.587648959230005E-1    9.137947026047013E1    -3.513455999614817E1    -8.599419922753914E1
 1.050000000000000E9    -3.626207266081979E1     7.545443082326325E1    -2.699625874731506E-1    9.077319544350365E1    -2.563084985803995E-1    9.071805119622152E1    -3.514074809472458E1    -8.999415765418057E1
 1.051000000000000E9    -3.638613601630697E1     7.611085865841451E1    -2.640498647719484E-1    9.015012760341604E1    -2.617431782171746E-1    9.017098750295193E1    -3.522051539848567E1    -9.235094344338413E1
 1.052000000000000E9    -3.654626388447817E1     7.808177723647383E1    -2.669337847493238E-1    8.950443394414332E1    -2.591832009475151E-1    8.954930685755014E1    -3.493624838690911E1    -9.416939987874602E1
 1.053000000000000E9    -3.658759989969116E1     8.006915797342995E1    -2.640637122726581E-1    8.894949187943760E1    -2.653170213697441E-1    8.891830659201679E1    -3.516689465084898E1    -9.988684836997167E1
 1.054000000000000E9    -3.670223048403354E1     8.248983512094524E1    -2.706222403889027E-1    8.832444076673947E1    -2.582742595497561E-1    8.833387566568982E1    -3.512525589746004E1    -1.004979239665336E2
 1.055000000000000E9    -3.651489776378028E1     8.285495653902513E1    -2.714946922710372E-1    8.769134497215804E1    -2.636053452514996E-1    8.770321054659638E1    -3.491604639297365E1    -1.029209235237148E2
 1.056000000000000E9    -3.674557308365426E1     8.433570266033227E1    -2.693902392675124E-1    8.710482213837202E1    -2.651468222050459E-1    8.713799545216190E1    -3.502675241561446E1    -1.038258101544005E2
 1.057000000000000E9    -3.663546540597934E1     8.498528718610278E1    -2.751745640519118E-1    8.650958202389204E1    -2.637506885766342E-1    8.655473140978444E1    -3.490150290222808E1    -1.069852891426698E2
 1.058000000000000E9    -3.675983734442364E1     8.957318253798333E1    -2.682476525770492E-1    8.590943979226235E1    -2.677588658577841E-1    8.594252387858835E1    -3.465331291355250E1    -1.108235479576714E2
 1.059000000000000E9    -3.661820816972490E1     9.038078676584289E1    -2.681831207485277E-1    8.533398996114626E1    -2.645941982092572E-1    8.532569356431792E1    -3.483775733142979E1    -1.126479158904202E2
 1.060000000000000E9    -3.635213817142000E1     8.992260380789381E1    -2.717955982480360E-1    8.472433361846142E1    -2.601349860851142E-1    8.473134704068528E1    -3.483913868924866E1    -1.143888892091675E2
 1.061000000000000E9    -3.604759094762353E1     9.312591254904568E1    -2.660179461438099E-1    8.414782958443949E1    -2.629632355433206E-1    8.412003971751126E1    -3.451909684233856E1    -1.180471756745107E2
 1.062000000000000E9    -3.655780371345063E1     9.383306085488800E1    -2.647648313602068E-1    8.354566025159069E1    -2.609925935617674E-1    8.354851071048456E1    -3.417428537636708E1    -1.173044560262831E2
 1.063000000000000E9    -3.608412802199420E1     9.591811908557935E1    -2.685959826590698E-1    8.294027308072246E1    -2.692752710120055E-1    8.295693131979897E1    -3.445077076732100E1    -1.228644378949839E2
 1.064000000000000E9    -3.595250655187681E1     9.808432893829976E1    -2.711935657705232E-1    8.234909764454540E1    -2.706711131673209E-1    8.235497723802418E1    -3.411291879136150E1    -1.239278497044928E2
 1.065000000000000E9    -3.606054381889538E1     9.924005033331434E1    -2.707054089221538E-1    8.170567795886537E1    -2.624637583597325E-1    8.173342859927985E1    -3.399028531648920E1    -1.268388188360657E2
 1.066000000000000E9    -3.583944690882515E1     1.004307238866051E2    -2.767390791326632E-1    8.114556789605803E1    -2.610845500651132E-1    8.113966322396206E1    -3.393701206669236E1    -1.277965969797197E2
 1.067000000000000E9    -3.581505775658201E1     9.975442330987175E1    -2.708476382906855E-1    8.052598944003289E1    -2.700413517561850E-1    8.048576694399503E1    -3.374463940438452E1    -1.298319442187035E2
 1.068000000000000E9    -3.551284045359585E1     1.002110031399108E2    -2.686488171977874E-1    7.990231847569534E1    -2.695448713060520E-1    7.996627296591689E1    -3.365790425520483E1    -1.307464752615474E2
 1.069000000000000E9    -3.530324342939614E1     1.022189748222299E2    -2.725875950049251E-1    7.929816544392612E1    -2.647999152128251E-1    7.936029601007304E1    -3.341399147292393E1    -1.329004631250934E2
 1.070000000000000E9    -3.544983653322544E1     1.037893260776426E2    -2.764536758266286E-1    7.872720452406796E1    -2.621156628445908E-1    7.873162357398395E1    -3.325965716319289E1    -1.345582153233010E2
 1.071000000000000E9    -3.512573472765345E1     1.030748961426988E2    -2.714275963161129E-1    7.809288336549443E1    -2.603420933000689E-1    7.814304943803514E1    -3.297594643655155E1    -1.360007622764203E2
 1.072000000000000E9    -3.484998663375603E1     1.039859746441530E2    -2.728791835599761E-1    7.751528599381695E1    -2.659810588729306E-1    7.755558570688982E1    -3.270794223811392E1    -1.381626467958654E2
 1.073000000000000E9    -3.486670405861820E1     1.057458625510192E2    -2.749733855315938E-1    7.691564452353215E1    -2.627283742716375E-1    7.695747838537396E1    -3.279730649143559E1    -1.393883650458658E2
 1.074000000000000E9    -3.446999711685869E1     1.057029866831943E2    -2.734741376809048E-1    7.633707656735385E1    -2.654730343619282E-1    7.637456310405948E1    -3.254391253099573E1    -1.411678152423718E2
 1.075000000000000E9    -3.442248062141962E1     1.057973741238294E2    -2.687675353593158E-1    7.574279151328059E1    -2.654375654349105E-1    7.571632067572654E1    -3.243006733998912E1    -1.425734236638327E2
 1.076000000000000E9    -3.418229169679975E1     1.086044368504670E2    -2.767001192477561E-1    7.508294965415811E1    -2.671975960183582E-1    7.514997527029922E1    -3.219855017964425E1    -1.431528648084215E2
 1.077000000000000E9    -3.408057255727066E1     1.091617359126545E2    -2.738469003788009E-1    7.457920665211907E1    -2.649678472232068E-1    7.453541040626408E1    -3.226595416774099E1    -1.463241164976793E2
 1.078000000000000E9    -3.397459415554995E1     1.075790436952932E2    -2.735448356806534E-1    7.392906497231812E1    -2.680786851217120E-1    7.390650391062188E1    -3.210133963271439E1    -1.456916449021841E2
 1.079000000000000E9    -3.385871192356252E1     1.090505158767018E2    -2.750993033291581E-1    7.329971681491679E1    -2.644202423175976E-1    7.332304797583142E1    -3.170691167749428E1    -1.474403272041997E2
 1.080000000000000E9    -3.365230716800714E1     1.100680802403078E2    -2.785024878571206E-1    7.269553679594544E1    -2.638148986509256E-1    7.273661657217235E1    -3.159492672517997E1    -1.497531432779248E2
 1.081000000000000E9    -3.324054344006648E1     1.085219792689628E2    -2.735234216759043E-1    7.215575574631947E1    -2.687470920639645E-1    7.213101028972679E1    -3.149732045965732E1    -1.516989383379227E2
 1.082000000000000E9    -3.341090099838641E1     1.097159055519948E2    -2.776967007632903E-1    7.151316576795011E1    -2.726028910668344E-1    7.153437778642342E1    -3.146800473517780E1    -1.508297676156228E2
 1.083000000000000E9    -3.306463633837893E1     1.103284824092896E2    -2.733155350878210E-1    7.091016738442407E1    -2.663195221106832E-1    7.094084055519822E1    -3.130029287432298E1    -1.540412862322544E2
 1.084000000000000E9    -3.292640145639003E1     1.097955939610592E2    -2.710249404822985E-1    7.031529920143554E1    -2.664894518659182E-1    7.032611969599243E1    -3.120413384924499E1    -1.541253862965192E2
 1.085000000000000E9    -3.278680714319916E1     1.091058181567245E2    -2.756500741106637E-1    6.971097573984611E1    -2.684767640124366E-1    6.974013168852243E1    -3.105981144342326E1    -1.558605003813829E2
 1.086000000000000E9    -3.251987681933890E1     1.102880487956761E2    -2.756009443760903E-1    6.914757795862528E1    -2.714705831263994E-1    6.916477586719364E1    -3.088381155747632E1    -1.565352120540838E2
 1.087000000000000E9    -3.263823682468869E1     1.099573448013664E2    -2.756734883512279E-1    6.854687621714977E1    -2.720446116841753E-1    6.855547010741755E1    -3.077303030389129E1    -1.569041210476847E2
 1.088000000000000E9    -3.239807884034663E1     1.089009838323503E2    -2.773342565577255E-1    6.790480291282357E1    -2.671090277722603E-1    6.793477554712221E1    -3.070934267324699E1    -1.592659741752721E2
 1.089000000000000E9    -3.234089591444734E1     1.096292689331329E2    -2.706631530207654E-1    6.729780518556792E1    -2.719748121084912E-1    6.732292220925731E1    -3.051318737493822E1    -1.601179290845107E2
 1.090000000000000E9    -3.230077041494252E1     1.095765718562442E2    -2.754677577746783E-1    6.674307282553748E1    -2.735256884886657E-1    6.672241740195149E1    -3.040238177972665E1    -1.598195008499757E2
 1.091000000000000E9    -3.196248346478692E1     1.105720611980348E2    -2.786701512524613E-1    6.618309137942168E1    -2.725242629702510E-1    6.611246785471165E1    -3.024944658397774E1    -1.621010791961972E2
