#  HZ   S   DB   R     50.00 
! Rohde & Schwarz Vector Network Analyzer 
! Rohde-Schwarz,ZNB8-4Port,1311601044102961,2.82
! Created: UTC 3/4/2022, 3:50:01 PM
! freq[Hz]                db:S11                  ang:S11                 db:S21                  ang:S21                 db:S12                  ang:S12                 db:S22                  ang:S22
 1.000000000000000E9    -2.949078649775638E1     1.156164971739468E2    -1.231456741470702       1.206024167128812E2    -1.228755379159332       1.206009082982569E2    -2.096620635626215E1     3.637335410788192E1
 1.001000000000000E9    -2.942574595630514E1     1.148804921838108E2    -1.238136808413657       1.199730336352427E2    -1.234792461435201       1.200170178526813E2    -2.107435548907859E1     3.552669752717920E1
 1.002000000000000E9    -2.949829282503991E1     1.146056280602880E2    -1.241551487884561       1.193650179849874E2    -1.230215035690939       1.193713485959803E2    -2.106554248768944E1     3.531773034338134E1
 1.003000000000000E9    -2.937902014196206E1     1.139163532347111E2    -1.247510360132889       1.187560529453790E2    -1.232778449927613       1.187416106679698E2    -2.111741158052913E1     3.455129366811824E1
 1.004000000000000E9    -2.950541987710441E1     1.142096923689472E2    -1.238363396319604       1.182040136674369E2    -1.235183307136501       1.181530608043817E2    -2.109580486991496E1     3.339777996744842E1
 1.005000000000000E9    -2.933263087281249E1     1.146179929311509E2    -1.242594187735467       1.175320696650155E2    -1.228924552423689       1.175708216069977E2    -2.115327769292525E1     3.288260591045697E1
 1.006000000000000E9    -2.941434146241404E1     1.143930046441632E2    -1.242423226806993       1.169500520756707E2    -1.229283864465365       1.169960632051598E2    -2.111555198981674E1     3.261413699118187E1
 1.007000000000000E9    -2.939995936944449E1     1.137085217406729E2    -1.247185013278835       1.163608474623509E2    -1.229005593106289       1.163944460534064E2    -2.116951383734076E1     3.195710804951846E1
 1.008000000000000E9    -2.934227363533606E1     1.125772679073479E2    -1.241117629681266       1.157897068323541E2    -1.235512886566797       1.158080873567060E2    -2.118042107577603E1     3.153809721402162E1
 1.009000000000000E9    -2.941666176100035E1     1.135933826012088E2    -1.245855843450632       1.151732402176241E2    -1.229620142403674       1.152196092923346E2    -2.119928775266304E1     3.077695396121457E1
 1.010000000000000E9    -2.945448915261355E1     1.120131381569602E2    -1.247783120772101       1.145203421813906E2    -1.233331708667513       1.145856880036924E2    -2.125363678876293E1     2.994396860933970E1
 1.011000000000000E9    -2.952981883030151E1     1.128069708479342E2    -1.240487777597636       1.139789320368335E2    -1.236698985494191       1.139706680563933E2    -2.127263272570897E1     2.946886966334781E1
 1.012000000000000E9    -2.947412158584118E1     1.128164736838016E2    -1.246785518577109       1.133512135495028E2    -1.235521877831157       1.133836388968424E2    -2.126846636255169E1     2.860221065031997E1
 1.013000000000000E9    -2.942441201311079E1     1.125500986951753E2    -1.239264883717716       1.127856353702984E2    -1.240989775484507       1.127747426001812E2    -2.129087128399397E1     2.823740315912830E1
 1.014000000000000E9    -2.943965563389006E1     1.116650577798585E2    -1.239799998102527       1.121661902332141E2    -1.234975139724085       1.121306863245708E2    -2.133329930694778E1     2.752444681926317E1
 1.015000000000000E9    -2.947345366288400E1     1.122653943516885E2    -1.243266706308079       1.115949952597818E2    -1.238842404029266       1.115952891962140E2    -2.135293539553613E1     2.665972206690980E1
 1.016000000000000E9    -2.945553578225179E1     1.117198772210279E2    -1.243365613123794       1.109646120556240E2    -1.238618315199036       1.110034112527322E2    -2.137051423618841E1     2.637255649371706E1
 1.017000000000000E9    -2.954939786480958E1     1.112751107767221E2    -1.245900759036355       1.103863307219516E2    -1.238677033420450       1.103839138331174E2    -2.137132345761493E1     2.563676036419595E1
 1.018000000000000E9    -2.951713752740768E1     1.107415870944502E2    -1.246434484380794       1.097894739541594E2    -1.229315046063618       1.098018689541192E2    -2.142628246419761E1     2.530488029595820E1
 1.019000000000000E9    -2.963973874607004E1     1.119152391140995E2    -1.241443202946631       1.091806809041842E2    -1.240396421213206       1.091913719734617E2    -2.142024550066390E1     2.456052532140664E1
 1.020000000000000E9    -2.952478612506333E1     1.106287287051712E2    -1.247717327192344       1.085120521428347E2    -1.232162337482633       1.085892269595377E2    -2.147237829094969E1     2.417707184144486E1
 1.021000000000000E9    -2.955346387373497E1     1.107338198630959E2    -1.240111816650719       1.079663781236682E2    -1.229734965629230       1.080106961744356E2    -2.154824220863830E1     2.382972054293256E1
 1.022000000000000E9    -2.949102277693727E1     1.109408921687671E2    -1.248930285274822       1.073854605886835E2    -1.235760704304128       1.073752516446921E2    -2.148532861086822E1     2.329723937887125E1
 1.023000000000000E9    -2.960361681247851E1     1.107082742061001E2    -1.248131929172712       1.067924593517051E2    -1.233623967052516       1.068188618023043E2    -2.151616673581034E1     2.251209128991853E1
 1.024000000000000E9    -2.954386745219431E1     1.105225497969512E2    -1.248458874508094       1.061740165110435E2    -1.236945670128564       1.062132299100754E2    -2.158172710326666E1     2.218588902631571E1
 1.025000000000000E9    -2.958772106935984E1     1.105443419636157E2    -1.244821734052465       1.056198215211992E2    -1.240097808176557       1.055748433961557E2    -2.164984951934498E1     2.148854930254257E1
 1.026000000000000E9    -2.964091273949105E1     1.107206213385591E2    -1.245664484779472       1.049920125780548E2    -1.236667301416638       1.050581840875524E2    -2.161675580404309E1     2.072589542630199E1
 1.027000000000000E9    -2.963487629692276E1     1.102137038261581E2    -1.247617619071661       1.043678382881357E2    -1.241350559517187       1.044181475073242E2    -2.163980987588493E1     2.027463334750701E1
 1.028000000000000E9    -2.960929862345178E1     1.094299287360757E2    -1.249015888744585       1.038010196066018E2    -1.233476346381793       1.038244730174307E2    -2.168935387544963E1     1.958206301985277E1
 1.029000000000000E9    -2.959363222460332E1     1.098922914363514E2    -1.249651526455756       1.031933469593099E2    -1.243294724969347       1.031405457492059E2    -2.168370312181099E1     1.926113206070311E1
 1.030000000000000E9    -2.967768880968605E1     1.104024015739466E2    -1.252594306191704       1.025898733747939E2    -1.239267286782959       1.025966929233511E2    -2.177613932315732E1     1.899165409884659E1
 1.031000000000000E9    -2.966639301876108E1     1.097309846038093E2    -1.244319537532020       1.020562574327975E2    -1.242214397559547       1.020142534130741E2    -2.180853442725356E1     1.847095529196090E1
 1.032000000000000E9    -2.964580941584117E1     1.101341419838597E2    -1.248961457589436       1.014123686155914E2    -1.241013068052192       1.014041811870393E2    -2.176493933361410E1     1.796219728554789E1
 1.033000000000000E9    -2.967672594352132E1     1.102175059964165E2    -1.257226482133487       1.007647977770228E2    -1.237855350047177       1.008431940402729E2    -2.184469110437795E1     1.694045540207410E1
 1.034000000000000E9    -2.964183432925203E1     1.101772199076484E2    -1.252857793790891       1.002266511104369E2    -1.238486414567135       1.002265185760186E2    -2.192236362960141E1     1.673359126797611E1
 1.035000000000000E9    -2.974201218175026E1     1.110335155727117E2    -1.247592966343087       9.961048044084184E1    -1.232599668976195       9.962434338590190E1    -2.194943489897615E1     1.612993689402730E1
 1.036000000000000E9    -2.967013589147797E1     1.102241036668128E2    -1.244941563378533       9.899628157478809E1    -1.237600871447094       9.899799013712133E1    -2.204048731756985E1     1.561734895915994E1
 1.037000000000000E9    -2.969734181330203E1     1.106294628068808E2    -1.248348878382385       9.841751989232769E1    -1.238673663014098       9.842194038973314E1    -2.198005761748457E1     1.511113033872664E1
 1.038000000000000E9    -2.961996307820235E1     1.105057497841537E2    -1.250759786959401       9.779615432641904E1    -1.240658361255796       9.781930203791904E1    -2.207908251025909E1     1.483774023462209E1
 1.039000000000000E9    -2.968501455658554E1     1.110409085310232E2    -1.247893870997790       9.721372476328999E1    -1.239452962795087       9.721161239091514E1    -2.211442809001720E1     1.444070109574580E1
 1.040000000000000E9    -2.970892197773732E1     1.106200232495919E2    -1.248711018416652       9.658402063646390E1    -1.243911528962985       9.659587710410472E1    -2.213988355220931E1     1.356580612379930E1
 1.041000000000000E9    -2.958627218196040E1     1.108272270352210E2    -1.250139806970411       9.601452238767821E1    -1.234769642778040       9.600907415433061E1    -2.218456362993692E1     1.298786703156360E1
 1.042000000000000E9    -2.971141288172942E1     1.113569818512294E2    -1.248360663201907       9.542095816559427E1    -1.238301601176998       9.540849797638555E1    -2.221072740118009E1     1.282425445841979E1
 1.043000000000000E9    -2.969892659957355E1     1.110648957115732E2    -1.246126170773353       9.485048763078567E1    -1.244412756369845       9.480482604809043E1    -2.228176557618330E1     1.221794991853915E1
 1.044000000000000E9    -2.964956574009475E1     1.116379565557380E2    -1.251133653672507       9.421386582029948E1    -1.239386061210087       9.425079055806148E1    -2.235884972184060E1     1.151450879766977E1
 1.045000000000000E9    -2.962419633386030E1     1.110210056974309E2    -1.244417654857763       9.356661376153107E1    -1.237979994258768       9.361884522381783E1    -2.238735242317642E1     1.090711868666914E1
 1.046000000000000E9    -2.955637665184979E1     1.118364768809661E2    -1.251334692721605       9.302285978366263E1    -1.239573156598026       9.301694760263614E1    -2.246011971412358E1     1.088890233319143E1
 1.047000000000000E9    -2.959392778485592E1     1.120058506699098E2    -1.241591724998610       9.244060213660201E1    -1.241276559860888       9.241366937177938E1    -2.255227191167602E1     9.958498231054143
 1.048000000000000E9    -2.966301109310711E1     1.115265171747939E2    -1.251895475431284       9.181170057135894E1    -1.237802517905766       9.181124494737482E1    -2.252674141831493E1     9.118675062957664
 1.049000000000000E9    -2.955045643622156E1     1.118907992456181E2    -1.255323220138753       9.120539135808394E1    -1.240798194278244       9.123442087329130E1    -2.254209506695609E1     8.960636090643934
 1.050000000000000E9    -2.948138753158672E1     1.126511259223300E2    -1.251626646607037       9.059368112364500E1    -1.240408019242658       9.063370725489078E1    -2.267638592678957E1     8.940102978468575
 1.051000000000000E9    -2.942676423123983E1     1.121802447588873E2    -1.249721817988085       9.000907108507921E1    -1.242043482059310       9.004124206219871E1    -2.276434501228537E1     8.130841358679946
 1.052000000000000E9    -2.951036399015983E1     1.125124274190645E2    -1.245439502123156       8.943654920817548E1    -1.237074600062229       8.944330591442449E1    -2.273927592791461E1     7.174744859129612
 1.053000000000000E9    -2.942910868668196E1     1.129002603050529E2    -1.249131589365782       8.882349018393580E1    -1.246562144844936       8.883015094156444E1    -2.289825296099262E1     6.890536409364083
 1.054000000000000E9    -2.936479553760857E1     1.128736666469863E2    -1.244165159299237       8.822006634431958E1    -1.246205672671200       8.825412843070335E1    -2.295535890838261E1     6.376623163386700
 1.055000000000000E9    -2.930306725740465E1     1.130194081347006E2    -1.241354697318526       8.764196552517093E1    -1.236612757567846       8.764809712084173E1    -2.297661544514390E1     5.535072008243370
 1.056000000000000E9    -2.934335285284583E1     1.131323083664741E2    -1.242815936991313       8.701272306778823E1    -1.239467459713142       8.704007219894994E1    -2.302853497971631E1     4.969070563566451
 1.057000000000000E9    -2.914845568620191E1     1.131157831486587E2    -1.246997869692654       8.639371335584278E1    -1.246972420262034       8.644486907707895E1    -2.311546141710256E1     4.435509959836531
 1.058000000000000E9    -2.914773721159881E1     1.139205306152550E2    -1.250236060121722       8.580411649643359E1    -1.236183201479194       8.585117762196526E1    -2.318139458059511E1     3.778218151685428
 1.059000000000000E9    -2.909438225162721E1     1.135231771042066E2    -1.250062469166068       8.522894184193507E1    -1.241364741301077       8.521591504147638E1    -2.324405875091581E1     3.301049463834093
 1.060000000000000E9    -2.901278617593184E1     1.135419353918878E2    -1.243140034291269       8.459628596099299E1    -1.239873331201356       8.462011199003788E1    -2.326033933349402E1     2.860539607080231
 1.061000000000000E9    -2.893418620899175E1     1.140181239483212E2    -1.244012030679491       8.403507071849813E1    -1.245247707008000       8.407121160484682E1    -2.340831166364883E1     1.913061646906486
 1.062000000000000E9    -2.899220932442079E1     1.141462529243039E2    -1.244283687315369       8.340217594579515E1    -1.243132143054489       8.345811001675230E1    -2.348035479114420E1     1.334460588561951
 1.063000000000000E9    -2.885018863466193E1     1.140541272808516E2    -1.250228195229319       8.281029905387274E1    -1.240796063397551       8.285279510375962E1    -2.355521817462973E1     1.065166409083686
 1.064000000000000E9    -2.876364031816646E1     1.143726944356069E2    -1.250521066784036       8.221309945185539E1    -1.245643735759248       8.227243009276830E1    -2.360775791797447E1     6.522201514423268E-1
 1.065000000000000E9    -2.873479945549477E1     1.141926729709910E2    -1.241579410225409       8.164671401036603E1    -1.242759180747836       8.164573657702128E1    -2.362478964838720E1    -1.595590582824572E-1
 1.066000000000000E9    -2.863620033533067E1     1.150326111486564E2    -1.252028573518620       8.104286190301721E1    -1.236084663674115       8.102752432481196E1    -2.369270547348361E1    -1.497146908873213
 1.067000000000000E9    -2.856883924369318E1     1.132806588466167E2    -1.247094619570621       8.047136478753176E1    -1.244249380805294       8.044498631454472E1    -2.377577011358346E1    -1.383795528219119
 1.068000000000000E9    -2.849025095710589E1     1.135074847005223E2    -1.244929799969301       7.983454175014346E1    -1.237965212941001       7.989018776583967E1    -2.381341917227744E1    -2.819730365461964
 1.069000000000000E9    -2.844236095753793E1     1.143916646735947E2    -1.245474086456049       7.925097719804434E1    -1.234852456063861       7.925223700044280E1    -2.383011186288227E1    -3.249659015336591
 1.070000000000000E9    -2.840784623304637E1     1.137197490166658E2    -1.250973946697966       7.865072186456524E1    -1.237194524837020       7.865293586799226E1    -2.394752146113952E1    -3.791013290482118
 1.071000000000000E9    -2.830743344658205E1     1.130782737420760E2    -1.248759192510299       7.803119189094704E1    -1.243068969274079       7.808255452789190E1    -2.399241544107996E1    -3.983737096732390
 1.072000000000000E9    -2.819948636437211E1     1.131204994026467E2    -1.245474309355299       7.744884177272938E1    -1.234222834844095       7.747560137336504E1    -2.407881755002084E1    -5.380463402503354
 1.073000000000000E9    -2.810015939858268E1     1.137885145199643E2    -1.251741325853397       7.685330803254473E1    -1.239925552647832       7.682078077085566E1    -2.409436001889620E1    -5.894755973441971
 1.074000000000000E9    -2.801612430380359E1     1.133230664079611E2    -1.244797971167704       7.622759512931667E1    -1.239302563792986       7.626261725236276E1    -2.424783900126661E1    -6.458739634744831
 1.075000000000000E9    -2.796407991964395E1     1.128999643883088E2    -1.250972543061910       7.560424977319805E1    -1.245662978465733       7.565978738457140E1    -2.433595621455470E1    -6.999608590856388
 1.076000000000000E9    -2.796259682921697E1     1.133577874830499E2    -1.248460667057074       7.505491450146441E1    -1.247477801956085       7.510836058845453E1    -2.432986885872749E1    -7.811269148828766
 1.077000000000000E9    -2.791812369725733E1     1.132358744315267E2    -1.252279629033913       7.446928767548172E1    -1.243517830221189       7.445400403185685E1    -2.442665366266032E1    -8.207423748662205
 1.078000000000000E9    -2.779930615367251E1     1.122214574994209E2    -1.246996543474288       7.385320515443674E1    -1.245512842865580       7.382664559440461E1    -2.439119482617542E1    -9.542044562915411
 1.079000000000000E9    -2.778902864171094E1     1.124899582870414E2    -1.256761260001189       7.326268476524176E1    -1.244544205010109       7.324488728294561E1    -2.459948285481640E1    -1.030170110710741E1
 1.080000000000000E9    -2.766967891010136E1     1.119789527991109E2    -1.245917537557449       7.262643647666978E1    -1.242730546517803       7.265716907481210E1    -2.469879995606479E1    -1.100730696513675E1
 1.081000000000000E9    -2.752804227982919E1     1.124672381497232E2    -1.248934603424153       7.204218746307039E1    -1.246005229291729       7.206666130821203E1    -2.473116200176143E1    -1.135506420197844E1
 1.082000000000000E9    -2.760514117634018E1     1.119348523190851E2    -1.254031459946914       7.144219501069991E1    -1.238725261179807       7.147999859053579E1    -2.474055190298987E1    -1.247081066822515E1
 1.083000000000000E9    -2.737545756456001E1     1.112766358437190E2    -1.244959667769272       7.087350761373592E1    -1.248567364654158       7.085808469428073E1    -2.477480964060333E1    -1.291176697024169E1
 1.084000000000000E9    -2.741870889767524E1     1.117124922922600E2    -1.252090382864645       7.023219753701973E1    -1.236837837134939       7.021142916376688E1    -2.486471633148753E1    -1.364921740532710E1
 1.085000000000000E9    -2.741880785592683E1     1.110871020707921E2    -1.249258322605805       6.966266164289640E1    -1.240594230734117       6.969045651655745E1    -2.493576607556509E1    -1.448634083658291E1
 1.086000000000000E9    -2.720555908357845E1     1.110866425592844E2    -1.254707314818098       6.905158402542226E1    -1.238473683462512       6.907221543259249E1    -2.504756368593803E1    -1.504691146179695E1
 1.087000000000000E9    -2.729478286337450E1     1.111648492862765E2    -1.244936685084422       6.846830251654822E1    -1.242716738450682       6.849832234258579E1    -2.502734563889092E1    -1.636689095979669E1
 1.088000000000000E9    -2.714370776157110E1     1.107207786241487E2    -1.251711670217570       6.785857448250232E1    -1.241944023475601       6.788719661143273E1    -2.518796300458301E1    -1.666381759965950E1
 1.089000000000000E9    -2.712650377966470E1     1.103928385854457E2    -1.249754057061291       6.726842360337649E1    -1.241098337775972       6.726561019377260E1    -2.520462840229971E1    -1.734629609434195E1
 1.090000000000000E9    -2.714470615827846E1     1.096282803196101E2    -1.251918869657184       6.661755494301667E1    -1.243019245467264       6.665923240216598E1    -2.525395607839555E1    -1.859967958220515E1
 1.091000000000000E9    -2.689201372308231E1     1.096807879278777E2    -1.248370324687697       6.605229832814891E1    -1.240037025622871       6.606363606993455E1    -2.534507418694188E1    -1.892617665892556E1
