#  HZ   S   DB   R     50.00 
! Rohde & Schwarz Vector Network Analyzer 
! Rohde-Schwarz,ZNB8-4Port,1311601044102961,2.82
! Created: UTC 3/4/2022, 3:51:41 PM
! freq[Hz]                db:S11                  ang:S11                 db:S21                  ang:S21                 db:S12                  ang:S12                 db:S22                  ang:S22
 1.000000000000000E9    -2.657264736420180E1     1.068637374799909E2    -8.273442078065514       1.222301242580067E2    -8.251622790913594       1.222374281899046E2    -2.480390829315816E1     3.461485566616734E1
 1.001000000000000E9    -2.656959322687161E1     1.068183282099770E2    -8.265470934091528       1.216457418847946E2    -8.255699178480022       1.216194170119178E2    -2.490316115377024E1     3.330372950716490E1
 1.002000000000000E9    -2.647179712617545E1     1.059844348378426E2    -8.262874701333093       1.210193021418797E2    -8.258817170750181       1.210239419532479E2    -2.486207023635723E1     3.365006121945319E1
 1.003000000000000E9    -2.648700990756154E1     1.059864678373433E2    -8.266565624747365       1.204788828797639E2    -8.258989303935541       1.204140970790375E2    -2.482659286497612E1     3.282722036230882E1
 1.004000000000000E9    -2.653483317931473E1     1.061235978919042E2    -8.270395264910246       1.198400817439181E2    -8.255829158439793       1.199107168701001E2    -2.491439085024500E1     3.180018457794507E1
 1.005000000000000E9    -2.645462388007551E1     1.051959280008164E2    -8.268262844476553       1.191332015829032E2    -8.254761156033990       1.192612256505035E2    -2.494069040809162E1     3.170561729013257E1
 1.006000000000000E9    -2.647158818629632E1     1.044706901287895E2    -8.280426498544404       1.185955470126205E2    -8.265803474775886       1.186793313258658E2    -2.491369754104752E1     3.091992199198739E1
 1.007000000000000E9    -2.647599502378895E1     1.047866876414776E2    -8.280128386444661       1.180185772566908E2    -8.262860127663419       1.180299541314687E2    -2.496342421935015E1     3.040998308860611E1
 1.008000000000000E9    -2.643531092040570E1     1.044975392303483E2    -8.278062045345113       1.173963752877813E2    -8.259395075515032       1.174764009355888E2    -2.492645293080791E1     2.976045465294969E1
 1.009000000000000E9    -2.641111985689518E1     1.038624583774387E2    -8.278633859004112       1.169055188269772E2    -8.256123585908810       1.168784598299983E2    -2.500930507466581E1     2.953129715626332E1
 1.010000000000000E9    -2.637630900681086E1     1.038875929728133E2    -8.266915832249666       1.162459193073455E2    -8.257294462295057       1.163164182210141E2    -2.501216838756683E1     2.896662831085176E1
 1.011000000000000E9    -2.635568553005958E1     1.034564276945402E2    -8.267083298977848       1.156347115693369E2    -8.259974140602260       1.156929258344859E2    -2.504379647936251E1     2.828954239343027E1
 1.012000000000000E9    -2.634281169131146E1     1.028436894044525E2    -8.273923677933663       1.150703602729512E2    -8.261686811053732       1.149937456700202E2    -2.506952807700199E1     2.797410053585476E1
 1.013000000000000E9    -2.634662036742056E1     1.024366557760419E2    -8.274059634669657       1.144444508149677E2    -8.264944681560477       1.144775972985298E2    -2.498768617543524E1     2.754459297483059E1
 1.014000000000000E9    -2.633516004846790E1     1.019327013189145E2    -8.273188331356625       1.138095374676966E2    -8.259991888521983       1.138505887113828E2    -2.508642921051358E1     2.696965814356522E1
 1.015000000000000E9    -2.629295567580762E1     1.018153282213553E2    -8.269487270662076       1.132632197524876E2    -8.265406052007556       1.132932851357155E2    -2.507287550802211E1     2.647803611729644E1
 1.016000000000000E9    -2.633565128443638E1     1.013627961786157E2    -8.270880374723879       1.127179295627379E2    -8.265077748734790       1.127367674458581E2    -2.506967138296259E1     2.608445138591593E1
 1.017000000000000E9    -2.622356710277193E1     1.010783354893934E2    -8.289813975836530       1.120810152328409E2    -8.269025338233307       1.120639922117235E2    -2.514214256063130E1     2.545504616602867E1
 1.018000000000000E9    -2.622826979273573E1     1.005924945144658E2    -8.273462389600157       1.114314867816342E2    -8.263562931102129       1.114687045411991E2    -2.516326938796250E1     2.521424018605525E1
 1.019000000000000E9    -2.624939785499137E1     1.006816414344183E2    -8.282250661745955       1.107853044805111E2    -8.258699590789671       1.108893897135551E2    -2.508626288518455E1     2.469632508154030E1
 1.020000000000000E9    -2.623940803792083E1     1.002862276455339E2    -8.275713279278371       1.102660194540176E2    -8.260692370108817       1.103398360772279E2    -2.523120302999519E1     2.401844582062592E1
 1.021000000000000E9    -2.617540608063726E1     9.974338773301288E1    -8.274366537189566       1.096194863744253E2    -8.264604164873719       1.096487792414838E2    -2.524972806875816E1     2.373415284214579E1
 1.022000000000000E9    -2.619300680808450E1     9.926745547733655E1    -8.275192843157701       1.090641335609602E2    -8.265589075202266       1.090939974687052E2    -2.520152968221076E1     2.326442161281978E1
 1.023000000000000E9    -2.626662205015675E1     9.901482465710829E1    -8.269381987035562       1.084844572411494E2    -8.271776818476308       1.084546800972924E2    -2.522615745778521E1     2.264288954136884E1
 1.024000000000000E9    -2.620136572965044E1     9.893574189571767E1    -8.285420918879545       1.079295367382700E2    -8.259155208939422       1.078792583022764E2    -2.524977585252636E1     2.234395314875770E1
 1.025000000000000E9    -2.621764309541706E1     9.880375466134724E1    -8.276744115110589       1.073256842159451E2    -8.261643226407061       1.073093400015380E2    -2.524310251128556E1     2.225421759387203E1
 1.026000000000000E9    -2.619107173106091E1     9.792158752555180E1    -8.277013983943730       1.066583300408095E2    -8.273293979423329       1.066827891625366E2    -2.531597828140890E1     2.170454731556632E1
 1.027000000000000E9    -2.618560677143482E1     9.745940795523627E1    -8.275165577035404       1.060690991767749E2    -8.258339541948228       1.060534310260035E2    -2.532277769059434E1     2.115969060097801E1
 1.028000000000000E9    -2.618049722284697E1     9.732221143069184E1    -8.291448966679305       1.054301497838952E2    -8.266740275808655       1.055485521005412E2    -2.534536420766855E1     2.115570498209270E1
 1.029000000000000E9    -2.606921695726886E1     9.708936804979719E1    -8.276893737078154       1.049059259228661E2    -8.267192545867019       1.048882385295961E2    -2.537717052499304E1     2.064511788917701E1
 1.030000000000000E9    -2.608823924962402E1     9.667320328592096E1    -8.270494926665338       1.043311403454274E2    -8.266884923386414       1.043379958020227E2    -2.536257475848892E1     1.959904680784880E1
 1.031000000000000E9    -2.607809251606489E1     9.689318036750342E1    -8.281607827184001       1.036691047424212E2    -8.271389258541452       1.037441206405408E2    -2.546486326124484E1     1.970784921131759E1
 1.032000000000000E9    -2.613570361051276E1     9.603141740730996E1    -8.279986978500194       1.030783259525845E2    -8.265218111679181       1.030816751747897E2    -2.547854719738528E1     1.902725451728824E1
 1.033000000000000E9    -2.607233616761501E1     9.593980193753431E1    -8.273418595730028       1.025072772630780E2    -8.270687413523364       1.025831050811464E2    -2.548843327320960E1     1.903467404330371E1
 1.034000000000000E9    -2.607887645538753E1     9.551598657117764E1    -8.275201344988711       1.019076700344175E2    -8.266378783545214       1.019238806983044E2    -2.555523049359235E1     1.862759679560787E1
 1.035000000000000E9    -2.601192320029101E1     9.522886347485664E1    -8.272177889246526       1.013363871800287E2    -8.264164617785800       1.013208928554932E2    -2.561925884201026E1     1.800742805962456E1
 1.036000000000000E9    -2.605967605070507E1     9.508576796425052E1    -8.272406731941622       1.007471991834864E2    -8.263625206090932       1.007232769743772E2    -2.566642634722577E1     1.739378190088093E1
 1.037000000000000E9    -2.606142737304910E1     9.454699968221516E1    -8.278931013506435       1.001011290115409E2    -8.265323329792089       1.001017037063805E2    -2.559745822095376E1     1.714975294382342E1
 1.038000000000000E9    -2.600771249288110E1     9.468393431330851E1    -8.266730491547442       9.943344482278137E1    -8.270021002588484       9.953836957969492E1    -2.570334800072412E1     1.685367312031887E1
 1.039000000000000E9    -2.600811746980989E1     9.414740965731716E1    -8.277010949529130       9.889215663767494E1    -8.270391248645902       9.892914092687956E1    -2.578100761410358E1     1.652865311760922E1
 1.040000000000000E9    -2.600083880115699E1     9.314404353860799E1    -8.271950837777100       9.836144866830166E1    -8.265724918506402       9.832351429477230E1    -2.582632835347283E1     1.601223054850928E1
 1.041000000000000E9    -2.597595657384824E1     9.349702559525231E1    -8.277790168135383       9.773184101913014E1    -8.258601692154173       9.772778609850096E1    -2.583012256036339E1     1.568183390352842E1
 1.042000000000000E9    -2.594103400224620E1     9.290818478936892E1    -8.272347846829382       9.710713444234683E1    -8.271572877675075       9.712393443438094E1    -2.580286406468712E1     1.535368964073030E1
 1.043000000000000E9    -2.598895215681486E1     9.250313042238402E1    -8.276453880898778       9.655752849306809E1    -8.277141801613148       9.656026704076007E1    -2.592808994035844E1     1.482234178189611E1
 1.044000000000000E9    -2.593419286052115E1     9.232542157859047E1    -8.269375305841779       9.588765144325031E1    -8.266547189497514       9.589012273651527E1    -2.595197365523596E1     1.447966618185721E1
 1.045000000000000E9    -2.599244320524056E1     9.212237079518134E1    -8.272196242943640       9.528804441228155E1    -8.261497315781105       9.529437688156662E1    -2.602935275772662E1     1.349107767690676E1
 1.046000000000000E9    -2.597780706731669E1     9.144695634618982E1    -8.281151961745493       9.471369231266651E1    -8.268323502918763       9.476103554979794E1    -2.612849330818382E1     1.357082647567132E1
 1.047000000000000E9    -2.594542043453843E1     9.118094776755746E1    -8.280843811902397       9.410806010096746E1    -8.259972726203253       9.411939468660683E1    -2.609436468498493E1     1.266926102595565E1
 1.048000000000000E9    -2.592108067846389E1     9.127263390360726E1    -8.271749529730673       9.350877234216725E1    -8.269814652418386       9.356700512294027E1    -2.623442650919399E1     1.264326978523084E1
 1.049000000000000E9    -2.594743808519391E1     9.061308706878758E1    -8.285319523034801       9.293766576518161E1    -8.270937836617373       9.297129925201614E1    -2.624434682289627E1     1.279955243865138E1
 1.050000000000000E9    -2.588900685655995E1     9.058432232294383E1    -8.281607538147906       9.231541264923759E1    -8.264335308767590       9.238855109836655E1    -2.636574172951061E1     1.208802056314984E1
 1.051000000000000E9    -2.589138988328286E1     8.998052429201243E1    -8.291089897224600       9.177529947479476E1    -8.267776730145823       9.176100310121214E1    -2.633175855957200E1     1.135705653172710E1
 1.052000000000000E9    -2.586168914120249E1     8.966328026676149E1    -8.279830462412733       9.120236552282348E1    -8.260431660106843       9.120355009657988E1    -2.648157858922847E1     1.093386728336199E1
 1.053000000000000E9    -2.587322600776965E1     8.976524703298632E1    -8.273935764530508       9.053860348774107E1    -8.259814325766405       9.062467348772137E1    -2.646695241107037E1     1.032072133990758E1
 1.054000000000000E9    -2.588871380772414E1     8.946379991653805E1    -8.280727002488524       8.993927740217953E1    -8.270892875043002       8.996008639358907E1    -2.659479587993055E1     1.016678654899690E1
 1.055000000000000E9    -2.593497195315726E1     8.900720437120006E1    -8.279073195332762       8.931893404704267E1    -8.271753257211916       8.938414298388966E1    -2.665549786700232E1     9.584154053422727
 1.056000000000000E9    -2.591653414008336E1     8.845855572366797E1    -8.273102027084548       8.874419503934648E1    -8.270706146858426       8.875947492885219E1    -2.671632950115670E1     9.423084215107364
 1.057000000000000E9    -2.582553315969576E1     8.847303015928317E1    -8.280066138434583       8.823254525131300E1    -8.272279204222459       8.814773547898317E1    -2.680766607495429E1     8.425665003673950
 1.058000000000000E9    -2.578913497163367E1     8.808902947390294E1    -8.275025926970901       8.759056524094670E1    -8.269318404868569       8.759560531591049E1    -2.691153614968621E1     8.599623804321693
 1.059000000000000E9    -2.579983989292737E1     8.769073314108711E1    -8.268766157693843       8.682797995678547E1    -8.266577086157383       8.698050072527926E1    -2.696007580947399E1     7.664061187971112
 1.060000000000000E9    -2.581336102809005E1     8.750165280074117E1    -8.270061052638823       8.633600703799876E1    -8.274372530550261       8.628840496517216E1    -2.707833107010528E1     6.674355521415824
 1.061000000000000E9    -2.580450117665713E1     8.722284370531824E1    -8.270555707890175       8.574070802760424E1    -8.271733472728743       8.576368304300777E1    -2.713774760916717E1     6.629077879549835
 1.062000000000000E9    -2.577877837595701E1     8.671838771971905E1    -8.276683921577067       8.512863312773689E1    -8.283194189601939       8.525801944117600E1    -2.726111868356647E1     5.560641754748009
 1.063000000000000E9    -2.581445985895977E1     8.652459993856708E1    -8.280958046557581       8.457122078927489E1    -8.274590881377456       8.458328070489748E1    -2.727720043018344E1     5.776679068062948
 1.064000000000000E9    -2.566349421281687E1     8.704818932967780E1    -8.281952429508731       8.399826483349584E1    -8.273012575540362       8.403110123185465E1    -2.738256566029530E1     4.829303340397375
 1.065000000000000E9    -2.574061371493368E1     8.594864871503656E1    -8.284773914355386       8.340879152252830E1    -8.267860603706437       8.339737754381252E1    -2.740292674548510E1     4.576439250954192
 1.066000000000000E9    -2.575435777100758E1     8.577320191191883E1    -8.277684076059142       8.284877189397135E1    -8.275423132131934       8.280268133771951E1    -2.757104055068511E1     3.419945565154417
 1.067000000000000E9    -2.568951087721646E1     8.538457075878787E1    -8.283882506917893       8.217532918406288E1    -8.273595304363870       8.217672022697785E1    -2.763033554252794E1     3.132669001243104
 1.068000000000000E9    -2.570617945033183E1     8.539631708146175E1    -8.287447328227763       8.152451197484108E1    -8.263757014133939       8.156921090925893E1    -2.756762172823188E1     2.320388979058233
 1.069000000000000E9    -2.571931247755307E1     8.533030785842264E1    -8.271451020986978       8.103910623816235E1    -8.272245326413186       8.096043856657734E1    -2.775929469262644E1     1.482368654486021
 1.070000000000000E9    -2.568136938035821E1     8.477249515141345E1    -8.278002170828431       8.040769491699487E1    -8.265103671237633       8.043031671428416E1    -2.777928403670664E1     1.273112610344456
 1.071000000000000E9    -2.565603051555920E1     8.435740046872226E1    -8.282577617347247       7.984406571788267E1    -8.262930900163932       7.978992075622925E1    -2.778104056194395E1     6.889987216617726E-1
 1.072000000000000E9    -2.564165074585627E1     8.391453456473890E1    -8.278283453922656       7.916232334383585E1    -8.259311136590480       7.920408305801399E1    -2.794731734257859E1    -2.006248748231987E-1
 1.073000000000000E9    -2.556080458332678E1     8.341845918734444E1    -8.277292945012917       7.857711453407157E1    -8.272241575318883       7.862520676126741E1    -2.797223955641745E1    -1.473025747836214
 1.074000000000000E9    -2.559152616969015E1     8.355744250094971E1    -8.277500634048202       7.805508891046559E1    -8.282838442115995       7.798893732725820E1    -2.807271708275987E1    -1.413143331010738
 1.075000000000000E9    -2.560463094153433E1     8.316290207970292E1    -8.281633727452507       7.738858069852542E1    -8.277370246722152       7.741314725753026E1    -2.815571684281421E1    -2.130643069646803
 1.076000000000000E9    -2.564198654218403E1     8.300197567560603E1    -8.284791056460540       7.675616007714173E1    -8.266012124205291       7.682800409569045E1    -2.830786778176313E1    -2.561519317756336
 1.077000000000000E9    -2.555012956876458E1     8.288702852606401E1    -8.271300851677280       7.615139985763771E1    -8.273944192147868       7.624262197685610E1    -2.836515905139944E1    -4.312800752556614
 1.078000000000000E9    -2.552062628753081E1     8.223002167772117E1    -8.288732999679295       7.565939829178855E1    -8.271572283960545       7.565655583931320E1    -2.834582239667345E1    -4.358411899367047
 1.079000000000000E9    -2.554042412528329E1     8.209620462487251E1    -8.276259982120777       7.503246877181076E1    -8.265980201440602       7.505377829836421E1    -2.850333893997714E1    -5.254666994366853
 1.080000000000000E9    -2.555838619241928E1     8.130179827763969E1    -8.281742073858636       7.444309215676393E1    -8.271443644547645       7.444900547317778E1    -2.858532217319696E1    -6.948298935104750
 1.081000000000000E9    -2.553033884095654E1     8.123126581700619E1    -8.266528471248442       7.377944211458464E1    -8.273998087642791       7.389143634721047E1    -2.859827075327938E1    -6.610662724371978
 1.082000000000000E9    -2.547654188039807E1     8.117545498440130E1    -8.283871627052475       7.323678112203079E1    -8.280058360952985       7.331525493494274E1    -2.870473702181892E1    -7.839988179367326
 1.083000000000000E9    -2.553231349912344E1     8.064344404946181E1    -8.283659146482542       7.253679951963115E1    -8.274294745577405       7.268573609739671E1    -2.879487758135972E1    -8.384470555559894
 1.084000000000000E9    -2.548756486951742E1     8.058754475471186E1    -8.284046140737653       7.201232926509007E1    -8.271421597224570       7.208263391408518E1    -2.886208792107939E1    -8.591286222949398
 1.085000000000000E9    -2.548362313144299E1     8.011228618281675E1    -8.278152963783349       7.143245532119418E1    -8.275924709747271       7.148347628036049E1    -2.890666535929356E1    -9.364025370615998
 1.086000000000000E9    -2.545627389538906E1     7.988854575321203E1    -8.281759702880777       7.081506872516574E1    -8.279480636731817       7.088039171314171E1    -2.896546164222515E1    -1.020555153956290E1
 1.087000000000000E9    -2.550392395605696E1     7.891074168495314E1    -8.276125278438935       7.022859285496087E1    -8.269592418072572       7.026049166897744E1    -2.906585732759098E1    -1.108346701432386E1
 1.088000000000000E9    -2.543728838014793E1     7.916224034739828E1    -8.283715689066307       6.968190768784034E1    -8.278798605727513       6.967258228511419E1    -2.916095861871746E1    -1.218213012079393E1
 1.089000000000000E9    -2.545934491455423E1     7.918853192318278E1    -8.293354739993701       6.907973844448561E1    -8.277537142937270       6.910973040888702E1    -2.924485889703624E1    -1.316022825677420E1
 1.090000000000000E9    -2.543140267184103E1     7.835874234885945E1    -8.285760606722930       6.847045808042084E1    -8.273895364419010       6.852976914222703E1    -2.921163145665341E1    -1.302607120752684E1
 1.091000000000000E9    -2.534115586124304E1     7.824918918601964E1    -8.289345613678835       6.782930879552391E1    -8.273580452477699       6.786509430073161E1    -2.934908853829096E1    -1.445283122738597E1
