#  HZ   S   DB   R     50.00 
! Rohde & Schwarz Vector Network Analyzer 
! Rohde-Schwarz,ZNB8-4Port,1311601044102961,2.82
! Created: UTC 3/4/2022, 3:50:28 PM
! freq[Hz]                db:S11                  ang:S11                 db:S21                  ang:S21                 db:S12                  ang:S12                 db:S22                  ang:S22
 1.000000000000000E9    -2.296727331350772E1     1.321713272315695E2    -3.012326156139226       1.202587247390405E2    -3.000386519606342       1.202616346965329E2    -2.125210655776214E1     2.037995942239413E1
 1.001000000000000E9    -2.294286183569675E1     1.318311145275530E2    -3.012360192923668       1.196910011427660E2    -3.002565853617580       1.196845339161850E2    -2.127028135460221E1     1.945601999091058E1
 1.002000000000000E9    -2.297894827550429E1     1.314330606927239E2    -3.010465171720335       1.190645699083085E2    -3.001918287058273       1.191096398434889E2    -2.130770571298110E1     1.901475257977203E1
 1.003000000000000E9    -2.294424081298572E1     1.308727001723204E2    -3.016301185413248       1.184719484580058E2    -2.995595967856232       1.185022249603936E2    -2.129660993514348E1     1.829569232512083E1
 1.004000000000000E9    -2.291589863874487E1     1.307360690329629E2    -3.009396669295948       1.179295698726808E2    -2.995398254222128       1.179143502109079E2    -2.134409853456205E1     1.770605788648972E1
 1.005000000000000E9    -2.290918081561353E1     1.300523354462841E2    -3.010376044581657       1.172981944355062E2    -2.993434262779139       1.173384106969012E2    -2.137880653888698E1     1.683021581429308E1
 1.006000000000000E9    -2.291486771349746E1     1.297465142309865E2    -3.016134935907689       1.167423318930265E2    -3.000319862329189       1.166921574935811E2    -2.137266722262388E1     1.638739086529259E1
 1.007000000000000E9    -2.286928440390344E1     1.291508378515335E2    -3.010966006849776       1.160668886917884E2    -2.996181212943372       1.161052391357800E2    -2.140418011065307E1     1.566622800633205E1
 1.008000000000000E9    -2.288182019272115E1     1.286621296828332E2    -3.008181459037901       1.154723865273166E2    -3.004745965406885       1.155119818756430E2    -2.138028380802967E1     1.504196697156696E1
 1.009000000000000E9    -2.280576499988939E1     1.282673269298344E2    -3.016361493901458       1.148892067168158E2    -3.003330746003599       1.149185924691744E2    -2.144686961244650E1     1.478399785767110E1
 1.010000000000000E9    -2.281423451190772E1     1.276524595048186E2    -3.016704097066504       1.142950168417717E2    -3.005763399840810       1.143408293511985E2    -2.146047823025770E1     1.398249851665722E1
 1.011000000000000E9    -2.279507793956821E1     1.275143267142793E2    -3.022886508780069       1.137340121089105E2    -3.004573439653242       1.137566964732948E2    -2.145515290304916E1     1.315776508125822E1
 1.012000000000000E9    -2.282483321858245E1     1.270405995465668E2    -3.016900484907135       1.131275655814592E2    -3.015257577018173       1.131395811074257E2    -2.149499948459407E1     1.253157440843942E1
 1.013000000000000E9    -2.283172256510574E1     1.270146336249494E2    -3.013295681799233       1.124743791060100E2    -3.009058939740847       1.125583313623315E2    -2.147260913208509E1     1.235738198193166E1
 1.014000000000000E9    -2.280474001881055E1     1.262278000668650E2    -3.010784217634403       1.119045593962034E2    -3.000757404368887       1.119268624539238E2    -2.153875355443621E1     1.140790606564855E1
 1.015000000000000E9    -2.279681206520125E1     1.258081893472762E2    -3.015423664115274       1.112810648056895E2    -3.003713266678584       1.113100792797966E2    -2.153372666109814E1     1.073485266356751E1
 1.016000000000000E9    -2.281513815286866E1     1.253601270780412E2    -3.017725500249994       1.107117793512130E2    -3.008687145058173       1.107400616386981E2    -2.154623643726221E1     1.021709822293552E1
 1.017000000000000E9    -2.282147184689631E1     1.247041455883342E2    -3.022817247615403       1.101100796868176E2    -3.005073647836749       1.101219540947883E2    -2.155615111113234E1     9.378629650776091
 1.018000000000000E9    -2.280820687029196E1     1.242991794738286E2    -3.020268466010718       1.095487212122579E2    -3.010818916293209       1.095400691353450E2    -2.158367563644547E1     8.892807715549475
 1.019000000000000E9    -2.279325177569836E1     1.242603704439253E2    -3.016725628851698       1.088931352429476E2    -3.008175559061730       1.089326819839236E2    -2.157810686159607E1     8.311443868779076
 1.020000000000000E9    -2.275668652144123E1     1.240212648503358E2    -3.010064319587938       1.083261854581352E2    -3.003253654696511       1.083442146859851E2    -2.164261764068752E1     7.669514940168921
 1.021000000000000E9    -2.275513511475595E1     1.233333063848795E2    -3.016119251738996       1.077525298697383E2    -3.009977870792087       1.077848101568062E2    -2.168768187734802E1     7.337777394240066
 1.022000000000000E9    -2.269857589573201E1     1.228414605078187E2    -3.020538654164661       1.070926932511568E2    -3.005995072051073       1.071496038775182E2    -2.168117413404083E1     6.901564423956865
 1.023000000000000E9    -2.276336063122639E1     1.224308310179213E2    -3.021131694207742       1.065387898033987E2    -3.010970405905798       1.065444844510813E2    -2.178003977626109E1     6.292086163482870
 1.024000000000000E9    -2.271549925885541E1     1.221069341564233E2    -3.012275579287018       1.059317460686415E2    -3.007990830822573       1.059184046147054E2    -2.177011578964542E1     5.467515795510932
 1.025000000000000E9    -2.271269114648346E1     1.215605156944366E2    -3.018212255177644       1.053337823920573E2    -3.004757239692633       1.053433413264780E2    -2.183086120769443E1     4.800690793067515
 1.026000000000000E9    -2.270246497570760E1     1.214800916838045E2    -3.014521286390600       1.047221754710752E2    -3.008825294717706       1.047591257242817E2    -2.180921057485302E1     4.453567103267636
 1.027000000000000E9    -2.269516392683395E1     1.212215115101899E2    -3.017383083362853       1.041524829496079E2    -3.004284026708390       1.041432722026730E2    -2.187265644581228E1     3.834410197802373
 1.028000000000000E9    -2.270671811481491E1     1.205426647738391E2    -3.021022016155671       1.034910854241053E2    -3.007172126783018       1.035543448945610E2    -2.184204913795849E1     3.195523041170925
 1.029000000000000E9    -2.267899715826273E1     1.200471318063360E2    -3.018699906994423       1.029183711533766E2    -3.012931713903312       1.029558157397627E2    -2.188514901874311E1     2.933320724601504
 1.030000000000000E9    -2.269804349048481E1     1.197335485712093E2    -3.018790020578566       1.023231189421539E2    -3.011582413667397       1.023768456843578E2    -2.189798070249899E1     1.954227412210145
 1.031000000000000E9    -2.266871852365100E1     1.194158373791726E2    -3.018549659362202       1.017278144140225E2    -3.008327031800214       1.017551542765894E2    -2.192119575632284E1     1.597797497149925
 1.032000000000000E9    -2.269934735342340E1     1.194077862184212E2    -3.014669963562341       1.011614936119683E2    -3.007050845240517       1.011638212169796E2    -2.195082178350932E1     1.409104567589644
 1.033000000000000E9    -2.267886618203684E1     1.189158556619275E2    -3.023038685589117       1.005543494590316E2    -3.010223382394445       1.006076116483517E2    -2.199258864413587E1     3.683108967398623E-1
 1.034000000000000E9    -2.265022761965837E1     1.186314245234203E2    -3.019621446685010       9.990922675682603E1    -3.011693007187379       9.994594592313716E1    -2.207555511533300E1    -2.914770153416015E-1
 1.035000000000000E9    -2.263231927833007E1     1.183353137518477E2    -3.020926612658688       9.935636186277030E1    -3.018058030029026       9.937778296931357E1    -2.213731926363300E1    -8.909302655732871E-1
 1.036000000000000E9    -2.263838320287835E1     1.177959683240538E2    -3.017876009876159       9.875860689131595E1    -3.009127023663001       9.877486013653378E1    -2.218932187847361E1    -1.569551308222994
 1.037000000000000E9    -2.263741036264633E1     1.172153491520589E2    -3.024870741631912       9.809301846363306E1    -3.006215886297999       9.815507088763091E1    -2.217635939333472E1    -2.144201479774830
 1.038000000000000E9    -2.260276576130327E1     1.171875489104163E2    -3.024884715114938       9.756927639535324E1    -3.012856148243225       9.757117744598297E1    -2.225334596521725E1    -2.270238320089627
 1.039000000000000E9    -2.259112801049674E1     1.165828022762020E2    -3.015121907329421       9.694746458087298E1    -3.012687287957787       9.694249532257341E1    -2.219385187205031E1    -3.091992003546952
 1.040000000000000E9    -2.260031621503675E1     1.161116098401268E2    -3.021986804935113       9.636179673285622E1    -3.010805179474932       9.634250792731008E1    -2.234142090427333E1    -3.763942985808283
 1.041000000000000E9    -2.261361972376978E1     1.162864460519921E2    -3.024846534204689       9.579816914031316E1    -3.008105667920247       9.573798956290393E1    -2.241688081856499E1    -4.266522529877073
 1.042000000000000E9    -2.253625246599971E1     1.156237210452179E2    -3.023708170204592       9.510746452085799E1    -3.005235667739326       9.517391269331611E1    -2.239800999483339E1    -5.110140384770507
 1.043000000000000E9    -2.260682374996097E1     1.150095339110179E2    -3.014559300721110       9.460985687033968E1    -3.015338333272545       9.454363481749459E1    -2.243553213281580E1    -5.160169385797213
 1.044000000000000E9    -2.255458661895396E1     1.155153753710106E2    -3.016343496018268       9.401551812321698E1    -3.008067409529173       9.397979060654086E1    -2.250667128714920E1    -5.904723974318858
 1.045000000000000E9    -2.258890828285463E1     1.145094222787651E2    -3.021713382874634       9.336971253893573E1    -3.010899619130615       9.333273070421087E1    -2.253111581702924E1    -6.900521739033113
 1.046000000000000E9    -2.252691612914355E1     1.147355891057861E2    -3.024464070241328       9.279333118021661E1    -3.010508882298977       9.279413792585230E1    -2.262099849059414E1    -7.207363246776978
 1.047000000000000E9    -2.251734399896113E1     1.140586604644381E2    -3.016789299933123       9.212957451650262E1    -3.007751252973047       9.218487074138128E1    -2.265634739822525E1    -7.927547008601047
 1.048000000000000E9    -2.251495490713129E1     1.139340061148130E2    -3.024509331462554       9.154589313085337E1    -3.010278605379517       9.158615874465554E1    -2.268840174505111E1    -8.499820275429844
 1.049000000000000E9    -2.249590785290557E1     1.135639930831804E2    -3.021265539434619       9.094431658659643E1    -3.014224675474371       9.100614871095831E1    -2.275181619356825E1    -8.977746094389170
 1.050000000000000E9    -2.245775175085153E1     1.132740054021530E2    -3.022336506721368       9.034143917276968E1    -3.011555575049569       9.037417938791782E1    -2.283748184174804E1    -9.863750742604594
 1.051000000000000E9    -2.246548361378127E1     1.128813349562400E2    -3.024550811587498       8.980047797734100E1    -3.016897467637121       8.977757744688989E1    -2.289322225024342E1    -1.063244989341173E1
 1.052000000000000E9    -2.246364863976778E1     1.125835385117556E2    -3.025427702496313       8.914692550681470E1    -3.011622492302157       8.918587956738071E1    -2.294142719206085E1    -1.122607951504916E1
 1.053000000000000E9    -2.241355683010024E1     1.122641182159127E2    -3.022504291004815       8.858931646661900E1    -3.014646199943691       8.857419697691816E1    -2.304468198294039E1    -1.184305646129883E1
 1.054000000000000E9    -2.240166912770418E1     1.118921472244702E2    -3.019623291491342       8.801471213769278E1    -3.014085634957607       8.799511641758659E1    -2.309330374999132E1    -1.267702704275482E1
 1.055000000000000E9    -2.238216718951338E1     1.117967849649152E2    -3.026504313344706       8.737371610867611E1    -3.012795644279610       8.740965334726823E1    -2.311053064509069E1    -1.326283788377442E1
 1.056000000000000E9    -2.237281920066446E1     1.114492342179570E2    -3.015125196801611       8.681052900660330E1    -3.015401907717934       8.682724525795341E1    -2.317765394330746E1    -1.368124365940079E1
 1.057000000000000E9    -2.231742045065449E1     1.111117881904782E2    -3.028304490846477       8.620986755879954E1    -3.015465770244789       8.621714958637304E1    -2.327379752668502E1    -1.497951326434490E1
 1.058000000000000E9    -2.234638169177670E1     1.106520448494489E2    -3.027325942510676       8.556918964819110E1    -3.013753902051832       8.559621314941225E1    -2.326239134553422E1    -1.522878029361669E1
 1.059000000000000E9    -2.230836206904790E1     1.104929784100821E2    -3.019099038795994       8.495934684166946E1    -3.023816641948864       8.501362991249179E1    -2.332316364096270E1    -1.597691334443318E1
 1.060000000000000E9    -2.225203457628100E1     1.100876960187060E2    -3.022327205485545       8.437193621517798E1    -3.016954024502637       8.440627810923725E1    -2.344949203957089E1    -1.674052027672926E1
 1.061000000000000E9    -2.225112456398062E1     1.097689998714241E2    -3.026050760178821       8.380890245455372E1    -3.017768239070187       8.384285683252200E1    -2.348183644464513E1    -1.756668010190682E1
 1.062000000000000E9    -2.224867460304147E1     1.097375246238598E2    -3.030199750439865       8.316899475660796E1    -3.020855950580121       8.324980354089807E1    -2.354658334277600E1    -1.862907202817002E1
 1.063000000000000E9    -2.220456762763490E1     1.090234199333812E2    -3.019231246957580       8.260745723922565E1    -3.011769639184134       8.258813107716836E1    -2.359323742171383E1    -1.922446892507037E1
 1.064000000000000E9    -2.221387552453884E1     1.087360605367537E2    -3.021619454125219       8.196623443762427E1    -3.013226971905916       8.195516849312018E1    -2.360802518092516E1    -1.964038416863705E1
 1.065000000000000E9    -2.218331834306553E1     1.087786759928359E2    -3.025007981118685       8.140414276569914E1    -3.006401862010939       8.140009099297681E1    -2.369648345744334E1    -2.072943450624677E1
 1.066000000000000E9    -2.217076559551934E1     1.082261833684146E2    -3.022021030066997       8.082309128560240E1    -3.009672703400053       8.079007958704504E1    -2.373107855923256E1    -2.172771669223729E1
 1.067000000000000E9    -2.213366260503793E1     1.077674534163638E2    -3.022260750465371       8.019404737374747E1    -3.014486500993380       8.023326000494889E1    -2.381570009227102E1    -2.186885116282202E1
 1.068000000000000E9    -2.210179932248268E1     1.075434414821632E2    -3.023268915955737       7.953745645609429E1    -3.011310285236160       7.960365573353610E1    -2.381794891495738E1    -2.324151150114266E1
 1.069000000000000E9    -2.210706762121805E1     1.073740663921666E2    -3.023904557530431       7.899062019348864E1    -3.015204126714868       7.902969945168061E1    -2.394928776702406E1    -2.419249819606030E1
 1.070000000000000E9    -2.205166743296424E1     1.070011241282059E2    -3.023583907601653       7.841946794077009E1    -3.016661210511037       7.843155000865426E1    -2.397757008405390E1    -2.462022976471995E1
 1.071000000000000E9    -2.200990692370261E1     1.062171290179827E2    -3.027099846495566       7.779207886908471E1    -3.018095643416558       7.781960618889809E1    -2.401838982318068E1    -2.558598803813283E1
 1.072000000000000E9    -2.200878719025426E1     1.059316239132298E2    -3.021850391947070       7.718665932302633E1    -3.014979455817706       7.718752712594858E1    -2.410085420053437E1    -2.655300695255918E1
 1.073000000000000E9    -2.197345457436424E1     1.055174011662481E2    -3.019917545697611       7.661950219498587E1    -3.020556663208034       7.660615571247631E1    -2.410560512791264E1    -2.749127349522578E1
 1.074000000000000E9    -2.192645090360277E1     1.051422870530047E2    -3.021069429991677       7.603322611453518E1    -3.015844274806944       7.601261221021886E1    -2.416601738827497E1    -2.819837700751007E1
 1.075000000000000E9    -2.187475020609445E1     1.049271199257894E2    -3.023607606714554       7.542342818239202E1    -3.017694868345823       7.542429608799188E1    -2.427308365523975E1    -2.897982544253988E1
 1.076000000000000E9    -2.189002131471459E1     1.045932736742491E2    -3.022216491075712       7.480227468983154E1    -3.021876169464462       7.481907891982768E1    -2.428335899140054E1    -2.959445701099929E1
 1.077000000000000E9    -2.188989230164586E1     1.045331258081590E2    -3.021988028070877       7.424208227633824E1    -3.018464360973536       7.421217744009181E1    -2.439563331371429E1    -3.053456014487056E1
 1.078000000000000E9    -2.184528508272209E1     1.036901985018747E2    -3.024062096684699       7.363203860053072E1    -3.020668908952630       7.362443402466407E1    -2.437688110895077E1    -3.146550059031129E1
 1.079000000000000E9    -2.182653437240633E1     1.033037018783370E2    -3.029881745634393       7.291899641692649E1    -3.014727698437362       7.302385168908351E1    -2.446034505346850E1    -3.271861854012844E1
 1.080000000000000E9    -2.182404192357950E1     1.030579130494962E2    -3.026061320838754       7.235726433224157E1    -3.019129077760450       7.241599151323467E1    -2.451886209430892E1    -3.328874823207807E1
 1.081000000000000E9    -2.175693483548213E1     1.027363248982132E2    -3.028422629214337       7.180051855084831E1    -3.019595909722462       7.183491238505887E1    -2.452920542243993E1    -3.449775315807773E1
 1.082000000000000E9    -2.178650889046758E1     1.021627256959030E2    -3.022621289210955       7.126985136005555E1    -3.018387142966608       7.123467801094840E1    -2.453811744057411E1    -3.521533697863517E1
 1.083000000000000E9    -2.168709710965009E1     1.018156096740704E2    -3.018884402152305       7.061505823731045E1    -3.021808233693089       7.062654571468252E1    -2.464634307017102E1    -3.598981760729889E1
 1.084000000000000E9    -2.169544612883016E1     1.015955947179200E2    -3.022110299589663       6.997937348899272E1    -3.012441125498464       7.005112179495755E1    -2.466590087284876E1    -3.642746038181591E1
 1.085000000000000E9    -2.169373236154745E1     1.008703726521558E2    -3.017820606323198       6.937296129452773E1    -3.021075293525469       6.944853421663935E1    -2.471437658088819E1    -3.767996428934276E1
 1.086000000000000E9    -2.164904157308839E1     1.008933446239178E2    -3.035785976683626       6.886480438873092E1    -3.014293679256710       6.886271339750081E1    -2.475561640685903E1    -3.833338612631119E1
 1.087000000000000E9    -2.164915549374273E1     1.005089668470075E2    -3.021033559276318       6.819223350720280E1    -3.018533202118965       6.825297960147873E1    -2.481383013271686E1    -3.959988824596486E1
 1.088000000000000E9    -2.162949931970623E1     9.997291925684490E1    -3.030270651487923       6.762680461412255E1    -3.015931282730375       6.766673579862116E1    -2.481860526911875E1    -4.036551039935424E1
 1.089000000000000E9    -2.162157933465424E1     9.940860905823479E1    -3.029260507930203       6.703284673336869E1    -3.017109072278351       6.704592045833543E1    -2.488061822471548E1    -4.075744754687711E1
 1.090000000000000E9    -2.159325344840240E1     9.917083665797445E1    -3.030679029357566       6.642474671740835E1    -3.019081395092711       6.639285397209801E1    -2.491985233859456E1    -4.232100198352043E1
 1.091000000000000E9    -2.152374766566607E1     9.891988201144949E1    -3.027784383113486       6.579575122050662E1    -3.023666218605578       6.583043566077581E1    -2.502198626414904E1    -4.276410356959295E1
