#  HZ   S   DB   R     50.00 
! Rohde & Schwarz ZVB8 2Ports - Version 3.70 - 1145.1010k08 SN: 100925
! Date: 2017-03-03 16:03:40
! Measurements: S11 S21 S12 S22 
! 
 3.600000000000000E9    -3.157295034457709   1.458060073665070E1  -3.092876029633404E1   1.030665284195364E2  -3.244972597037303E1   1.273418055650003E2  -8.280467230815564   1.263829068871552E2  
 3.601000000000000E9    -3.374642356225987   1.145920774190341E1  -3.112992315608148E1   1.013430581174632E2  -3.248696199554993E1   1.269114604716010E2  -8.272140187315948   1.259562353663011E2  
 3.602000000000000E9    -3.590582310327592   8.406954295242953  -3.133386519096583E1   9.973757879139824E1  -3.251947758446443E1   1.263373779578754E2  -8.261467897882154   1.255249912700515E2  
 3.603000000000000E9    -3.802841066095752   5.439693878369535  -3.154141603199840E1   9.816252067626762E1  -3.253875403535274E1   1.257419144207053E2  -8.251201523381036   1.250839115107647E2  
 3.604000000000000E9    -4.011114812979841   2.498142887742380  -3.174949980626645E1   9.663027818546020E1  -3.254098784701667E1   1.252435098145310E2  -8.242362119709204   1.246510649242983E2  
 3.605000000000000E9    -4.219731844432016  -4.120548028629196E-1  -3.196619156571400E1   9.517325020295213E1  -3.255567846567374E1   1.248126015085179E2  -8.233935043560203   1.242239166638029E2  
 3.606000000000000E9    -4.432365440749772  -3.261078468058536  -3.218899053592433E1   9.394374559507828E1  -3.254516588178150E1   1.242982237764413E2  -8.225685064947793   1.237954215345533E2  
 3.607000000000000E9    -4.646695459495080  -6.049960069349803  -3.241490124424271E1   9.270354821588653E1  -3.252840340687966E1   1.236866688395622E2  -8.217400303129715   1.233575555170169E2  
 3.608000000000000E9    -4.859880602944504  -8.759856011788882  -3.263058179976797E1   9.179219692628523E1  -3.248048921301690E1   1.232186868920681E2  -8.208549997724498   1.229125066804101E2  
 3.609000000000000E9    -5.067797282597121  -1.138419646201994E1  -3.281162229726793E1   9.082659668873538E1  -3.244544282298994E1   1.226890179631973E2  -8.199071265875892   1.224711845492672E2  
 3.610000000000000E9    -5.272810922324847  -1.394069711241461E1  -3.301204950636230E1   8.989097695234769E1  -3.236219534148962E1   1.221619346616511E2  -8.189872580044364   1.220395260105315E2  
 3.611000000000000E9    -5.467413065818696  -1.644727058265476E1  -3.317481806913040E1   8.902361640147467E1  -3.228759395995320E1   1.213713454325366E2  -8.181833547518654   1.216025497147136E2  
 3.612000000000000E9    -5.655370209011783  -1.893835232852289E1  -3.334226946243442E1   8.828123794839428E1  -3.220287861698074E1   1.205610336476995E2  -8.172452297390802   1.211552299299536E2  
 3.613000000000000E9    -5.838825814272232  -2.140418737342898E1  -3.350425883580292E1   8.734535166217235E1  -3.211320984108883E1   1.196797465190878E2  -8.164525172016417   1.207125099534282E2  
 3.614000000000000E9    -6.017649082981600  -2.384167132691210E1  -3.364463883514320E1   8.655008132713520E1  -3.200484766840074E1   1.187203755435114E2  -8.157216161682227   1.202665897509465E2  
 3.615000000000000E9    -6.190027099844195  -2.626896140826965E1  -3.379501484713592E1   8.585493326654378E1  -3.188170804446172E1   1.177504458028783E2  -8.150134947121920   1.198432112697173E2  
 3.616000000000000E9    -6.359226449331835  -2.867038018606526E1  -3.392075316269018E1   8.508275520002000E1  -3.177085476084853E1   1.166541849384587E2  -8.143230241724075   1.193975246954135E2  
 3.617000000000000E9    -6.523352112275268  -3.105465978016256E1  -3.405687353417704E1   8.432846843148980E1  -3.165198247970596E1   1.153760075152316E2  -8.136582836888328   1.189458920172545E2  
 3.618000000000000E9    -6.681893533512572  -3.341889578179467E1  -3.417721074844582E1   8.346161274800490E1  -3.154539038990800E1   1.139603224867863E2  -8.129395262601159   1.184863541475033E2  
 3.619000000000000E9    -6.838374138107629  -3.573573761781372E1  -3.430858628139664E1   8.266931592690906E1  -3.144845872912336E1   1.123736677225133E2  -8.122291036673110   1.180307557797370E2  
 3.620000000000000E9    -6.988851830183129  -3.805187209935750E1  -3.444541362686434E1   8.195342805551505E1  -3.134577073006519E1   1.109457874265493E2  -8.115631630537134   1.175850974658760E2  
 3.621000000000000E9    -7.133986756331054  -4.034231222735426E1  -3.455631341452216E1   8.121165515644388E1  -3.126300197131706E1   1.092228171370427E2  -8.109041852254451   1.171342182814991E2  
 3.622000000000000E9    -7.274925511321045  -4.260054979551120E1  -3.469146587685419E1   8.047842921029150E1  -3.117935892192402E1   1.077375809212195E2  -8.102923849863508   1.166815309780664E2  
 3.623000000000000E9    -7.407268420073013  -4.486573203234070E1  -3.480699543395610E1   7.986080783428680E1  -3.112223633226406E1   1.059876789969607E2  -8.096372703107511   1.162206040189038E2  
 3.624000000000000E9    -7.534783807898114  -4.710976325401455E1  -3.493014701816635E1   7.917981549204400E1  -3.104638676034026E1   1.042064245618221E2  -8.091093444298922   1.157746743882576E2  
 3.625000000000000E9    -7.657225004405517  -4.932015858854384E1  -3.503670249266764E1   7.858746219008441E1  -3.101033836427644E1   1.023559165025226E2  -8.084088041118195   1.153120548131669E2  
 3.626000000000000E9    -7.770159380031682  -5.151429117306137E1  -3.515525481560405E1   7.800411970832703E1  -3.095558562814350E1   1.005130623039097E2  -8.078890248261763   1.148665348198109E2  
 3.627000000000000E9    -7.873990594152373  -5.372131073881493E1  -3.526609621497016E1   7.740696101918795E1  -3.092474333978388E1   9.872538102845687E1  -8.072758399427439   1.143997683997332E2  
 3.628000000000000E9    -7.972262308125332  -5.594451216116761E1  -3.536192898413414E1   7.694130634273016E1  -3.091454504071014E1   9.701306612721595E1  -8.065931042592196   1.139359269429140E2  
 3.629000000000000E9    -8.073187466561086  -5.817062514530567E1  -3.546392603315564E1   7.646743611671656E1  -3.088687790349772E1   9.500535438098039E1  -8.059796657950637   1.134738628351583E2  
 3.630000000000000E9    -8.169738531815748  -6.038836595674967E1  -3.555185667814397E1   7.601248845425057E1  -3.087894871628606E1   9.313964965616728E1  -8.053549520941591   1.130189788487334E2  
 3.631000000000000E9    -8.263466654103674  -6.256461002008096E1  -3.562631687941409E1   7.551446003982737E1  -3.086449503240509E1   9.125789258957312E1  -8.047544767968962   1.125538994220567E2  
 3.632000000000000E9    -8.349410949120488  -6.471889307280144E1  -3.569921492964871E1   7.500851957306010E1  -3.087264192569570E1   8.927500318317887E1  -8.042324363429255   1.120969484473285E2  
 3.633000000000000E9    -8.431750977890452  -6.686928176340862E1  -3.576923721201025E1   7.448693150631199E1  -3.091265831614133E1   8.729361183044638E1  -8.035979068534292   1.116340436555587E2  
 3.634000000000000E9    -8.508033527020746  -6.899460035521447E1  -3.584591354490781E1   7.400423397002646E1  -3.094956025763100E1   8.543920357565952E1  -8.029235754463402   1.111698543062168E2  
 3.635000000000000E9    -8.576608979445799  -7.110010242630798E1  -3.592108477269510E1   7.361900688793419E1  -3.098927724321964E1   8.358889950051891E1  -8.024441694406743   1.107106215610067E2  
 3.636000000000000E9    -8.641778866097182  -7.318593800363679E1  -3.597815906372161E1   7.319727700660096E1  -3.105484606124233E1   8.184595340639679E1  -8.018430281578509   1.102590323731077E2  
 3.637000000000000E9    -8.701178782662014  -7.527918454802709E1  -3.602186266462524E1   7.267860718200589E1  -3.111793033322102E1   8.000386355836908E1  -8.012260275971485   1.097929074841544E2  
 3.638000000000000E9    -8.751962151325177  -7.735226884771831E1  -3.608777060335671E1   7.214800707443600E1  -3.119059263285494E1   7.819068913716622E1  -8.007235708598852   1.093390852201824E2  
 3.639000000000000E9    -8.798840818925937  -7.942291417209870E1  -3.612766944950767E1   7.166168917917530E1  -3.128570132449993E1   7.637977862419737E1  -8.001065619738917   1.088871472378302E2  
 3.640000000000000E9    -8.838033278614821  -8.148514910819074E1  -3.619346612795221E1   7.121093738387307E1  -3.139110881229422E1   7.462586404116796E1  -7.996199206280493   1.084285855650387E2  
 3.641000000000000E9    -8.873496813457004  -8.354324184119862E1  -3.627394078867837E1   7.077805444452062E1  -3.150146050825559E1   7.310990190950211E1  -7.990987140619769   1.079784646023898E2  
 3.642000000000000E9    -8.904385955917192  -8.560802270675141E1  -3.632222961519351E1   7.046052976730060E1  -3.162776717080269E1   7.164350515381828E1  -7.986591188587262   1.075350928938085E2  
 3.643000000000000E9    -8.930585420259527  -8.765302809413862E1  -3.637013289655631E1   7.019876170309509E1  -3.175001520585296E1   7.037157163686229E1  -7.981865425861741   1.070748013542209E2  
 3.644000000000000E9    -8.952313984734978  -8.967660790504793E1  -3.640870175089115E1   6.993762210641309E1  -3.186602598577391E1   6.910842321767555E1  -7.975926498232492   1.066204775372721E2  
 3.645000000000000E9    -8.967363269805562  -9.168547587452588E1  -3.643193420344277E1   6.966277662457802E1  -3.197520538599987E1   6.798335040316324E1  -7.970954299263991   1.061752354477276E2  
 3.646000000000000E9    -8.979616669230230  -9.369422966948358E1  -3.644024839367447E1   6.942479068787601E1  -3.208969589213810E1   6.684302116961749E1  -7.966859810470912   1.057187168216033E2  
 3.647000000000000E9    -8.984162767157672  -9.567652548485397E1  -3.645251889886903E1   6.912230014054710E1  -3.217536180982840E1   6.582030178595532E1  -7.962875708459269   1.052716740256410E2  
 3.648000000000000E9    -8.983327729366689  -9.765479438889403E1  -3.644753874637536E1   6.893381754650831E1  -3.227213313810800E1   6.470839903419623E1  -7.960266481895181   1.048286615619891E2  
 3.649000000000000E9    -8.975581214852863  -9.963770192237966E1  -3.645022324984227E1   6.854735867684033E1  -3.235914347022486E1   6.392935966164608E1  -7.955736530032842   1.043710969514847E2  
 3.650000000000000E9    -8.965720597417832  -1.016160309916928E2  -3.643275690586690E1   6.821048616350709E1  -3.244962839770317E1   6.298975572165014E1  -7.953280243214578   1.039194242677416E2  
 3.651000000000000E9    -8.947777598629324  -1.036072883911502E2  -3.640704202879724E1   6.778466373993932E1  -3.254184594376143E1   6.215476464679534E1  -7.948267000157793   1.034633002850679E2  
 3.652000000000000E9    -8.927310125885706  -1.055887667946302E2  -3.638854170531229E1   6.742260052584049E1  -3.260294556584864E1   6.121357713099474E1  -7.944902691836282   1.030066089228397E2  
 3.653000000000000E9    -8.900928527378488  -1.075885567646610E2  -3.637731958427455E1   6.696009841163919E1  -3.269146135581134E1   6.041440048630861E1  -7.942846983361576   1.025661620110548E2  
 3.654000000000000E9    -8.871549383430718  -1.095481196585726E2  -3.635579029451860E1   6.647577424749349E1  -3.276319563711002E1   5.963310186831738E1  -7.940441807187574   1.021199520646543E2  
 3.655000000000000E9    -8.837563517929118  -1.115119147046184E2  -3.634541890441992E1   6.615803906537249E1  -3.284271810675735E1   5.901966164183209E1  -7.939060367469656   1.016555159417673E2  
 3.656000000000000E9    -8.799710921184611  -1.134859347541581E2  -3.633555479343080E1   6.574467384675600E1  -3.290369143869979E1   5.831803491488888E1  -7.937424744030772   1.012099755990625E2  
 3.657000000000000E9    -8.757770416316804  -1.154713494365473E2  -3.630457554210862E1   6.537357146786788E1  -3.294568788504088E1   5.782013499087837E1  -7.935999101928632   1.007700065318377E2  
 3.658000000000000E9    -8.710447945272730  -1.174574602089118E2  -3.627552319959688E1   6.493775839622192E1  -3.300994158114285E1   5.731643309716655E1  -7.935506773757934   1.003252040463409E2  
 3.659000000000000E9    -8.660365126687038  -1.194403519721029E2  -3.623200433664806E1   6.465006060202583E1  -3.302535079469011E1   5.688885287361213E1  -7.934453435876893   9.987406422570611E1  
 3.660000000000000E9    -8.608777611222369  -1.214404030580471E2  -3.619202471205725E1   6.431086558272691E1  -3.303948265223821E1   5.633521892952934E1  -7.934749021776834   9.942111357271762E1  
 3.661000000000000E9    -8.552835371878349  -1.234341564001129E2  -3.612532361093294E1   6.393728311161227E1  -3.304385703575520E1   5.595076490462403E1  -7.930862538483657   9.897125662903311E1  
 3.662000000000000E9    -8.495240754732119  -1.254333034088704E2  -3.606980769885492E1   6.349888512726001E1  -3.301152252591433E1   5.542311955539316E1  -7.931076692597034   9.852135610622864E1  
 3.663000000000000E9    -8.432728337175469  -1.274341608522462E2  -3.599457791435505E1   6.299974605801528E1  -3.299531416326819E1   5.494742725610402E1  -7.931346602379393   9.807601949963646E1  
 3.664000000000000E9    -8.364211290348008  -1.294417385600336E2  -3.592916831200278E1   6.244818606671602E1  -3.296237702131339E1   5.424212137454099E1  -7.930878172041264   9.761580448646797E1  
 3.665000000000000E9    -8.290673008039626  -1.314210642008956E2  -3.588925741990297E1   6.190831040047466E1  -3.291615727708607E1   5.373916487850876E1  -7.930181758876469   9.717163323519915E1  
 3.666000000000000E9    -8.214192712365701  -1.334705118937224E2  -3.582530412518500E1   6.145408498880640E1  -3.288247162898968E1   5.311459651437940E1  -7.929954149404420   9.671300576965541E1  
 3.667000000000000E9    -8.134792528841871  -1.355232322755486E2  -3.575293238558429E1   6.097192521770806E1  -3.282940444788446E1   5.261544274688202E1  -7.930951371981045   9.626640432931289E1  
 3.668000000000000E9    -8.055122916540418  -1.375803955495409E2  -3.568242282119119E1   6.049180478114916E1  -3.276980902485054E1   5.194438783574704E1  -7.930619942152450   9.582573085992749E1  
 3.669000000000000E9    -7.972134321998238  -1.396372912750395E2  -3.560657493923270E1   6.004020674159264E1  -3.266910662784222E1   5.126302518308374E1  -7.932101578251910   9.537721873322873E1  
 3.670000000000000E9    -7.886855200454764  -1.417082678633709E2  -3.550087319785264E1   5.943321307425029E1  -3.259370054284353E1   5.043967243335754E1  -7.932765802588836   9.492919258829201E1  
 3.671000000000000E9    -7.794194530991597  -1.438076277850398E2  -3.541472952524668E1   5.883477795642891E1  -3.250261109307960E1   4.956447559226739E1  -7.933228236657828   9.447388131849719E1  
 3.672000000000000E9    -7.701988916716467  -1.458753407147067E2  -3.533483061564704E1   5.827683661756797E1  -3.241285734369833E1   4.861799024512470E1  -7.932801234678042   9.402534906554740E1  
 3.673000000000000E9    -7.605586005834322  -1.479788299899848E2  -3.526050609445539E1   5.761462174884289E1  -3.230952744690121E1   4.762660775850321E1  -7.935280483635323   9.359205633139020E1  
 3.674000000000000E9    -7.501889563646692  -1.500508989952812E2  -3.515159447401362E1   5.706057014029980E1  -3.224199889036478E1   4.673302201222315E1  -7.936451348898212   9.314117737986561E1  
 3.675000000000000E9    -7.391679936986601  -1.521448136804733E2  -3.507859570497551E1   5.646089767498160E1  -3.214078838132678E1   4.560796169937616E1  -7.936462284529133   9.269243102177532E1  
 3.676000000000000E9    -7.278187850174985  -1.542409964053777E2  -3.496418724498684E1   5.599687217811164E1  -3.204561949047606E1   4.451836071053442E1  -7.938481852664192   9.224959553184790E1  
 3.677000000000000E9    -7.157109306788560  -1.563800792242936E2  -3.486259857330301E1   5.553355572957931E1  -3.195069913369045E1   4.327004912537825E1  -7.940598706868718   9.180665648046143E1  
 3.678000000000000E9    -7.030086828044994  -1.585566044537440E2  -3.472816043226661E1   5.505783702345198E1  -3.186031351427182E1   4.214389188005229E1  -7.941348501740670   9.136580893513791E1  
 3.679000000000000E9    -6.897818937390956  -1.607502298586226E2  -3.459850384767365E1   5.442071176407013E1  -3.173549605500424E1   4.094067891536301E1  -7.944004864141349   9.093875913221434E1  
 3.680000000000000E9    -6.761197087027639  -1.630246699957331E2  -3.444601867916773E1   5.382307393166080E1  -3.162416883050302E1   3.951445187895784E1  -7.945337380855974   9.048829004689881E1  
 3.681000000000000E9    -6.620411890475864  -1.653266774022095E2  -3.427087758491775E1   5.307679221803988E1  -3.152620186300601E1   3.801317006003581E1  -7.948234048932281   9.005377778403721E1  
 3.682000000000000E9    -6.477602981155221  -1.676472955338310E2  -3.412789653592245E1   5.238524444245181E1  -3.142199750113588E1   3.637570585581797E1  -7.949288231779262   8.961327073738835E1  
 3.683000000000000E9    -6.335223721052634  -1.700244746928347E2  -3.396322812028368E1   5.138917100567492E1  -3.134690912364756E1   3.466706026488924E1  -7.952621480928662   8.918591096473725E1  
 3.684000000000000E9    -6.188585788272320  -1.724704612974129E2  -3.381489797203162E1   5.059109118048627E1  -3.128894574981061E1   3.304735627976765E1  -7.956795183677019   8.875596375164285E1  
 3.685000000000000E9    -6.042421502223339  -1.749495300954735E2  -3.366154362677232E1   4.961883831098731E1  -3.124487512712117E1   3.138419240773719E1  -7.959297451381891   8.832182803409685E1  
 3.686000000000000E9    -5.896602715638884  -1.774634864714176E2  -3.350619837860032E1   4.863151740130147E1  -3.121314775126313E1   2.962411017385503E1  -7.963214950273040   8.789266004508306E1  
 3.687000000000000E9    -5.744771809117098   1.799809025544306E2  -3.332997145994859E1   4.778838341131674E1  -3.118963891683742E1   2.810700239512710E1  -7.967023341110782   8.745691728082173E1  
 3.688000000000000E9    -5.589538492648470   1.773639454672367E2  -3.316221345507155E1   4.678118842670192E1  -3.115745354928769E1   2.652630024145950E1  -7.971555609182611   8.702674963917832E1  
 3.689000000000000E9    -5.434483284985086   1.747264460257651E2  -3.298212908159313E1   4.579820064578985E1  -3.115120763650640E1   2.496070290004726E1  -7.975217017930401   8.659648291018065E1  
 3.690000000000000E9    -5.280860376034205   1.720589391736368E2  -3.277859855320534E1   4.479874845644697E1  -3.110712898412110E1   2.337556379772214E1  -7.979733311802667   8.617901595171891E1  
 3.691000000000000E9    -5.124354874515256   1.693675980927082E2  -3.258389157465695E1   4.362491188973628E1  -3.108181187750433E1   2.174169072285303E1  -7.986235856518927   8.574053328533796E1  
 3.692000000000000E9    -4.957145302422821   1.666140550432571E2  -3.238333910332208E1   4.241228252335131E1  -3.107634962005996E1   2.019934268861076E1  -7.989836122464477   8.532247469538820E1  
 3.693000000000000E9    -4.785676621034738   1.637406627081186E2  -3.216126981377646E1   4.109474443542198E1  -3.106033326238213E1   1.866968120790506E1  -7.997580756375905   8.489147350396355E1  
 3.694000000000000E9    -4.615029894731259   1.608352437335249E2  -3.194771418890690E1   3.963181325148011E1  -3.105562793271574E1   1.704212824900682E1  -8.003319756875616   8.447261910980488E1  
 3.695000000000000E9    -4.442154370596890   1.578390935919113E2  -3.174133660345046E1   3.805479417344729E1  -3.105158593805785E1   1.543722181754383E1  -8.010956151315812   8.404962384250790E1  
 3.696000000000000E9    -4.269757347605222   1.547337734852297E2  -3.153255069077614E1   3.650061113488233E1  -3.107069055685255E1   1.380674624184600E1  -8.017487974698193   8.362303969573550E1  
 3.697000000000000E9    -4.101126112055910   1.515578317371313E2  -3.131466472461007E1   3.478688661618663E1  -3.109123878409492E1   1.234891424006844E1  -8.025295891394652   8.320232374487236E1  
 3.698000000000000E9    -3.940649268029212   1.482842341317634E2  -3.110869265028943E1   3.285110361249694E1  -3.110671456930244E1   1.082156537064762E1  -8.032720721233050   8.278281825060735E1  
 3.699000000000000E9    -3.782752399226618   1.449835301701774E2  -3.089611352881755E1   3.095383229834111E1  -3.112095885311899E1   9.327780465290211  -8.040550354390723   8.236141160806773E1  
