#  HZ   S   DB   R     50.00 
! Rohde & Schwarz ZVB8 2Ports - Version 3.70 - 1145.1010k08 SN: 100925
! Date: 2017-03-03 16:07:43
! Measurements: S11 S21 S12 S22 
! 
 3.600000000000000E9    -2.479519766824554E1   7.537982752782656E1  -4.328990546493585E1  -1.256199031538351E1  -4.299431182304772E1   1.709806149789790  -7.693868256208986   1.522581303585612E2  
 3.601000000000000E9    -2.487271278231508E1   7.602858006941852E1  -4.335839058192879E1  -1.515687868123357E1  -4.295719056929037E1  -7.942135731721070E-1  -7.673711985483776   1.518055308271210E2  
 3.602000000000000E9    -2.493132576232283E1   7.667365073514209E1  -4.336009447115908E1  -1.778686787734837E1  -4.292773008785700E1  -3.320941551393921  -7.653519348221145   1.513547719770824E2  
 3.603000000000000E9    -2.499045211565734E1   7.732001331581297E1  -4.339385759374000E1  -2.082827462632386E1  -4.291590335753467E1  -6.249296743371361  -7.630910041879300   1.508907591595948E2  
 3.604000000000000E9    -2.502888779945599E1   7.798361098490047E1  -4.340934313685403E1  -2.337672559101916E1  -4.288935163904850E1  -8.650158221665896  -7.609037706414076   1.504316587621181E2  
 3.605000000000000E9    -2.507021398777584E1   7.857781226187019E1  -4.345136007158935E1  -2.624253839308040E1  -4.283334596802835E1  -1.113413709441401E1  -7.586595922660097   1.499929586492204E2  
 3.606000000000000E9    -2.509380580919223E1   7.916966109398915E1  -4.349181012949608E1  -2.890113606615778E1  -4.281624288683231E1  -1.370836551993742E1  -7.565127628088299   1.495601565363684E2  
 3.607000000000000E9    -2.510487420937203E1   7.968385462799718E1  -4.355747715624949E1  -3.148968188702324E1  -4.276585205328605E1  -1.630337031775817E1  -7.540562109792808   1.491294072118382E2  
 3.608000000000000E9    -2.511220235942151E1   8.020725075102254E1  -4.357700172456260E1  -3.372615873600545E1  -4.276024203750644E1  -1.929335494236466E1  -7.518497055241848   1.486855343929471E2  
 3.609000000000000E9    -2.511193099547626E1   8.067416844102165E1  -4.363193864281718E1  -3.677015998534316E1  -4.275975778477146E1  -2.182923373861663E1  -7.494721109210911   1.482444597470784E2  
 3.610000000000000E9    -2.510477623685318E1   8.109097860082959E1  -4.366078646583581E1  -3.915893614470357E1  -4.274870977750137E1  -2.443983510515018E1  -7.470443820730827   1.478267790209858E2  
 3.611000000000000E9    -2.508889538482126E1   8.143975123625708E1  -4.368146482379985E1  -4.172366848708911E1  -4.274004310625880E1  -2.736406916834737E1  -7.447243015929550   1.474181888903442E2  
 3.612000000000000E9    -2.506547710263627E1   8.168359863934086E1  -4.375491075699244E1  -4.439126412911528E1  -4.267310036561158E1  -2.955264289931064E1  -7.425533855048585   1.470118062372238E2  
 3.613000000000000E9    -2.504566297511360E1   8.187936930518353E1  -4.378866032805611E1  -4.688363075966663E1  -4.265588258394643E1  -3.259359985173833E1  -7.403061692227715   1.466036889672449E2  
 3.614000000000000E9    -2.501053339660360E1   8.201146748009950E1  -4.378996559780711E1  -4.916056442079130E1  -4.266382638698501E1  -3.542136885482328E1  -7.382502969315634   1.461909917448550E2  
 3.615000000000000E9    -2.498505943687982E1   8.211042533630268E1  -4.381249882989410E1  -5.173505328927844E1  -4.260233884797337E1  -3.786463980789895E1  -7.362368636623008   1.457973869880975E2  
 3.616000000000000E9    -2.495222962197808E1   8.213865227661752E1  -4.386558760331900E1  -5.419177388459562E1  -4.264185775048100E1  -4.077974666594115E1  -7.345080058390614   1.454034111644234E2  
 3.617000000000000E9    -2.491103037989196E1   8.200907776983384E1  -4.387322818900501E1  -5.679524981654993E1  -4.258217081953737E1  -4.344070220274509E1  -7.326053663761556   1.450190748574431E2  
 3.618000000000000E9    -2.487491748341484E1   8.186387574514463E1  -4.387589796262202E1  -5.910249513931321E1  -4.257789113156409E1  -4.638576241490457E1  -7.308573361308786   1.446196482326644E2  
 3.619000000000000E9    -2.483993303286632E1   8.161472159746658E1  -4.393512458141684E1  -6.157062679278258E1  -4.254471689460244E1  -4.851964303310855E1  -7.291017578955041   1.442151391361365E2  
 3.620000000000000E9    -2.480739818563465E1   8.137898842400743E1  -4.390571774001082E1  -6.422677730756975E1  -4.256428185803900E1  -5.126291284946040E1  -7.274800619179532   1.438026756574669E2  
 3.621000000000000E9    -2.477064864724064E1   8.101571865646287E1  -4.391450060678525E1  -6.647402175276372E1  -4.257231996477772E1  -5.407266218156857E1  -7.262004971700069   1.433991720370379E2  
 3.622000000000000E9    -2.473745477572395E1   8.054863311584059E1  -4.394407278781127E1  -6.873056316662591E1  -4.258787049049094E1  -5.686630560036662E1  -7.247553461292230   1.430006490991178E2  
 3.623000000000000E9    -2.470778467352903E1   8.003529260023397E1  -4.390272865818175E1  -7.124802871713285E1  -4.251010237543859E1  -5.958675514294476E1  -7.236638616800394   1.425977636610881E2  
 3.624000000000000E9    -2.468595948393246E1   7.947195469675850E1  -4.396282332927454E1  -7.365340989420506E1  -4.249977107891326E1  -6.223627462910254E1  -7.224263704357082   1.421822694430393E2  
 3.625000000000000E9    -2.466578829808424E1   7.888889647763526E1  -4.394489557084095E1  -7.641584030486570E1  -4.253722843679194E1  -6.521013556322751E1  -7.212525969376290   1.417480690204649E2  
 3.626000000000000E9    -2.464333760454634E1   7.820553274013550E1  -4.394799604930568E1  -7.890741391037783E1  -4.248409434795338E1  -6.758825938001762E1  -7.201197584800028   1.413152886368605E2  
 3.627000000000000E9    -2.463052628366222E1   7.748356096933000E1  -4.397368170902126E1  -8.144512119721578E1  -4.253108577957791E1  -7.040656012327978E1  -7.192237533195205   1.408833004496455E2  
 3.628000000000000E9    -2.461801207278647E1   7.666685159329947E1  -4.397799157079719E1  -8.387991149780231E1  -4.252014575642063E1  -7.319693142271277E1  -7.181456524526593   1.404319979847375E2  
 3.629000000000000E9    -2.461082184142970E1   7.579331784294050E1  -4.396603745993559E1  -8.647977190225856E1  -4.254532608564053E1  -7.597871103137646E1  -7.171759136897500   1.399751081221640E2  
 3.630000000000000E9    -2.461121782247821E1   7.492901078173490E1  -4.394952248085159E1  -8.903216362965202E1  -4.252297810305850E1  -7.887725909779101E1  -7.159860021920239   1.395202219838662E2  
 3.631000000000000E9    -2.461895720755492E1   7.407178984705242E1  -4.396634628564642E1  -9.144978594355935E1  -4.252192888224332E1  -8.176852102081099E1  -7.149264294631783   1.390350887335741E2  
 3.632000000000000E9    -2.462676061509382E1   7.309784190157649E1  -4.393185497604311E1  -9.435995377062149E1  -4.254779408922292E1  -8.382831127075477E1  -7.139174358480678   1.385514539152351E2  
 3.633000000000000E9    -2.463821471374524E1   7.214008882104409E1  -4.397955058553164E1  -9.669775771035009E1  -4.250961428264806E1  -8.689611088278458E1  -7.127496332144123   1.380722863596923E2  
 3.634000000000000E9    -2.464728782951986E1   7.108881205234111E1  -4.397515380635001E1  -9.964236847858867E1  -4.251610693925230E1  -8.953273664374356E1  -7.116314405266648   1.375761531631620E2  
 3.635000000000000E9    -2.466873536679327E1   7.005652195425350E1  -4.395121724369617E1  -1.020053016333605E2  -4.251615398001688E1  -9.238290672844732E1  -7.102770159972237   1.370726600441157E2  
 3.636000000000000E9    -2.469871868069748E1   6.893814118337868E1  -4.399562873232686E1  -1.042636190124273E2  -4.255297535113774E1  -9.493074195724806E1  -7.088984081554746   1.365662775162214E2  
 3.637000000000000E9    -2.472948320166312E1   6.787495629020226E1  -4.402138080144062E1  -1.073171205810558E2  -4.253977291306946E1  -9.747794677759261E1  -7.074304773542530   1.360522730349536E2  
 3.638000000000000E9    -2.476483744476962E1   6.671465805071392E1  -4.403543181430791E1  -1.094632184379648E2  -4.250082365136110E1  -1.000079877886959E2  -7.059671257834319   1.355439357903020E2  
 3.639000000000000E9    -2.480193566491262E1   6.558218156994893E1  -4.402619829096691E1  -1.122884121503896E2  -4.249813259481475E1  -1.026506734964480E2  -7.043271766841948   1.350281219616776E2  
 3.640000000000000E9    -2.484934914772248E1   6.439575138011583E1  -4.407243450698986E1  -1.151127135887976E2  -4.256080510612225E1  -1.055473351216947E2  -7.024200683145430   1.345090149427718E2  
 3.641000000000000E9    -2.490068839948519E1   6.321409631434781E1  -4.406688227165650E1  -1.174603342574725E2  -4.257298365496445E1  -1.080903455570368E2  -7.005120769368366   1.339914127965710E2  
 3.642000000000000E9    -2.495688806647427E1   6.203754311598563E1  -4.405920476001493E1  -1.200716479699637E2  -4.252322092016612E1  -1.109700493260299E2  -6.987530234044612   1.334768538304063E2  
 3.643000000000000E9    -2.501387538429844E1   6.082658379903506E1  -4.409408199803070E1  -1.223716366360791E2  -4.255425066212253E1  -1.138220152174506E2  -6.964641423571605   1.329677339991079E2  
 3.644000000000000E9    -2.508167175542240E1   5.960676080673982E1  -4.414663199548501E1  -1.248116641742654E2  -4.257982292133636E1  -1.163227101979830E2  -6.944072516179198   1.324580765871829E2  
 3.645000000000000E9    -2.514957035103246E1   5.839374607529052E1  -4.413184082838434E1  -1.273333069131744E2  -4.255986384574829E1  -1.186543498284708E2  -6.921441266195617   1.319523937027447E2  
 3.646000000000000E9    -2.522001828466384E1   5.719938820153939E1  -4.417584530924958E1  -1.296708177834526E2  -4.255858355840326E1  -1.214136163142307E2  -6.899134491502717   1.314502305743451E2  
 3.647000000000000E9    -2.529507950488817E1   5.594040766312769E1  -4.414701782548639E1  -1.324801317632734E2  -4.260036977886752E1  -1.239510530616850E2  -6.876008800714099   1.309613510220845E2  
 3.648000000000000E9    -2.536926108219246E1   5.470759825630938E1  -4.418430028756947E1  -1.346004842286386E2  -4.254235060248885E1  -1.266559143782280E2  -6.851302510237079   1.304768180146172E2  
 3.649000000000000E9    -2.545151331601215E1   5.352086317654884E1  -4.419526429928613E1  -1.371245142839344E2  -4.259222645581656E1  -1.290573319461284E2  -6.828515791720930   1.299971831593816E2  
 3.650000000000000E9    -2.553640357917233E1   5.227784619521641E1  -4.418937340078479E1  -1.395476038762510E2  -4.258483710128188E1  -1.317618363094003E2  -6.806505356600664   1.295361210320821E2  
 3.651000000000000E9    -2.562188442721357E1   5.112325074152294E1  -4.417846493510670E1  -1.418526454051869E2  -4.261365408442489E1  -1.343145570322944E2  -6.781844115314800   1.290687491933290E2  
 3.652000000000000E9    -2.571119101399408E1   4.997127838880563E1  -4.420454471690235E1  -1.444631198966695E2  -4.260082348649567E1  -1.368807058784082E2  -6.757451328203433   1.286160362968143E2  
 3.653000000000000E9    -2.579770801757459E1   4.875377539571355E1  -4.420067789210023E1  -1.468367177301687E2  -4.263759828222953E1  -1.394185864228904E2  -6.734718865425026   1.281675793859177E2  
 3.654000000000000E9    -2.589511833347591E1   4.760660342511503E1  -4.418428469465299E1  -1.489774269836797E2  -4.262969724227871E1  -1.419315358981167E2  -6.712298964717287   1.277351996596971E2  
 3.655000000000000E9    -2.599188195782230E1   4.647885517655920E1  -4.416139817705851E1  -1.512746024605366E2  -4.263413066113309E1  -1.442942117284275E2  -6.691611651485652   1.273086023525019E2  
 3.656000000000000E9    -2.609052343637876E1   4.535667182928940E1  -4.416040424366809E1  -1.540366183314603E2  -4.262614606116113E1  -1.469087855285638E2  -6.670189239577475   1.268867938637492E2  
 3.657000000000000E9    -2.620097077485389E1   4.420368332739363E1  -4.415097184971667E1  -1.561697483186641E2  -4.261840695321701E1  -1.492658486131401E2  -6.650544037038054   1.264675763917823E2  
 3.658000000000000E9    -2.630439935743887E1   4.311955536913019E1  -4.412988531505145E1  -1.588877687731141E2  -4.260725078504123E1  -1.516138266583442E2  -6.632119159345652   1.260550086742852E2  
 3.659000000000000E9    -2.641062030829123E1   4.209270797104411E1  -4.406787632010639E1  -1.610867218653380E2  -4.256866754181349E1  -1.541886109136254E2  -6.615084031178197   1.256441367173231E2  
 3.660000000000000E9    -2.652458125654593E1   4.107161784621798E1  -4.403776109478864E1  -1.638910282577287E2  -4.259314371574843E1  -1.568072535677632E2  -6.600732610993656   1.252470832483180E2  
 3.661000000000000E9    -2.662460417218421E1   4.009947936227422E1  -4.402969098744123E1  -1.662490993402533E2  -4.255924826969366E1  -1.592099331493156E2  -6.582624067071391   1.248330475849890E2  
 3.662000000000000E9    -2.673523638986859E1   3.914399168120568E1  -4.400950635574190E1  -1.688832866007922E2  -4.253359826634264E1  -1.616481741642788E2  -6.569336631828905   1.244293215376737E2  
 3.663000000000000E9    -2.684280916908730E1   3.820419450757054E1  -4.400270723904038E1  -1.713178484441229E2  -4.254209085201220E1  -1.645793812613183E2  -6.557312011929311   1.240223543852258E2  
 3.664000000000000E9    -2.695062454365068E1   3.721330111759326E1  -4.395996121819236E1  -1.737853907784016E2  -4.255013105655497E1  -1.665294809621216E2  -6.545224255822060   1.236158046574835E2  
 3.665000000000000E9    -2.706201336730197E1   3.633679280225741E1  -4.388114110358520E1  -1.765741576706738E2  -4.254010892384395E1  -1.689042951609503E2  -6.535189810656269   1.232019644359021E2  
 3.666000000000000E9    -2.717388685068259E1   3.538123207187924E1  -4.390443510654168E1  -1.790976171568843E2  -4.249691838054842E1  -1.713859768095853E2  -6.525180485288288   1.227906934418789E2  
 3.667000000000000E9    -2.728727879769602E1   3.456058306442247E1  -4.386119181537234E1   1.779104889707678E2  -4.250466561052738E1  -1.737894534656083E2  -6.517627281595849   1.223574805490662E2  
 3.668000000000000E9    -2.738984393913061E1   3.364505717933992E1  -4.379975260750797E1   1.755828936464801E2  -4.245298494844359E1  -1.762924310874024E2  -6.508468348203598   1.219345808745294E2  
 3.669000000000000E9    -2.750410385259876E1   3.273235068965188E1  -4.380269557763531E1   1.730757818935551E2  -4.245970681153215E1  -1.791084473426900E2  -6.502597356916571   1.214896228665449E2  
 3.670000000000000E9    -2.761979956713634E1   3.185198631074505E1  -4.379955321582029E1   1.703888117384964E2  -4.242529831711028E1   1.786359943832781E2  -6.496486367760150   1.210430416360048E2  
 3.671000000000000E9    -2.772915553462954E1   3.099370041074502E1  -4.376454754501003E1   1.674238682146678E2  -4.236627694095537E1   1.760008083900794E2  -6.489947227688485   1.205968163163904E2  
 3.672000000000000E9    -2.784618283772516E1   3.003234682156937E1  -4.377471658815843E1   1.648116909653805E2  -4.239221108862439E1   1.735075334257614E2  -6.483282295376114   1.201254173131650E2  
 3.673000000000000E9    -2.795391846942366E1   2.920008476441315E1  -4.372231376644592E1   1.620402635922408E2  -4.228684385943028E1   1.708369860034244E2  -6.477066144489511   1.196631094685274E2  
 3.674000000000000E9    -2.807738571037776E1   2.828671194529840E1  -4.372802402865862E1   1.595850537934405E2  -4.229755480220177E1   1.683954933738931E2  -6.469564241196376   1.191701077565380E2  
 3.675000000000000E9    -2.819037644176206E1   2.738678042906050E1  -4.374469720347629E1   1.564169572824172E2  -4.222008628996245E1   1.658069611371830E2  -6.463110564479445   1.186766013894130E2  
 3.676000000000000E9    -2.830090711478471E1   2.651283236661177E1  -4.369665105963981E1   1.540035441556297E2  -4.221185862230050E1   1.634541186059330E2  -6.457868796670231   1.181831308340765E2  
 3.677000000000000E9    -2.842344804266450E1   2.558065620169622E1  -4.369401790725247E1   1.512693477888969E2  -4.216272578882130E1   1.607954298923673E2  -6.450119963339562   1.176791166560618E2  
 3.678000000000000E9    -2.855219578274271E1   2.460162866154113E1  -4.367760808864468E1   1.484119657957501E2  -4.211967937531131E1   1.581399050596528E2  -6.443234309576124   1.171719119061684E2  
 3.679000000000000E9    -2.867364237468963E1   2.362426276178828E1  -4.370633029166733E1   1.456871516967425E2  -4.213004120409309E1   1.553484347144460E2  -6.433608085539338   1.166575193884172E2  
 3.680000000000000E9    -2.879777739803306E1   2.263838043801446E1  -4.367682188674477E1   1.430894304066120E2  -4.199617350600669E1   1.525318632651424E2  -6.423083906328859   1.161357659153309E2  
 3.681000000000000E9    -2.893627622346660E1   2.165822535176935E1  -4.365816933759337E1   1.400244668184013E2  -4.196684577077436E1   1.501394060668494E2  -6.414281779203265   1.156098927592721E2  
 3.682000000000000E9    -2.906923697171097E1   2.055245477810837E1  -4.372174288965648E1   1.376544993394474E2  -4.194392565350830E1   1.474180794679648E2  -6.401563169403097   1.150791771708162E2  
 3.683000000000000E9    -2.922655742630417E1   1.950234107233002E1  -4.367730844785540E1   1.348720604653857E2  -4.185461994600112E1   1.444586717160472E2  -6.387846161117652   1.145622502890112E2  
 3.684000000000000E9    -2.937096399976286E1   1.833852317715876E1  -4.371138432827602E1   1.320988409172162E2  -4.185503546117098E1   1.416319268117034E2  -6.375475519477489   1.140393013635542E2  
 3.685000000000000E9    -2.953222564584598E1   1.723077582929489E1  -4.368657967451774E1   1.295510607297322E2  -4.182068445615037E1   1.391297307373643E2  -6.361618191808919   1.135175417866506E2  
 3.686000000000000E9    -2.970231032970223E1   1.597974656397079E1  -4.370812989845001E1   1.266341692766473E2  -4.175895276126678E1   1.361989290874737E2  -6.345047375061529   1.130047478999004E2  
 3.687000000000000E9    -2.987396669845791E1   1.478161415700430E1  -4.373833846029263E1   1.239406921655405E2  -4.171109178978922E1   1.331412633194753E2  -6.329904615882576   1.124995624925705E2  
 3.688000000000000E9    -3.005675038586653E1   1.356088111497669E1  -4.375620088520401E1   1.215171832074123E2  -4.168493823585227E1   1.305412530766853E2  -6.313311702432523   1.119906324721079E2  
 3.689000000000000E9    -3.024833648818592E1   1.227020119583988E1  -4.375648980703065E1   1.185049320417526E2  -4.172597299440497E1   1.275334156970743E2  -6.295955375605744   1.114952380825479E2  
 3.690000000000000E9    -3.046999918760616E1   1.103319695816995E1  -4.372664859604237E1   1.158406197929583E2  -4.161234378187951E1   1.246819889133091E2  -6.278717083780018   1.110079509897146E2  
 3.691000000000000E9    -3.067799211271571E1   9.677234445442497  -4.377005331645141E1   1.130200818753420E2  -4.162151415433452E1   1.219704544657111E2  -6.261788914826197   1.105344286631541E2  
 3.692000000000000E9    -3.089867782342856E1   8.351647646905198  -4.377367317087777E1   1.103734896057468E2  -4.157302282051152E1   1.189255304402899E2  -6.243365739731680   1.100673841924057E2  
 3.693000000000000E9    -3.115213519177262E1   6.883465578321017  -4.379253198951673E1   1.078649062674919E2  -4.150378200408048E1   1.161950207438268E2  -6.226337481910120   1.096100375583200E2  
 3.694000000000000E9    -3.139776706257995E1   5.639128467671574  -4.381467916296546E1   1.048552822809302E2  -4.149233902970529E1   1.131677318782721E2  -6.208180945026257   1.091665836080192E2  
 3.695000000000000E9    -3.167796827518406E1   4.140365395637564  -4.379903778436798E1   1.020740014657011E2  -4.150092818627245E1   1.103648233556836E2  -6.192857552115165   1.087188246700547E2  
 3.696000000000000E9    -3.195650438332438E1   2.797217746545844  -4.390931309288393E1   9.961134633991148E1  -4.146169493478021E1   1.074995670878667E2  -6.175948625282643   1.082928772870164E2  
 3.697000000000000E9    -3.225227400066797E1   1.436499219472218  -4.385262320823801E1   9.700001968638202E1  -4.147248336776555E1   1.044862392106221E2  -6.161543947139831   1.078725280251883E2  
 3.698000000000000E9    -3.255007030969804E1   3.905583334831476E-2  -4.389851038614635E1   9.422561023353565E1  -4.142829938738589E1   1.015286414794509E2  -6.147576313923486   1.074734181625787E2  
