#  HZ   S   DB   R     50.00 
! Rohde & Schwarz ZVB8 2Ports - Version 3.70 - 1145.1010k08 SN: 100925
! Date: 2017-03-03 16:09:10
! Measurements: S11 S21 S12 S22 
! 
 3.600000000000000E9    -2.498975787072298E1   7.244175256034279E1  -4.260631942643023E1   8.566858125956105E1  -4.267167722577369E1   1.023543141973211E2  -7.045813620850301   1.643554710796920E2  
 3.601000000000000E9    -2.509228130137228E1   7.307059371777717E1  -4.265476901479910E1   8.240430258244217E1  -4.260512492735862E1   9.976364448804895E1  -7.027150198051917   1.639026184384537E2  
 3.602000000000000E9    -2.517742900428778E1   7.378226465350360E1  -4.270289651976254E1   7.979373765401184E1  -4.259876180243212E1   9.708240790745121E1  -7.007790819993033   1.634483974710351E2  
 3.603000000000000E9    -2.526089739755165E1   7.446037163385634E1  -4.273159064236660E1   7.676047805598434E1  -4.258612414808425E1   9.451359149374039E1  -6.987514165928686   1.630006886226635E2  
 3.604000000000000E9    -2.532396059261750E1   7.513525166620013E1  -4.272802497497229E1   7.381176333782054E1  -4.254453454306875E1   9.145386823499671E1  -6.967257835391266   1.625478982331390E2  
 3.605000000000000E9    -2.539351311282528E1   7.583704525996750E1  -4.279727997799878E1   7.121516361065254E1  -4.247736772977347E1   8.895545863552057E1  -6.947681379593208   1.621073939475907E2  
 3.606000000000000E9    -2.544417519107303E1   7.649483952017874E1  -4.281803318115275E1   6.825000655012121E1  -4.243707870594356E1   8.615978736188886E1  -6.926079588644464   1.616678221724116E2  
 3.607000000000000E9    -2.548079925319368E1   7.713079283188020E1  -4.289456337507072E1   6.526956122782222E1  -4.241370836414069E1   8.332517468481201E1  -6.902659010590294   1.612190848200979E2  
 3.608000000000000E9    -2.551367270270812E1   7.775843397291661E1  -4.294156937572490E1   6.271207869705720E1  -4.242204874341186E1   8.068298110320379E1  -6.881991887961279   1.607864332679695E2  
 3.609000000000000E9    -2.553243764078585E1   7.829513052744028E1  -4.297852992679609E1   6.018294710556809E1  -4.238491703518563E1   7.805284555026394E1  -6.859588972934195   1.603524161914789E2  
 3.610000000000000E9    -2.553795075292879E1   7.881158781879250E1  -4.301931621016801E1   5.739446597649387E1  -4.238111377664463E1   7.503480480418216E1  -6.836541867882949   1.599273606744331E2  
 3.611000000000000E9    -2.554603815878990E1   7.926083402796493E1  -4.307742144961844E1   5.471240372633499E1  -4.235978460957130E1   7.226114189706387E1  -6.814989432594135   1.595144697581409E2  
 3.612000000000000E9    -2.553627433843649E1   7.962963649397011E1  -4.313148745994553E1   5.187787870759566E1  -4.233854806526939E1   6.997454476196079E1  -6.792179832458973   1.590968770897399E2  
 3.613000000000000E9    -2.553635406597489E1   7.996912227509431E1  -4.314566157531680E1   4.940049904415276E1  -4.233325431593783E1   6.721824776882242E1  -6.771029111967085   1.586775401664767E2  
 3.614000000000000E9    -2.552068611462529E1   8.022748073739864E1  -4.320495010518366E1   4.712459780481267E1  -4.224416964696021E1   6.424286423238176E1  -6.750060521583702   1.582792774783639E2  
 3.615000000000000E9    -2.549880247091419E1   8.042959293429631E1  -4.319782910668688E1   4.434649019131038E1  -4.226542989554918E1   6.123750630667576E1  -6.731271484727336   1.578832454311169E2  
 3.616000000000000E9    -2.547495756238474E1   8.060541048456243E1  -4.324176948790181E1   4.182015726468842E1  -4.224556831073069E1   5.841387759077817E1  -6.711976461301173   1.574882421850512E2  
 3.617000000000000E9    -2.544973313928546E1   8.060137824667812E1  -4.328802115236103E1   3.937841533847941E1  -4.221977639738747E1   5.591658987694413E1  -6.693330404398679   1.570829357012354E2  
 3.618000000000000E9    -2.543461626998547E1   8.058500719555352E1  -4.336591835881035E1   3.685782515771328E1  -4.220862888564745E1   5.292727908986626E1  -6.675596555184559   1.566740569183815E2  
 3.619000000000000E9    -2.540243250461335E1   8.047575725841942E1  -4.333951114086115E1   3.447633909752858E1  -4.221494955615778E1   5.027125531933405E1  -6.657599689038153   1.562742678237443E2  
 3.620000000000000E9    -2.537745081102305E1   8.033142544664858E1  -4.334468287438226E1   3.183858021285423E1  -4.219301154871324E1   4.735116183587545E1  -6.642196316855714   1.558767388478717E2  
 3.621000000000000E9    -2.534355461548136E1   8.012886457117648E1  -4.336188107723588E1   2.959200103918434E1  -4.219108842436931E1   4.450592677922985E1  -6.626674613528842   1.554721742717335E2  
 3.622000000000000E9    -2.531647207286354E1   7.982721872693304E1  -4.341541157959563E1   2.697024821203678E1  -4.217685235390883E1   4.181987058210032E1  -6.612597671899014   1.550664491606665E2  
 3.623000000000000E9    -2.528663030650517E1   7.942894408148706E1  -4.334727062342780E1   2.427575220400430E1  -4.218225516213981E1   3.896450002429713E1  -6.597925813442268   1.546528809582988E2  
 3.624000000000000E9    -2.527426080764082E1   7.900447362896414E1  -4.339313072784902E1   2.158940728740333E1  -4.212384804903079E1   3.604148978839157E1  -6.584911396403328   1.542368787541671E2  
 3.625000000000000E9    -2.525481772843397E1   7.853329379564799E1  -4.335133249280423E1   1.937008880767394E1  -4.211121972937637E1   3.340944449094600E1  -6.573016981620066   1.538242607041875E2  
 3.626000000000000E9    -2.522338555763981E1   7.799212521203630E1  -4.336865575069274E1   1.681571079369141E1  -4.213048994402078E1   3.054342420661712E1  -6.561408056232959   1.534049408328168E2  
 3.627000000000000E9    -2.521729896461324E1   7.739256091732912E1  -4.336884927485920E1   1.418267056905760E1  -4.210800832122912E1   2.783429348784581E1  -6.550080556343384   1.529611422798267E2  
 3.628000000000000E9    -2.520558693310516E1   7.665696740290572E1  -4.337741039622130E1   1.169396184248410E1  -4.218638933362041E1   2.485201306000322E1  -6.538178922486364   1.525199336154209E2  
 3.629000000000000E9    -2.520269997855398E1   7.599634534475750E1  -4.335136081748861E1   8.654109665435666  -4.218029409386445E1   2.228665466206286E1  -6.526905303154154   1.520653094677564E2  
 3.630000000000000E9    -2.519942979737211E1   7.523743482208145E1  -4.336287985626729E1   6.308650262185101  -4.213294388060351E1   1.926276952735235E1  -6.515381251775532   1.516104385159971E2  
 3.631000000000000E9    -2.520199984762136E1   7.443176233591336E1  -4.339239552566293E1   3.427752413462089  -4.214785109330938E1   1.654543727122776E1  -6.505519933285505   1.511487613522464E2  
 3.632000000000000E9    -2.519923686979985E1   7.356946508098015E1  -4.337250933501377E1   8.016993747666739E-1  -4.214310467068869E1   1.342942382788326E1  -6.493030913688777   1.506706980684080E2  
 3.633000000000000E9    -2.521005276666797E1   7.275326675600037E1  -4.336727338373524E1  -1.742384478390824  -4.212606073746079E1   1.100100389410455E1  -6.479997740362066   1.501954633611661E2  
 3.634000000000000E9    -2.521745548689228E1   7.181298944187708E1  -4.341567838804112E1  -4.537743935211214  -4.213319144496251E1   7.998286628235373  -6.467769379979591   1.497019067015617E2  
 3.635000000000000E9    -2.523579773116892E1   7.087298895781230E1  -4.338918527276023E1  -7.331770633475014  -4.216669996553809E1   5.267362084992811  -6.455737284020818   1.492103730576585E2  
 3.636000000000000E9    -2.525131433191801E1   6.990424643991338E1  -4.343770871097279E1  -9.971984237172716  -4.219787929745187E1   2.631311478536756  -6.443025049039849   1.487104531493433E2  
 3.637000000000000E9    -2.528459652358321E1   6.891978638917921E1  -4.342515623203349E1  -1.259411748582621E1  -4.216874649088904E1  -2.945203481076969E-1  -6.428282812384174   1.482046140451412E2  
 3.638000000000000E9    -2.531442602538623E1   6.791993046247642E1  -4.344863286986477E1  -1.535217993154091E1  -4.218914799798831E1  -2.959515132702169  -6.412891187634367   1.476911714710737E2  
 3.639000000000000E9    -2.534036361339762E1   6.681518971036120E1  -4.346526995244799E1  -1.777132339569224E1  -4.216932904132882E1  -5.782882795621575  -6.397172606908941   1.471776688275193E2  
 3.640000000000000E9    -2.538913949708902E1   6.578518208727837E1  -4.351985233689752E1  -2.095001487986458E1  -4.219867183795444E1  -8.418115400825645  -6.378826535664348   1.466576097700636E2  
 3.641000000000000E9    -2.542537940334316E1   6.471277101470095E1  -4.352889349908733E1  -2.345075900192197E1  -4.216804040506734E1  -1.149004542060697E1  -6.360823371143805   1.461498301227901E2  
 3.642000000000000E9    -2.546641279928022E1   6.365571603983368E1  -4.355405094401012E1  -2.614122275521989E1  -4.222544295967701E1  -1.367911314443867E1  -6.343918753842176   1.456346442245940E2  
 3.643000000000000E9    -2.551620808270818E1   6.257108752978672E1  -4.357334908550318E1  -2.890790489315642E1  -4.229343225009495E1  -1.659869112303267E1  -6.323366267847915   1.451160114596685E2  
 3.644000000000000E9    -2.557929648937403E1   6.145327745521777E1  -4.363121299068376E1  -3.123366777826743E1  -4.223944123155169E1  -1.940167257301517E1  -6.302301466975039   1.446083574966791E2  
 3.645000000000000E9    -2.563292605866349E1   6.029287808741889E1  -4.363088308365037E1  -3.392621776673411E1  -4.224999778066736E1  -2.183406042362270E1  -6.280711951127864   1.440899929904398E2  
 3.646000000000000E9    -2.569797486139793E1   5.923449177912289E1  -4.370613493031111E1  -3.625076276477158E1  -4.226228730303450E1  -2.455885327937376E1  -6.259481354517940   1.435910882728266E2  
 3.647000000000000E9    -2.575629990054186E1   5.807913161619433E1  -4.374458103006874E1  -3.888411680940858E1  -4.227630334530254E1  -2.715667348852814E1  -6.238269142209505   1.430994647667755E2  
 3.648000000000000E9    -2.582177492237443E1   5.698086866511657E1  -4.370992591715020E1  -4.168405002121097E1  -4.227982881583397E1  -3.013292665697917E1  -6.216023994401143   1.426048747092728E2  
 3.649000000000000E9    -2.589195917590416E1   5.586776835705076E1  -4.377707679015249E1  -4.391562118920490E1  -4.227807923831279E1  -3.259201628396264E1  -6.192612817884654   1.421130618752899E2  
 3.650000000000000E9    -2.596837806528964E1   5.474006854792092E1  -4.376675381104893E1  -4.647449927331370E1  -4.230321778847972E1  -3.528457785622337E1  -6.170476102078259   1.416312141531471E2  
 3.651000000000000E9    -2.604062874108654E1   5.366113373436991E1  -4.381028800771883E1  -4.910157601377473E1  -4.230469445796749E1  -3.788937505890811E1  -6.145495513316190   1.411521502632957E2  
 3.652000000000000E9    -2.611035725439876E1   5.257834367306113E1  -4.378164545071331E1  -5.129206077372528E1  -4.234895760345651E1  -4.039957007160978E1  -6.123094350548394   1.406967907132722E2  
 3.653000000000000E9    -2.618623381090841E1   5.148679300164885E1  -4.380556814898072E1  -5.382133949022894E1  -4.234356984671351E1  -4.320169549681535E1  -6.100197260819009   1.402396578231967E2  
 3.654000000000000E9    -2.626946546396976E1   5.041798905190451E1  -4.381750361455193E1  -5.613111125160530E1  -4.237806899787516E1  -4.584132104961540E1  -6.078785798249363   1.397926996008249E2  
 3.655000000000000E9    -2.635038255571681E1   4.939342653907627E1  -4.385112109971924E1  -5.867024008519855E1  -4.238174067690589E1  -4.800144810114588E1  -6.058122311424751   1.393435846090941E2  
 3.656000000000000E9    -2.643848061855938E1   4.831796415248632E1  -4.383712558043388E1  -6.082845979303463E1  -4.234370406033679E1  -5.071688342843088E1  -6.036687727587350   1.389030867246896E2  
 3.657000000000000E9    -2.653272995300521E1   4.726171561372965E1  -4.378973203852868E1  -6.339544412359351E1  -4.237357360326918E1  -5.352585812827066E1  -6.017674534165207   1.384784241393157E2  
 3.658000000000000E9    -2.661677409456927E1   4.624345661161846E1  -4.380036593372822E1  -6.580919992817358E1  -4.236441438853299E1  -5.559275797553283E1  -5.999486904091085   1.380586547885010E2  
 3.659000000000000E9    -2.670942489788337E1   4.524103430267745E1  -4.381511011304506E1  -6.838053738486018E1  -4.236319079983125E1  -5.833825174260105E1  -5.981815176997162   1.376415554239570E2  
 3.660000000000000E9    -2.680863911628995E1   4.430451941745832E1  -4.374346479471717E1  -7.091110209000337E1  -4.236866280802703E1  -6.080311194329155E1  -5.964666193576790   1.372083436453721E2  
 3.661000000000000E9    -2.689190291602420E1   4.342667451970783E1  -4.375254342971843E1  -7.322123476335733E1  -4.238271963305292E1  -6.328397019468750E1  -5.947564140343562   1.367956623629698E2  
 3.662000000000000E9    -2.698845853081512E1   4.254061435572574E1  -4.373142729462448E1  -7.599990715576824E1  -4.236082968219047E1  -6.590626885603089E1  -5.934261505564690   1.363822691884322E2  
 3.663000000000000E9    -2.708268094161842E1   4.162607838700425E1  -4.366251195084102E1  -7.853012120769033E1  -4.236297760209623E1  -6.844547068633861E1  -5.920263648591090   1.359650076222273E2  
 3.664000000000000E9    -2.717633822596266E1   4.071000342668184E1  -4.368661014829937E1  -8.104139128661628E1  -4.232285071242750E1  -7.087497412153941E1  -5.907745078124475   1.355467873988090E2  
 3.665000000000000E9    -2.727115138358368E1   3.985085552484416E1  -4.363522725886438E1  -8.359482253068235E1  -4.233841885482667E1  -7.345541457731325E1  -5.895673006461079   1.351172110510479E2  
 3.666000000000000E9    -2.736377313374041E1   3.894667734296147E1  -4.363371192609494E1  -8.624287974752672E1  -4.235381663864213E1  -7.579036577537143E1  -5.883957249547816   1.346930378457522E2  
 3.667000000000000E9    -2.746248273914543E1   3.814009216516127E1  -4.356341852880968E1  -8.905446804362195E1  -4.233174752941395E1  -7.825921173972708E1  -5.874995559836754   1.342685959816223E2  
 3.668000000000000E9    -2.755695142875241E1   3.730032680167435E1  -4.358917733035237E1  -9.158370532596560E1  -4.232257328536586E1  -8.088030019298559E1  -5.866110644482504   1.338418523327455E2  
 3.669000000000000E9    -2.765849066111933E1   3.638585297255075E1  -4.354262728979183E1  -9.446349360663118E1  -4.231975440690265E1  -8.333200977232700E1  -5.858293995240746   1.333998347207040E2  
 3.670000000000000E9    -2.776148982759006E1   3.553040371581849E1  -4.350648021998938E1  -9.707406462589103E1  -4.222290002017328E1  -8.573869551237303E1  -5.851244993398844   1.329434416496317E2  
 3.671000000000000E9    -2.785292660677444E1   3.469202695294047E1  -4.351373433384635E1  -1.000561246293010E2  -4.222613708434254E1  -8.837978326090752E1  -5.842960195026774   1.324848630161804E2  
 3.672000000000000E9    -2.795648678037472E1   3.379138333050370E1  -4.350869883354573E1  -1.028111564953613E2  -4.221608681959162E1  -9.113940607460769E1  -5.834785555418424   1.320098373651773E2  
 3.673000000000000E9    -2.805650913537328E1   3.295388637810565E1  -4.347913639618988E1  -1.054678648992442E2  -4.218164310025772E1  -9.309036648866280E1  -5.828720553533453   1.315472442928692E2  
 3.674000000000000E9    -2.816338332714998E1   3.203966561562239E1  -4.345901497112153E1  -1.082745005745352E2  -4.218926809322212E1  -9.596737839494067E1  -5.821484266384332   1.310639375195284E2  
 3.675000000000000E9    -2.826705425537693E1   3.118962294385328E1  -4.345982021101492E1  -1.110753059308828E2  -4.214056361927408E1  -9.851330985496865E1  -5.814503960678692   1.305745397648491E2  
 3.676000000000000E9    -2.836977521569738E1   3.030443541792179E1  -4.347676998222440E1  -1.138342560708011E2  -4.208780184818598E1  -1.010578966547270E2  -5.807359571305078   1.300658940608733E2  
 3.677000000000000E9    -2.848200291298011E1   2.941376966272301E1  -4.346199684870216E1  -1.165231023667352E2  -4.209015614103578E1  -1.037843480734671E2  -5.799429505403832   1.295717353071899E2  
 3.678000000000000E9    -2.859284948054181E1   2.844821860580774E1  -4.348545911090049E1  -1.195707915603187E2  -4.204440453255330E1  -1.065487065886238E2  -5.790552678518651   1.290581229506355E2  
 3.679000000000000E9    -2.870870881183307E1   2.751340329522701E1  -4.349298422144696E1  -1.225065575835844E2  -4.197849843797492E1  -1.093017996457161E2  -5.782320953260499   1.285441117556457E2  
 3.680000000000000E9    -2.881885655603406E1   2.649853145025058E1  -4.351192688468649E1  -1.252348765295459E2  -4.193159714651215E1  -1.119689254046028E2  -5.771492990032800   1.280228105797247E2  
 3.681000000000000E9    -2.895235055918275E1   2.552949014446278E1  -4.350472615100949E1  -1.281090297344690E2  -4.191209035159768E1  -1.143858887803627E2  -5.761079256900464   1.275000690568500E2  
 3.682000000000000E9    -2.907751754086183E1   2.448056024316929E1  -4.355604493365563E1  -1.306000038103837E2  -4.188606191514943E1  -1.171238054219326E2  -5.749336264258332   1.269653480527017E2  
 3.683000000000000E9    -2.921565102955479E1   2.345274576115915E1  -4.356914152619910E1  -1.332286730455832E2  -4.185804972789404E1  -1.196280137373924E2  -5.735875000194701   1.264400224732134E2  
 3.684000000000000E9    -2.936684513023350E1   2.229935305174395E1  -4.359137649471832E1  -1.359760600290790E2  -4.177378119835181E1  -1.227302663698555E2  -5.723398883257776   1.259120293129913E2  
 3.685000000000000E9    -2.951288442335154E1   2.122801547694143E1  -4.360656340456210E1  -1.389906850424171E2  -4.178803013114696E1  -1.253809324369065E2  -5.709347161743779   1.253860106800485E2  
 3.686000000000000E9    -2.967474493627968E1   1.999729083598556E1  -4.364480929976417E1  -1.416455179674371E2  -4.171656870934613E1  -1.283144515485079E2  -5.693577956499851   1.248620034212461E2  
 3.687000000000000E9    -2.984083891165571E1   1.885648005898769E1  -4.367794858909227E1  -1.441811167514485E2  -4.166432390603675E1  -1.311705401656726E2  -5.676324453848610   1.243397186844739E2  
 3.688000000000000E9    -3.001596199987129E1   1.763595993790642E1  -4.368981859175430E1  -1.471319785848939E2  -4.164639793764062E1  -1.341547308878254E2  -5.660848431436390   1.238211336435663E2  
 3.689000000000000E9    -3.018936895912831E1   1.638287198400983E1  -4.373891977342575E1  -1.496188188626446E2  -4.157406425382455E1  -1.368627760594657E2  -5.643683588442337   1.233178156284182E2  
 3.690000000000000E9    -3.039570822108015E1   1.514220753454978E1  -4.375734834496429E1  -1.523156588764975E2  -4.156701065889249E1  -1.399705407453224E2  -5.627345970527998   1.228231836868290E2  
 3.691000000000000E9    -3.059991016230953E1   1.390047441786819E1  -4.374872609480401E1  -1.547567946306891E2  -4.152261707063165E1  -1.426402222086794E2  -5.609227994496611   1.223321464541793E2  
 3.692000000000000E9    -3.080283358248780E1   1.267920456392196E1  -4.381814209223164E1  -1.576579848933043E2  -4.154370090203678E1  -1.454141570214982E2  -5.589549265357340   1.218380500381852E2  
 3.693000000000000E9    -3.105380821093385E1   1.127503945662366E1  -4.385301638362519E1  -1.604333133514616E2  -4.152923692370104E1  -1.481942099834686E2  -5.571099714241140   1.213628184785886E2  
 3.694000000000000E9    -3.128210270778545E1   1.011382542173099E1  -4.386615121942069E1  -1.629188427546207E2  -4.148638905876393E1  -1.511884310325659E2  -5.552668996087666   1.208994370164889E2  
 3.695000000000000E9    -3.153970069026880E1   8.721164512467173  -4.392054613857732E1  -1.654758596478352E2  -4.144437912581260E1  -1.538902447734828E2  -5.537679638532889   1.204480148597015E2  
 3.696000000000000E9    -3.179202814607170E1   7.515986484952505  -4.390131349382767E1  -1.681553940896059E2  -4.146175167385346E1  -1.569189343291004E2  -5.520121989482569   1.199998763999207E2  
 3.697000000000000E9    -3.206079256450087E1   6.224668113821225  -4.392179467650240E1  -1.708621666551686E2  -4.148915854650730E1  -1.600789148129271E2  -5.503579389576859   1.195618489169156E2  
 3.698000000000000E9    -3.233477513282353E1   4.923065491555453  -4.398035631607166E1  -1.733272929225479E2  -4.143895775398141E1  -1.625460130105559E2  -5.487421536842615   1.191304954115491E2  
