#  HZ   S   DB   R     50.00 
! Rohde & Schwarz ZVB8 2Ports - Version 3.70 - 1145.1010k08 SN: 100925
! Date: 2017-03-03 16:10:29
! Measurements: S11 S21 S12 S22 
! 
 3.600000000000000E9    -2.488967098091758E1   7.455318032780271E1  -4.331548555322304E1  -1.747347351814911E2  -4.286551469501830E1  -1.605753921576250E2  -7.497567118711152   1.494960269332737E2  
 3.601000000000000E9    -2.497596280205703E1   7.517656774187431E1  -4.335806396313399E1  -1.776081416526797E2  -4.286834816625113E1  -1.633410179030361E2  -7.480221941238852   1.490278938333802E2  
 3.602000000000000E9    -2.504844795379450E1   7.586147528048321E1  -4.334941874300498E1   1.795689053644764E2  -4.284101023727115E1  -1.658932487608574E2  -7.461201594090622   1.485699321834645E2  
 3.603000000000000E9    -2.511690167970937E1   7.651082224901984E1  -4.340395601847811E1   1.766370607802847E2  -4.278925070152636E1  -1.686383938091535E2  -7.440917331837321   1.481020141014405E2  
 3.604000000000000E9    -2.516526973715944E1   7.720387059995828E1  -4.341000998113113E1   1.739959871859634E2  -4.279176192921680E1  -1.713622319865150E2  -7.420317316516296   1.476394432641336E2  
 3.605000000000000E9    -2.521529795397754E1   7.785818615349257E1  -4.348932471008749E1   1.712900262882713E2  -4.272679473260325E1  -1.739885315336870E2  -7.399043432780752   1.471776020841691E2  
 3.606000000000000E9    -2.524727070780824E1   7.847435363799062E1  -4.348218427690880E1   1.685114060572577E2  -4.271263986188606E1  -1.771277373642322E2  -7.378293626698560   1.467331440483468E2  
 3.607000000000000E9    -2.526992073607163E1   7.904769146807817E1  -4.350492326223355E1   1.657826530821885E2  -4.264347995389095E1  -1.794917572480393E2  -7.357780173483918   1.462958339130635E2  
 3.608000000000000E9    -2.528477712766807E1   7.963055870488714E1  -4.355085259453048E1   1.631968787095814E2  -4.262920217026215E1   1.779790939500300E2  -7.337117227958243   1.458474204826870E2  
 3.609000000000000E9    -2.529563968878852E1   8.007050574457482E1  -4.363977421508371E1   1.606129131996993E2  -4.260359203559155E1   1.747845772554293E2  -7.314203691257331   1.454012124214190E2  
 3.610000000000000E9    -2.529567999844074E1   8.059102886082575E1  -4.365301088089297E1   1.576848890285687E2  -4.257957339773196E1   1.721617438632844E2  -7.292644348023118   1.449593976127272E2  
 3.611000000000000E9    -2.528583671091775E1   8.092838734768490E1  -4.364397174083712E1   1.551686860602272E2  -4.254857720456192E1   1.695550976249001E2  -7.272082227225452   1.445380486559149E2  
 3.612000000000000E9    -2.526579652698601E1   8.121929620825466E1  -4.371229437609823E1   1.527874275920693E2  -4.252684927674488E1   1.664516583816972E2  -7.249784247429391   1.441249841123916E2  
 3.613000000000000E9    -2.525297668826345E1   8.147668429347682E1  -4.370389948303774E1   1.500006922682727E2  -4.248998801703310E1   1.640260755739010E2  -7.230621946897564   1.437200348157341E2  
 3.614000000000000E9    -2.523154024283276E1   8.165865467612629E1  -4.373191811160145E1   1.474615543190837E2  -4.243779949107360E1   1.611107416399413E2  -7.210967986182530   1.433010825573294E2  
 3.615000000000000E9    -2.520258507518003E1   8.176074592317214E1  -4.376372305863673E1   1.449857692591140E2  -4.246600740373295E1   1.583377742559430E2  -7.193152126431745   1.428996685081680E2  
 3.616000000000000E9    -2.517628390534243E1   8.183491539990055E1  -4.382380233767075E1   1.424560552878748E2  -4.241447702999137E1   1.552864500406264E2  -7.176359389635251   1.424868646405762E2  
 3.617000000000000E9    -2.514292495172870E1   8.180218545194389E1  -4.383147906933780E1   1.399226155817991E2  -4.242747165814544E1   1.529235945118064E2  -7.159329395828903   1.420847501802116E2  
 3.618000000000000E9    -2.511732043799655E1   8.171494270391473E1  -4.379927812055763E1   1.371790891247776E2  -4.237795712878095E1   1.499330312020964E2  -7.145633056539755   1.416841857259212E2  
 3.619000000000000E9    -2.508348127259015E1   8.151548056333289E1  -4.381109482718787E1   1.347637914627648E2  -4.241939439668065E1   1.470527150026825E2  -7.129411170050998   1.412730290073738E2  
 3.620000000000000E9    -2.505408403131681E1   8.125560004231484E1  -4.383606780943147E1   1.323430300188381E2  -4.235859243645719E1   1.443111301516654E2  -7.115609053284195   1.408618533916078E2  
 3.621000000000000E9    -2.501775934872067E1   8.098603768835638E1  -4.384677205477835E1   1.297277672468103E2  -4.234327827640327E1   1.414981651099301E2  -7.103281257558406   1.404371885542921E2  
 3.622000000000000E9    -2.499169377243186E1   8.057363798192303E1  -4.384223616179516E1   1.270705378713610E2  -4.236455108463187E1   1.387446519818643E2  -7.091879542465623   1.400156036633234E2  
 3.623000000000000E9    -2.496497676465100E1   8.010157281617346E1  -4.384328833519829E1   1.247225899121261E2  -4.231098360624421E1   1.359737392064420E2  -7.082093885952082   1.396124745108383E2  
 3.624000000000000E9    -2.494575280712273E1   7.956220142780629E1  -4.385195671522398E1   1.218725173020815E2  -4.228339167670988E1   1.330371721637052E2  -7.072974450390377   1.391870166163250E2  
 3.625000000000000E9    -2.492206394906080E1   7.903198155719804E1  -4.381326847147743E1   1.194214718453577E2  -4.231648159866391E1   1.301686960199342E2  -7.062744701650301   1.387456386835856E2  
 3.626000000000000E9    -2.490074489045774E1   7.842205458166458E1  -4.385270339369397E1   1.167537174279934E2  -4.229874818879191E1   1.273787691530725E2  -7.053856017851611   1.382977254142612E2  
 3.627000000000000E9    -2.489028351208996E1   7.773497380297182E1  -4.382083537783380E1   1.141290565734740E2  -4.228460337540648E1   1.245070716956662E2  -7.045684391546024   1.378525731748743E2  
 3.628000000000000E9    -2.488066425144080E1   7.695082601782782E1  -4.380388648241109E1   1.113178740443707E2  -4.227344922433233E1   1.216333210601865E2  -7.037732900795643   1.374015564297069E2  
 3.629000000000000E9    -2.487220895702350E1   7.615490969443988E1  -4.382070593197684E1   1.088348356106637E2  -4.229838568121738E1   1.187166190807998E2  -7.029647237061134   1.369301092482230E2  
 3.630000000000000E9    -2.486987579312974E1   7.534854495309644E1  -4.382950416328229E1   1.061405120435533E2  -4.228489022543766E1   1.161371849504233E2  -7.021360461476815   1.364511063059007E2  
 3.631000000000000E9    -2.487635731747433E1   7.448729246529045E1  -4.379718846298301E1   1.034748295119790E2  -4.226203948467911E1   1.130785112969158E2  -7.011527767438106   1.359599195108704E2  
 3.632000000000000E9    -2.488251200938012E1   7.353940546017057E1  -4.382064850007627E1   1.005951313957197E2  -4.227416040782000E1   1.102036813140612E2  -7.003570797050937   1.354575690680029E2  
 3.633000000000000E9    -2.489704199232762E1   7.265105783949257E1  -4.381690976724970E1   9.788497608613631E1  -4.228194878156020E1   1.073933319603425E2  -6.993466154090423   1.349714337974788E2  
 3.634000000000000E9    -2.490587537216065E1   7.165085936487775E1  -4.382910378246893E1   9.515317423179984E1  -4.227778772780174E1   1.047918623481232E2  -6.984384298139205   1.344612470633808E2  
 3.635000000000000E9    -2.492369973664024E1   7.066706261668408E1  -4.384970173929287E1   9.278204541352248E1  -4.228815189205676E1   1.018539964953608E2  -6.973570148975941   1.339575516744011E2  
 3.636000000000000E9    -2.494811664331119E1   6.959108393385428E1  -4.384302420545222E1   8.995071941850642E1  -4.227290238232454E1   9.915031534763151E1  -6.961340423685731   1.334363058167523E2  
 3.637000000000000E9    -2.498394927311268E1   6.852705357934427E1  -4.386370949675253E1   8.707455694835107E1  -4.228056659444388E1   9.631032781146612E1  -6.950306721799537   1.329105484244443E2  
 3.638000000000000E9    -2.501233155851505E1   6.747734483133411E1  -4.386855687444257E1   8.455595881449719E1  -4.227859201035494E1   9.339641181466187E1  -6.935512523862902   1.323838461842073E2  
 3.639000000000000E9    -2.504641554271609E1   6.634102279913175E1  -4.385978928628602E1   8.150123738442524E1  -4.230072019535228E1   9.033710535909980E1  -6.921973318272681   1.318634113349031E2  
 3.640000000000000E9    -2.509452270934020E1   6.517923272421855E1  -4.396712445064038E1   7.921522806362664E1  -4.224285782089883E1   8.777707576909468E1  -6.905692887983507   1.313344140637221E2  
 3.641000000000000E9    -2.513271630197877E1   6.405251906346064E1  -4.393603873238848E1   7.638707482356278E1  -4.226145130476157E1   8.477897805218265E1  -6.890635646375715   1.308126512031871E2  
 3.642000000000000E9    -2.518825184230428E1   6.289853704067077E1  -4.396139172336477E1   7.400814900773844E1  -4.233525878284332E1   8.198648331244827E1  -6.873592016043354   1.302858640152982E2  
 3.643000000000000E9    -2.524025225202125E1   6.175159104951633E1  -4.393574936373256E1   7.112222357411835E1  -4.228683047606610E1   7.914070375412776E1  -6.854098503079213   1.297659955177149E2  
 3.644000000000000E9    -2.530498008362865E1   6.058297011428513E1  -4.396854998358488E1   6.829982001591007E1  -4.228682216048716E1   7.653127620739224E1  -6.835885845659482   1.292538230774928E2  
 3.645000000000000E9    -2.536628545474266E1   5.937878119596925E1  -4.401950991222564E1   6.566416479593930E1  -4.233926319791994E1   7.382615671513725E1  -6.816696432691912   1.287457102231997E2  
 3.646000000000000E9    -2.542900697858452E1   5.821649133891210E1  -4.403410756244202E1   6.321804720764035E1  -4.233188613350833E1   7.101978454399330E1  -6.795687903622349   1.282401534193801E2  
 3.647000000000000E9    -2.549264888132507E1   5.701653015555454E1  -4.404543478797716E1   6.071124172214996E1  -4.237555924015709E1   6.828319161636276E1  -6.775498898436911   1.277429885664552E2  
 3.648000000000000E9    -2.556575327872594E1   5.582189427285132E1  -4.404820629723100E1   5.811051399282952E1  -4.233456456299004E1   6.538289956058640E1  -6.754578519689904   1.272473778705780E2  
 3.649000000000000E9    -2.564015112280282E1   5.467852107046507E1  -4.407292507706973E1   5.541520204847998E1  -4.234061634184826E1   6.275006564731365E1  -6.733117285236612   1.267695061947254E2  
 3.650000000000000E9    -2.571798233646534E1   5.345918477788761E1  -4.410215064373560E1   5.310317720940633E1  -4.238976730372226E1   6.015898069317584E1  -6.713709765218565   1.263073740596835E2  
 3.651000000000000E9    -2.579830703635773E1   5.231988048855017E1  -4.406728802089257E1   5.036624622789999E1  -4.241679150891841E1   5.727625590011520E1  -6.692446391946074   1.258310374374378E2  
 3.652000000000000E9    -2.587446446155873E1   5.117197025435271E1  -4.409926086416731E1   4.783005464897912E1  -4.241448667073397E1   5.472215869199208E1  -6.670806446899175   1.253629990618211E2  
 3.653000000000000E9    -2.595158078284782E1   5.003914337625680E1  -4.412183294002393E1   4.562577816526808E1  -4.242522989023507E1   5.204756043206343E1  -6.649803482179541   1.249148823476958E2  
 3.654000000000000E9    -2.604454954392024E1   4.889166398849911E1  -4.411321692655558E1   4.281152598975091E1  -4.247006857444821E1   4.915100389098081E1  -6.630418120351551   1.244774734463458E2  
 3.655000000000000E9    -2.613123612005683E1   4.781654673510157E1  -4.409263766388607E1   4.053851846621623E1  -4.248688913730582E1   4.674143863783915E1  -6.613300280269226   1.240463810616080E2  
 3.656000000000000E9    -2.622056119912491E1   4.671961311338500E1  -4.410536307020814E1   3.792642393722238E1  -4.246963841610293E1   4.407257868177647E1  -6.594978586414343   1.236276699545702E2  
 3.657000000000000E9    -2.632301920724618E1   4.558072053948455E1  -4.406293648267013E1   3.516610351302151E1  -4.247793532264781E1   4.142484134995545E1  -6.578653473315359   1.232134718813897E2  
 3.658000000000000E9    -2.642237323871088E1   4.452280827151179E1  -4.406190323770485E1   3.264930940021727E1  -4.247463506315714E1   3.907374584711462E1  -6.562995779506084   1.227859018564476E2  
 3.659000000000000E9    -2.651638814861265E1   4.349182616997457E1  -4.411599746429020E1   3.033642673898630E1  -4.250145353275539E1   3.653657651263689E1  -6.548054175372239   1.223750223239084E2  
 3.660000000000000E9    -2.662016061721621E1   4.257772180663081E1  -4.407907984085846E1   2.766015947297762E1  -4.251439436071465E1   3.388841581349839E1  -6.536924903762818   1.219705181987968E2  
 3.661000000000000E9    -2.671298462060156E1   4.160362570926505E1  -4.405662968464229E1   2.505518944699028E1  -4.255556336193413E1   3.132646829844231E1  -6.522755093578161   1.215618117535605E2  
 3.662000000000000E9    -2.681540473847993E1   4.064842171716710E1  -4.404203753481112E1   2.246655314921706E1  -4.253056487740219E1   2.885481727950084E1  -6.512201070128008   1.211452599641230E2  
 3.663000000000000E9    -2.690661824418879E1   3.973301681957414E1  -4.404081763245555E1   1.981887153929013E1  -4.252229198069968E1   2.629917700761095E1  -6.502993324277375   1.207315413146198E2  
 3.664000000000000E9    -2.700846984564216E1   3.873952472533382E1  -4.403933061014860E1   1.717204810597650E1  -4.253119789470564E1   2.383157257306025E1  -6.494838171180131   1.203180104266165E2  
 3.665000000000000E9    -2.711155811832565E1   3.785654352820568E1  -4.396875822662550E1   1.465623918291126E1  -4.255885871118393E1   2.112093619408193E1  -6.485931195891295   1.199009998933280E2  
 3.666000000000000E9    -2.721564307317418E1   3.692531951256419E1  -4.401780780472299E1   1.200172212649457E1  -4.259007646688812E1   1.856753831754467E1  -6.481568770016840   1.194842706231567E2  
 3.667000000000000E9    -2.731196173709855E1   3.606580580195234E1  -4.400792803381663E1   9.129185360283980  -4.253395348100954E1   1.592536600427755E1  -6.476752210585955   1.190514873407874E2  
 3.668000000000000E9    -2.741049314298262E1   3.518503968604480E1  -4.400427494074119E1   6.493907874050171  -4.252777033085280E1   1.368836827223545E1  -6.471146289226684   1.186256778424317E2  
 3.669000000000000E9    -2.751566726292328E1   3.426908288502580E1  -4.396436355375273E1   3.868004059707918  -4.256168011024649E1   1.128624704689399E1  -6.467501261526579   1.181791648810513E2  
 3.670000000000000E9    -2.762309029159224E1   3.342101785091349E1  -4.394640188178452E1   1.327942839096284  -4.252990562948867E1   8.580084578856850  -6.464503034899665   1.177364426184867E2  
 3.671000000000000E9    -2.772861279757790E1   3.256415064637506E1  -4.397487127779270E1  -1.447698644280782  -4.256961186942608E1   5.842043366983317  -6.461988632261635   1.172652115064782E2  
 3.672000000000000E9    -2.783585346236475E1   3.158993862314817E1  -4.394060910591333E1  -4.258057323977453  -4.243962153130490E1   3.528602815003508  -6.457314907088801   1.167905961006548E2  
 3.673000000000000E9    -2.793673124839983E1   3.075842794965431E1  -4.394478803491708E1  -7.024144753384061  -4.246660556285760E1   7.804762778049410E-1  -6.455747363379734   1.163253167728724E2  
 3.674000000000000E9    -2.804273787459043E1   2.982849304376579E1  -4.394815675488011E1  -9.405170188593145  -4.245542402196016E1  -1.368352562739175  -6.450856317689009   1.158274916877150E2  
 3.675000000000000E9    -2.815424241116705E1   2.899741846020985E1  -4.397377497541028E1  -1.217776638101253E1  -4.245854314223102E1  -4.070518061555013  -6.447609205521319   1.153351415530091E2  
 3.676000000000000E9    -2.826218049181018E1   2.809309719710096E1  -4.396100477706849E1  -1.521904244513603E1  -4.240157180018948E1  -6.641477997461083  -6.444904879018491   1.148392051387808E2  
 3.677000000000000E9    -2.837770092744407E1   2.711327136696581E1  -4.395409021285750E1  -1.759216980927903E1  -4.238189745659354E1  -9.250143368843833  -6.442035453322353   1.143384768117586E2  
 3.678000000000000E9    -2.849238039733460E1   2.621075949872212E1  -4.396625085700691E1  -2.010375069771402E1  -4.231075273811875E1  -1.168120444332206E1  -6.436509329044792   1.138210870719227E2  
 3.679000000000000E9    -2.861169338987735E1   2.526607839567356E1  -4.396621564358357E1  -2.286632849033009E1  -4.233609273644184E1  -1.429574064407706E1  -6.430905605053988   1.133046334539497E2  
 3.680000000000000E9    -2.873142377362705E1   2.424621901017524E1  -4.398337438557593E1  -2.543561776444671E1  -4.227869679909465E1  -1.700070343065269E1  -6.422522366507722   1.127760121313532E2  
 3.681000000000000E9    -2.887056787435524E1   2.327994798614146E1  -4.395442262586852E1  -2.814173014739215E1  -4.222833510561117E1  -1.990052093717493E1  -6.416957396251622   1.122579963606173E2  
 3.682000000000000E9    -2.899393333810272E1   2.216863464661171E1  -4.401903410358062E1  -3.082408460893339E1  -4.220759715392629E1  -2.224400960367469E1  -6.408224653708254   1.117234722628592E2  
 3.683000000000000E9    -2.913019194511972E1   2.117580387407942E1  -4.399898991755985E1  -3.332762062843840E1  -4.216259503505773E1  -2.461777433557064E1  -6.399064105443399   1.112038239257912E2  
 3.684000000000000E9    -2.928266098558823E1   2.000191431338919E1  -4.398010360640534E1  -3.626669949748770E1  -4.207564127528803E1  -2.735860945043585E1  -6.387352525868028   1.106857753153644E2  
 3.685000000000000E9    -2.942920884993724E1   1.894006469167743E1  -4.402990397660024E1  -3.871915085197700E1  -4.203315570316619E1  -3.037534481144291E1  -6.375491242474226   1.101616622494221E2  
 3.686000000000000E9    -2.958432191179575E1   1.777045158032107E1  -4.399966024929908E1  -4.124137170883088E1  -4.200252394333787E1  -3.295252391734078E1  -6.363039862083721   1.096456422427680E2  
 3.687000000000000E9    -2.976224707443474E1   1.657027601837028E1  -4.399537039278032E1  -4.378424832557674E1  -4.190467544197407E1  -3.544527935408799E1  -6.350202402184186   1.091517288114923E2  
 3.688000000000000E9    -2.992447785748191E1   1.529376802620189E1  -4.398216249256195E1  -4.649315106738377E1  -4.190619766331790E1  -3.854234420824565E1  -6.337087790183644   1.086339925174002E2  
 3.689000000000000E9    -3.010886683702183E1   1.405988783830503E1  -4.398808530579077E1  -4.917956403195740E1  -4.191205534389405E1  -4.095932299659190E1  -6.322578053253148   1.081417882361616E2  
 3.690000000000000E9    -3.031504078199432E1   1.283623305889460E1  -4.396875028454762E1  -5.155053321657891E1  -4.183734064072136E1  -4.389876372129308E1  -6.307956322886052   1.076676888919497E2  
 3.691000000000000E9    -3.051361334978191E1   1.151122937438689E1  -4.396104380977625E1  -5.427808737050562E1  -4.178297954581246E1  -4.663168281473946E1  -6.292924106362952   1.071836230781327E2  
 3.692000000000000E9    -3.071828025165032E1   1.021815862777574E1  -4.394673662790449E1  -5.676385218789294E1  -4.173598738319564E1  -4.910322593458709E1  -6.278057731681939   1.067208257288348E2  
 3.693000000000000E9    -3.096907307362103E1   8.801213044720555  -4.395145982541047E1  -5.941416150131111E1  -4.170326428438404E1  -5.223532576054271E1  -6.262366181377165   1.062747846829067E2  
 3.694000000000000E9    -3.118550363301317E1   7.504813495750531  -4.394972730346684E1  -6.203269487503295E1  -4.165139648256638E1  -5.466584948936696E1  -6.248237425468599   1.058210200357951E2  
 3.695000000000000E9    -3.144315990196439E1   6.114498097011848  -4.394341923783100E1  -6.471325350212496E1  -4.165336437215823E1  -5.781622520929942E1  -6.236474477305819   1.053872504317351E2  
 3.696000000000000E9    -3.170743298181898E1   4.805716948301821  -4.395434544995157E1  -6.697767682383439E1  -4.159979454208741E1  -6.062226066160935E1  -6.222474485463819   1.049552527732578E2  
 3.697000000000000E9    -3.197353669241523E1   3.471555874457629  -4.392329639077823E1  -7.009506224622766E1  -4.149562789170262E1  -6.368696004106217E1  -6.209898325680393   1.045382033662255E2  
 3.698000000000000E9    -3.224780657637483E1   2.056099492710650  -4.389844367327477E1  -7.260904394022019E1  -4.145462912116008E1  -6.632810114056626E1  -6.200952553499657   1.041475586399128E2  
