#  HZ   S   DB   R     50.00 
! Rohde & Schwarz ZVB8 2Ports - Version 3.70 - 1145.1010k08 SN: 100925
! Date: 2017-03-03 16:11:33
! Measurements: S11 S21 S12 S22 
! 
 3.600000000000000E9    -2.491663395217992E1   7.284162779976818E1  -4.240263063181310E1  -6.906537962867508E1  -4.281648371792610E1  -6.803958600407182E1  -2.356769255702610E1   1.121668404013793E2  
 3.601000000000000E9    -2.501479841029606E1   7.343524914089485E1  -4.236975309458037E1  -7.181696977976050E1  -4.280484514996829E1  -7.047384067181008E1  -2.347441837081942E1   1.116496544666480E2  
 3.602000000000000E9    -2.510187202427992E1   7.415830127801829E1  -4.237421239051123E1  -7.450993347290925E1  -4.277569013155338E1  -7.288040359704060E1  -2.338236557671085E1   1.111525195201295E2  
 3.603000000000000E9    -2.518411581283374E1   7.480545998172634E1  -4.233591043038278E1  -7.721877885157291E1  -4.272902993033496E1  -7.553267943734656E1  -2.328009442965412E1   1.106936316584381E2  
 3.604000000000000E9    -2.524767841363179E1   7.552469514156678E1  -4.234633137655118E1  -7.987191038208449E1  -4.270161595919476E1  -7.835695805078500E1  -2.318342597087330E1   1.102063391738361E2  
 3.605000000000000E9    -2.531332478374097E1   7.618896095813345E1  -4.231839257776223E1  -8.279327130561504E1  -4.268141555428686E1  -8.110902459636424E1  -2.307934027085053E1   1.098327468372088E2  
 3.606000000000000E9    -2.535746645561371E1   7.681578861189956E1  -4.232242024709285E1  -8.556663726696858E1  -4.265068334632099E1  -8.352782988635798E1  -2.298164233502372E1   1.094583673942416E2  
 3.607000000000000E9    -2.539466512233270E1   7.743553588599204E1  -4.231074790268745E1  -8.829683450275986E1  -4.259925872598814E1  -8.613157964491292E1  -2.288985349615458E1   1.090725443608166E2  
 3.608000000000000E9    -2.542196607166954E1   7.806905753764366E1  -4.226713388805145E1  -9.118179270681728E1  -4.257785285868638E1  -8.900836107683487E1  -2.279375904434245E1   1.087402888273935E2  
 3.609000000000000E9    -2.544241348261936E1   7.859040710582436E1  -4.226090683130301E1  -9.397554415029384E1  -4.255808154219657E1  -9.176008180707261E1  -2.269610725501265E1   1.084001386398965E2  
 3.610000000000000E9    -2.545255340730951E1   7.905508524895157E1  -4.226187573447267E1  -9.683566818352418E1  -4.254388264506901E1  -9.453588755066784E1  -2.259817093756725E1   1.081108165359848E2  
 3.611000000000000E9    -2.546085266882168E1   7.952953774661081E1  -4.231607441960580E1  -9.958927981735991E1  -4.247080622709348E1  -9.699329718742698E1  -2.251302885605574E1   1.078726370970829E2  
 3.612000000000000E9    -2.545246646772752E1   7.989286772112394E1  -4.226935469268457E1  -1.025815205801803E2  -4.242696378847859E1  -9.996107309297292E1  -2.242966196965749E1   1.076068989566396E2  
 3.613000000000000E9    -2.544787918902657E1   8.022687918729957E1  -4.229628709892695E1  -1.052260490120077E2  -4.241411572326288E1  -1.026246866600975E2  -2.234561008250764E1   1.073580463143848E2  
 3.614000000000000E9    -2.543578499243751E1   8.048407362183338E1  -4.231760333482845E1  -1.081116103010329E2  -4.240082242556119E1  -1.054527583521285E2  -2.226908457975768E1   1.071469796537784E2  
 3.615000000000000E9    -2.541749985665354E1   8.066465270188144E1  -4.237596979440386E1  -1.110291856010756E2  -4.236847697567877E1  -1.079675796678461E2  -2.219858584240775E1   1.069345799743913E2  
 3.616000000000000E9    -2.539429783168951E1   8.082178461088586E1  -4.239184053561220E1  -1.135408820915777E2  -4.230860799811195E1  -1.110252448007890E2  -2.213013019261435E1   1.067158863534510E2  
 3.617000000000000E9    -2.536644773784428E1   8.078097283599215E1  -4.236622932942798E1  -1.164253799634215E2  -4.229236061578634E1  -1.135661298835457E2  -2.206716230847401E1   1.064787624811489E2  
 3.618000000000000E9    -2.534848160655558E1   8.078212093606798E1  -4.240930106694454E1  -1.189747042939745E2  -4.228449671831967E1  -1.163448818139385E2  -2.201278735873584E1   1.062309568447678E2  
 3.619000000000000E9    -2.531819525351109E1   8.066216489201582E1  -4.241822841489547E1  -1.216150344749592E2  -4.226102607175913E1  -1.191194034971023E2  -2.195260501392280E1   1.059751768016633E2  
 3.620000000000000E9    -2.529426939838494E1   8.053239664447754E1  -4.242299524474421E1  -1.243480995316463E2  -4.225884182047123E1  -1.219966458202533E2  -2.190217699138666E1   1.057167262775946E2  
 3.621000000000000E9    -2.525914775143907E1   8.027902399752617E1  -4.246363517312861E1  -1.268390180337093E2  -4.222406058493316E1  -1.250862510034469E2  -2.185663611961145E1   1.054404187197944E2  
 3.622000000000000E9    -2.523682896393189E1   7.996780475921572E1  -4.253024531773855E1  -1.297741900021598E2  -4.222374120050174E1  -1.277484894091224E2  -2.181737693302182E1   1.051209891099403E2  
 3.623000000000000E9    -2.521483958048810E1   7.955111368119049E1  -4.250961273320037E1  -1.323191003589618E2  -4.220273809098779E1  -1.303188465387850E2  -2.177149228702475E1   1.048038150629450E2  
 3.624000000000000E9    -2.519187413624845E1   7.913619528950258E1  -4.251021903569395E1  -1.346249044306769E2  -4.219253893816707E1  -1.333179596147390E2  -2.173451162574157E1   1.044553959243072E2  
 3.625000000000000E9    -2.517763705002005E1   7.864184481589680E1  -4.255024025025301E1  -1.375758745620434E2  -4.215662990224706E1  -1.360416363475912E2  -2.169977775842886E1   1.040539559193046E2  
 3.626000000000000E9    -2.515207685376160E1   7.806009086625443E1  -4.255019023793338E1  -1.398048590875130E2  -4.219145624176623E1  -1.389281037204939E2  -2.166152623125215E1   1.036852450297658E2  
 3.627000000000000E9    -2.514551672706790E1   7.750815295514266E1  -4.253529468997648E1  -1.425094251250002E2  -4.214966474468530E1  -1.418688248587463E2  -2.162551502848844E1   1.032222637402104E2  
 3.628000000000000E9    -2.513476193963282E1   7.674943692441785E1  -4.253454805166644E1  -1.452278078485794E2  -4.217513640551950E1  -1.445357290648094E2  -2.159033275755261E1   1.027888216383920E2  
 3.629000000000000E9    -2.513344214801686E1   7.604420293913015E1  -4.254457072264007E1  -1.474327799931885E2  -4.216172747968184E1  -1.473913615225966E2  -2.155149028106463E1   1.022780002664005E2  
 3.630000000000000E9    -2.513398056225240E1   7.525041760393205E1  -4.253324204841687E1  -1.502708286120228E2  -4.210183922342250E1  -1.502148558809469E2  -2.150988655926704E1   1.018107816358523E2  
 3.631000000000000E9    -2.513864806517704E1   7.447809196807498E1  -4.251231182170452E1  -1.526723658685388E2  -4.213250473663599E1  -1.529211282692772E2  -2.147079888091610E1   1.012594434592048E2  
 3.632000000000000E9    -2.513818264532693E1   7.360306880989623E1  -4.250388281937574E1  -1.551121297634022E2  -4.212076089670592E1  -1.559486798789878E2  -2.143222345466387E1   1.007065361148814E2  
 3.633000000000000E9    -2.515073431740610E1   7.271566118387308E1  -4.249928697351156E1  -1.578201001041966E2  -4.212434334068535E1  -1.587446283901438E2  -2.138743897825182E1   1.001491805184926E2  
 3.634000000000000E9    -2.516434809364047E1   7.178769141598362E1  -4.247818930090745E1  -1.604104500546043E2  -4.209509711074312E1  -1.613450086901932E2  -2.133652613776852E1   9.954896579077921E1  
 3.635000000000000E9    -2.518049408665277E1   7.083002708392088E1  -4.244361049846127E1  -1.631435787236104E2  -4.212599877314457E1  -1.643626050546172E2  -2.128606655349091E1   9.895273798731056E1  
 3.636000000000000E9    -2.520375245034152E1   6.985308140119355E1  -4.243701455521833E1  -1.655335059733805E2  -4.211919119739432E1  -1.672561712186671E2  -2.122834349060731E1   9.834444687534413E1  
 3.637000000000000E9    -2.523375701142562E1   6.884607498379448E1  -4.240138396198555E1  -1.682696186724369E2  -4.208240439644820E1  -1.702037488253268E2  -2.116767779081362E1   9.772964428624732E1  
 3.638000000000000E9    -2.526256303678097E1   6.783620897835618E1  -4.239890558746728E1  -1.707372121222060E2  -4.208081129341074E1  -1.728048790974956E2  -2.110077890223390E1   9.713452942695034E1  
 3.639000000000000E9    -2.529550916997982E1   6.673050420111132E1  -4.233752878083823E1  -1.735144633433800E2  -4.211756024708291E1  -1.756794744898485E2  -2.103693478824887E1   9.654935480542829E1  
 3.640000000000000E9    -2.533867345608152E1   6.564398712704103E1  -4.233732790386999E1  -1.764368058963340E2  -4.214946240951008E1  -1.784812335977534E2  -2.096331781745893E1   9.597996378583549E1  
 3.641000000000000E9    -2.538024361051066E1   6.453525795146051E1  -4.229864431551930E1  -1.788948731587545E2  -4.211809595098353E1   1.786243691418458E2  -2.088880635154730E1   9.541239028100763E1  
 3.642000000000000E9    -2.542651631454529E1   6.344136364665494E1  -4.225439975294199E1   1.781778824683046E2  -4.212465262530569E1   1.758459413698681E2  -2.080972895349633E1   9.485927659661451E1  
 3.643000000000000E9    -2.547816399644279E1   6.233089430476472E1  -4.221346694966645E1   1.752324969428723E2  -4.212798730121106E1   1.731562654725656E2  -2.073078654346796E1   9.434060980195199E1  
 3.644000000000000E9    -2.553637119005864E1   6.119898338286843E1  -4.221589508293049E1   1.726271261992451E2  -4.209980295164142E1   1.702017361417153E2  -2.064841268917125E1   9.382944173001671E1  
 3.645000000000000E9    -2.559309272027471E1   6.006818106733795E1  -4.219766787076165E1   1.696949226409601E2  -4.215028750066499E1   1.674212286823884E2  -2.055995126110092E1   9.338338987738325E1  
 3.646000000000000E9    -2.565546219944450E1   5.895521930518824E1  -4.218380029258817E1   1.669713884093962E2  -4.215655856993041E1   1.644748283181345E2  -2.047623915515240E1   9.292590323901656E1  
 3.647000000000000E9    -2.572058155739803E1   5.776958808576693E1  -4.214551415995152E1   1.642275621273039E2  -4.214334858368005E1   1.619781261575992E2  -2.039373729650096E1   9.250227877489655E1  
 3.648000000000000E9    -2.579095645976589E1   5.658282684545215E1  -4.216905052722573E1   1.612831591208126E2  -4.218431198022861E1   1.590820561752642E2  -2.030643948702472E1   9.214638079343897E1  
 3.649000000000000E9    -2.585865156124629E1   5.546576613786918E1  -4.215178990779018E1   1.583738586780230E2  -4.215104251136349E1   1.564210192253781E2  -2.022499796888726E1   9.173309200469952E1  
 3.650000000000000E9    -2.592933229487978E1   5.430665489997720E1  -4.215334617454238E1   1.556464304763650E2  -4.212768829401265E1   1.535422573531529E2  -2.014488809129787E1   9.141305550044926E1  
 3.651000000000000E9    -2.600403848797396E1   5.320654510280851E1  -4.213141227156923E1   1.526628012523980E2  -4.217074063983588E1   1.508198942400601E2  -2.006412010065160E1   9.108249411137471E1  
 3.652000000000000E9    -2.607563960028107E1   5.210701980093796E1  -4.214275371059490E1   1.498914135037788E2  -4.217532940983634E1   1.481681544664812E2  -1.998322771881182E1   9.084603203505262E1  
 3.653000000000000E9    -2.615509951600439E1   5.100219572546597E1  -4.213040109792612E1   1.469233552044537E2  -4.222490730119196E1   1.453493198825762E2  -1.991028750325912E1   9.055114271137765E1  
 3.654000000000000E9    -2.624378393153172E1   4.986580745354288E1  -4.214773749313529E1   1.443701464633290E2  -4.219147848539760E1   1.428801044121883E2  -1.983818565985434E1   9.031844227474871E1  
 3.655000000000000E9    -2.632353506138211E1   4.883700144193078E1  -4.215381670575538E1   1.414513216152067E2  -4.217786567910843E1   1.401579569170849E2  -1.977391351627083E1   9.008120243041992E1  
 3.656000000000000E9    -2.640784712888683E1   4.773092038900422E1  -4.218132880136706E1   1.387270758596170E2  -4.221465539796759E1   1.376065489025748E2  -1.971064186307688E1   8.984883366478705E1  
 3.657000000000000E9    -2.649706800738992E1   4.667612114911410E1  -4.215461653152926E1   1.358230081782544E2  -4.221488816963890E1   1.347728151169423E2  -1.965215760106743E1   8.964178420906767E1  
 3.658000000000000E9    -2.658666019389019E1   4.562513174138159E1  -4.219037391410976E1   1.332076536929126E2  -4.226255678198988E1   1.322371964250841E2  -1.960063855931065E1   8.941389586436145E1  
 3.659000000000000E9    -2.668111817067796E1   4.461321328141163E1  -4.217078750559159E1   1.304977701794717E2  -4.229159665165297E1   1.294924332513123E2  -1.954774679100786E1   8.923256488143900E1  
 3.660000000000000E9    -2.677368637098686E1   4.367583373162619E1  -4.219373511101512E1   1.279180110969456E2  -4.225801211806574E1   1.268826876986608E2  -1.950277157809308E1   8.899116770830642E1  
 3.661000000000000E9    -2.685501343532377E1   4.273635905109089E1  -4.223562695574390E1   1.250075197816592E2  -4.228100533782853E1   1.243250941594598E2  -1.945753242614426E1   8.878446630329165E1  
 3.662000000000000E9    -2.695114365169106E1   4.180681550101394E1  -4.223006951388977E1   1.225870419139236E2  -4.226072722075005E1   1.217778093645170E2  -1.941855554526841E1   8.856081701888562E1  
 3.663000000000000E9    -2.704300784179650E1   4.092017447782823E1  -4.225452212383277E1   1.201166843853747E2  -4.227163267274192E1   1.193729438469784E2  -1.938587387198060E1   8.829962222668593E1  
 3.664000000000000E9    -2.713602181725319E1   3.993181873512689E1  -4.222211138968899E1   1.172944888337812E2  -4.229536979597474E1   1.165533100246524E2  -1.935340998459447E1   8.806375656443809E1  
 3.665000000000000E9    -2.722850100554506E1   3.903495155757089E1  -4.220867696762225E1   1.147134900092867E2  -4.227747827456081E1   1.140502751054163E2  -1.932376738974701E1   8.777721604682787E1  
 3.666000000000000E9    -2.732454465497760E1   3.810140860858623E1  -4.222747444043733E1   1.121235796971514E2  -4.224887558169067E1   1.114210752923885E2  -1.930145336252284E1   8.748215324719043E1  
 3.667000000000000E9    -2.741779695460865E1   3.730258222899875E1  -4.218916292969382E1   1.096521626145617E2  -4.226032721534590E1   1.088176125701178E2  -1.927531874204639E1   8.715495342685590E1  
 3.668000000000000E9    -2.750745403613406E1   3.640260090964735E1  -4.218769173366814E1   1.071668593398718E2  -4.223931600686716E1   1.061910087606993E2  -1.925002779012776E1   8.684153277386282E1  
 3.669000000000000E9    -2.760791215879859E1   3.545679724636349E1  -4.214876280068338E1   1.044340707845531E2  -4.221789320986625E1   1.037606564188020E2  -1.923029223877304E1   8.645815032668622E1  
 3.670000000000000E9    -2.770743444466522E1   3.460823909676648E1  -4.213389429000626E1   1.017320577156093E2  -4.220320169007282E1   1.012608041946373E2  -1.921147604330372E1   8.608848262964271E1  
 3.671000000000000E9    -2.780053377871678E1   3.369193494120076E1  -4.214592834542115E1   9.893563128186840E1  -4.220713275870363E1   9.860976369604087E1  -1.919207205691292E1   8.565938893816868E1  
 3.672000000000000E9    -2.790623778130640E1   3.280759118135173E1  -4.209698814897029E1   9.644782195032303E1  -4.219845728807807E1   9.584685109745598E1  -1.916505739367215E1   8.522812138294886E1  
 3.673000000000000E9    -2.799549744965172E1   3.197084142166637E1  -4.206318233773888E1   9.372396780055314E1  -4.216698491692375E1   9.313407054081161E1  -1.914398447080689E1   8.481379023730145E1  
 3.674000000000000E9    -2.810808653947903E1   3.104132710805762E1  -4.202600710342613E1   9.106762690056395E1  -4.214753193757418E1   9.070380804352659E1  -1.911581829066216E1   8.431141773713163E1  
 3.675000000000000E9    -2.821122698229543E1   3.018787815147966E1  -4.201267078869841E1   8.828710485973055E1  -4.213610929447118E1   8.812472951212396E1  -1.908884060492378E1   8.380316456666422E1  
 3.676000000000000E9    -2.830831258227705E1   2.925572032001819E1  -4.191420654809493E1   8.550111128309993E1  -4.211759389481660E1   8.556718072097107E1  -1.906132737619816E1   8.331190406174798E1  
 3.677000000000000E9    -2.841870197315181E1   2.829093612524671E1  -4.188737003862504E1   8.275065071906685E1  -4.208274998608216E1   8.287958337845144E1  -1.903274530927696E1   8.280525376501680E1  
 3.678000000000000E9    -2.853787980040296E1   2.735054584999922E1  -4.184643438421038E1   8.024526510131176E1  -4.208384095494244E1   8.012221369055212E1  -1.899757159503694E1   8.229439738541774E1  
 3.679000000000000E9    -2.864413935677620E1   2.640048688507610E1  -4.185889511111137E1   7.712713025590377E1  -4.201030816460199E1   7.758730551777133E1  -1.896158828599404E1   8.175822606351613E1  
 3.680000000000000E9    -2.876188983003323E1   2.538820652693637E1  -4.183503462073914E1   7.439341002434797E1  -4.198759740599066E1   7.483290104859447E1  -1.892191177507293E1   8.124370402528705E1  
 3.681000000000000E9    -2.890348629855125E1   2.439826916059682E1  -4.177891207186482E1   7.148229208213277E1  -4.193935109162123E1   7.215917981282274E1  -1.888225960072562E1   8.071569576712435E1  
 3.682000000000000E9    -2.901559321441460E1   2.333889681714721E1  -4.176640272759717E1   6.873862150061673E1  -4.193662901169564E1   6.949238507630949E1  -1.883304631834857E1   8.020095439961179E1  
 3.683000000000000E9    -2.914951453210232E1   2.229335304967536E1  -4.170474605779211E1   6.564020085002363E1  -4.188568911946989E1   6.671404703092485E1  -1.878717964887610E1   7.970043976238156E1  
 3.684000000000000E9    -2.930904685808886E1   2.110934854383700E1  -4.171426937120864E1   6.286489765418442E1  -4.184271056486337E1   6.385091618258507E1  -1.873447046166499E1   7.921367071449370E1  
 3.685000000000000E9    -2.944701176476039E1   2.001972373679605E1  -4.166494626951725E1   5.965900263702226E1  -4.180200883019781E1   6.116656611817715E1  -1.867987827296593E1   7.872715054138406E1  
 3.686000000000000E9    -2.961207281629867E1   1.887120271297189E1  -4.167733700816856E1   5.647005114248097E1  -4.178831953825664E1   5.842214189673553E1  -1.862400393981651E1   7.829691906381383E1  
 3.687000000000000E9    -2.978002084784763E1   1.766957656416852E1  -4.162476653833734E1   5.377632888542659E1  -4.173868155047132E1   5.603295786948085E1  -1.856825879929468E1   7.786368003669347E1  
 3.688000000000000E9    -2.994572515042127E1   1.641421929193664E1  -4.160850666855141E1   5.073691772304751E1  -4.167402287296169E1   5.295665749058743E1  -1.851362081634232E1   7.743885643875602E1  
 3.689000000000000E9    -3.012458887644184E1   1.519429514810256E1  -4.162671599462175E1   4.774042726166294E1  -4.167165103796673E1   5.012135137676487E1  -1.844976160987815E1   7.705649817392758E1  
 3.690000000000000E9    -3.033703441547289E1   1.395243545592464E1  -4.165476602948782E1   4.474373290496907E1  -4.159593198898239E1   4.736334619438786E1  -1.839574857327808E1   7.670350683914046E1  
 3.691000000000000E9    -3.054163615753139E1   1.266572398586641E1  -4.161070611304466E1   4.158293588567078E1  -4.155666977027120E1   4.471479280774387E1  -1.834154794374492E1   7.636685097213383E1  
 3.692000000000000E9    -3.074989951123713E1   1.140245536563985E1  -4.165097398184990E1   3.878551778709333E1  -4.150900295494817E1   4.162552722895342E1  -1.828145199414313E1   7.606377019185693E1  
 3.693000000000000E9    -3.099272995119019E1   1.004969684363837E1  -4.165144155330603E1   3.587689995800175E1  -4.144575951179794E1   3.857408577105228E1  -1.822944623855246E1   7.576454720554182E1  
 3.694000000000000E9    -3.122326126255934E1   8.839150428945937  -4.166363116018195E1   3.281676311456791E1  -4.144108390524192E1   3.584251720909955E1  -1.817686089011977E1   7.549190490890798E1  
 3.695000000000000E9    -3.149071489187705E1   7.521158283231365  -4.170753412561086E1   2.973960433343227E1  -4.140416907707903E1   3.303381289443959E1  -1.812803025363000E1   7.523593159560915E1  
 3.696000000000000E9    -3.174555867389977E1   6.287185763410579  -4.170845745645011E1   2.694921391070687E1  -4.137202255283662E1   3.012307017219668E1  -1.808282776243949E1   7.501107470724422E1  
 3.697000000000000E9    -3.202537789801018E1   4.921985348453012  -4.172982297938415E1   2.406778959008627E1  -4.133499202558836E1   2.732506275344527E1  -1.803883685822865E1   7.480216884833273E1  
