#  HZ   S   DB   R     50.00 
! Rohde & Schwarz ZVB8 2Ports - Version 3.70 - 1145.1010k08 SN: 100925
! Date: 2017-03-03 16:12:54
! Measurements: S11 S21 S12 S22 
! 
 3.600000000000000E9    -2.565179988695591E1   7.841735403977756E1  -4.328147726880018E1   4.637511023091039E1  -4.366313786151795E1   4.585124735663452E1  -2.494451434816342E1   7.157819344644273E1  
 3.601000000000000E9    -2.571105458450670E1   7.941747983836164E1  -4.321081416600016E1   4.369257264994450E1  -4.362985714999901E1   4.317727073423345E1  -2.484536343154650E1   7.159614937203628E1  
 3.602000000000000E9    -2.574958210742289E1   8.040861677524394E1  -4.316676747688378E1   4.082754029835326E1  -4.354051376314356E1   4.037333541994881E1  -2.474527469387061E1   7.165166808611775E1  
 3.603000000000000E9    -2.577662252774551E1   8.134122825979708E1  -4.314625258752222E1   3.816447632114689E1  -4.351192648728324E1   3.771224161505697E1  -2.464060364464694E1   7.176399679554186E1  
 3.604000000000000E9    -2.578897674381353E1   8.232844799458977E1  -4.309595954049989E1   3.539895698942885E1  -4.348304326438227E1   3.525765071992044E1  -2.453653687343967E1   7.181184850725749E1  
 3.605000000000000E9    -2.580082245195215E1   8.323225387076701E1  -4.297701013569942E1   3.203514527424175E1  -4.337574660296509E1   3.212786486667592E1  -2.444669326128603E1   7.191314974211520E1  
 3.606000000000000E9    -2.578611918963441E1   8.411431138111280E1  -4.298106978655392E1   2.933352414419653E1  -4.333774911595119E1   2.940974797956078E1  -2.435296239390013E1   7.206672450186642E1  
 3.607000000000000E9    -2.575727830061461E1   8.491350004399871E1  -4.290952516249332E1   2.680578932846081E1  -4.325405761558784E1   2.673608813074331E1  -2.426055837349485E1   7.219171154520041E1  
 3.608000000000000E9    -2.572001610190723E1   8.562643473503017E1  -4.292046554720353E1   2.381913613712073E1  -4.320508762902310E1   2.385663570495834E1  -2.416982827409534E1   7.229619969816677E1  
 3.609000000000000E9    -2.567675061622952E1   8.628013302043159E1  -4.282884385386139E1   2.072358980671086E1  -4.313501904644407E1   2.113260033717364E1  -2.408215753890863E1   7.250235889328435E1  
 3.610000000000000E9    -2.562022996914236E1   8.688015594970183E1  -4.282744990742759E1   1.779461218343107E1  -4.311539238718188E1   1.836499224827243E1  -2.399611428148568E1   7.265809432047759E1  
 3.611000000000000E9    -2.555867055665817E1   8.740073978675700E1  -4.279280790444663E1   1.479667037886300E1  -4.307489643719064E1   1.521076546404967E1  -2.392003949890617E1   7.279914542840584E1  
 3.612000000000000E9    -2.549076931083131E1   8.778412437928796E1  -4.277440156937286E1   1.194446853321222E1  -4.303957623274170E1   1.234990332825449E1  -2.384774251704418E1   7.298970034871081E1  
 3.613000000000000E9    -2.542436597307374E1   8.808575332561382E1  -4.273071996040749E1   8.557255014101587  -4.292429231274397E1   9.777655375087933  -2.378025601675926E1   7.319361710671026E1  
 3.614000000000000E9    -2.534956827555914E1   8.830736832351740E1  -4.271467001695471E1   5.760827733529450  -4.288679468747053E1   6.524737483757600  -2.371412423721316E1   7.334826867783080E1  
 3.615000000000000E9    -2.526825319367650E1   8.845028784443036E1  -4.272516218798612E1   3.044293740666760  -4.280825977933458E1   3.801585245716064  -2.365705250025664E1   7.343292031974507E1  
 3.616000000000000E9    -2.518764284557668E1   8.854102073630176E1  -4.270181401130847E1  -2.049851183953605E-1  -4.279898847414822E1   7.866993689035372E-1  -2.359780617726281E1   7.355946934969640E1  
 3.617000000000000E9    -2.510808288977882E1   8.848750454414947E1  -4.266688754134486E1  -3.253899292581580  -4.269382033298099E1  -2.603806001522828  -2.353941831608378E1   7.360749214158223E1  
 3.618000000000000E9    -2.503226430768907E1   8.832687295401262E1  -4.272754237242767E1  -6.358075095251128  -4.267210967002112E1  -5.178889080145117  -2.349484571916076E1   7.367763841106437E1  
 3.619000000000000E9    -2.494762650720298E1   8.812615682752954E1  -4.267611381553852E1  -9.058725652594472  -4.264700086624563E1  -8.193133072825688  -2.344899034204046E1   7.371748020190751E1  
 3.620000000000000E9    -2.487802828359956E1   8.782159789317475E1  -4.269991133935091E1  -1.182929160155731E1  -4.257916127693113E1  -1.136513489542864E1  -2.340044747814313E1   7.372372301060312E1  
 3.621000000000000E9    -2.479214537070107E1   8.744447631727428E1  -4.268735821501115E1  -1.466051182183594E1  -4.251397655805154E1  -1.425702213870948E1  -2.335744326563212E1   7.365334164612608E1  
 3.622000000000000E9    -2.473048570756447E1   8.695797892043392E1  -4.266077914227923E1  -1.744393855702225E1  -4.249053978683531E1  -1.729287674133358E1  -2.331832332953050E1   7.357417806296593E1  
 3.623000000000000E9    -2.465797177480570E1   8.642952963034841E1  -4.267359033837904E1  -2.053497938363060E1  -4.248147030875997E1  -2.025177686621467E1  -2.328117189001686E1   7.347733046915519E1  
 3.624000000000000E9    -2.459601893106083E1   8.579894283290329E1  -4.264351571685551E1  -2.330308996160016E1  -4.244658626695357E1  -2.336103819176168E1  -2.324302713594728E1   7.331952165853330E1  
 3.625000000000000E9    -2.454198803077485E1   8.514085936008752E1  -4.265697161158665E1  -2.619117040435188E1  -4.241458760945363E1  -2.653749291654091E1  -2.320076785833098E1   7.316290483933408E1  
 3.626000000000000E9    -2.447930941078421E1   8.441464127651248E1  -4.265204953188961E1  -2.886554995489350E1  -4.239096924166510E1  -2.969024254654511E1  -2.315576718792667E1   7.294529092604788E1  
 3.627000000000000E9    -2.443480999671252E1   8.362132698709601E1  -4.262592765170768E1  -3.159101398718730E1  -4.234514205603090E1  -3.258088191403062E1  -2.311195334540251E1   7.268627058222093E1  
 3.628000000000000E9    -2.439144778818202E1   8.270907763012090E1  -4.264384538583319E1  -3.460468993592374E1  -4.232030350148907E1  -3.572034862125869E1  -2.306323125873822E1   7.243655234742850E1  
 3.629000000000000E9    -2.434765774348174E1   8.181064016457906E1  -4.259063996242439E1  -3.759963439633269E1  -4.230291395245988E1  -3.892387076594516E1  -2.301500444631896E1   7.209705395975068E1  
 3.630000000000000E9    -2.431201365119675E1   8.083339520130006E1  -4.254484578637191E1  -4.005692940072382E1  -4.228903579122649E1  -4.210287952537251E1  -2.296758759825592E1   7.183893170148075E1  
 3.631000000000000E9    -2.429274767348782E1   7.986928048193225E1  -4.255943166101542E1  -4.308484318982458E1  -4.226907126062149E1  -4.509895988009758E1  -2.290759142567527E1   7.145809008160879E1  
 3.632000000000000E9    -2.426770729176230E1   7.877094875577865E1  -4.249819414385387E1  -4.592325829214460E1  -4.222918479964708E1  -4.816142567973201E1  -2.284974821972775E1   7.108952222260810E1  
 3.633000000000000E9    -2.425120855088283E1   7.770170873961980E1  -4.250152441137215E1  -4.878127533420163E1  -4.227599784361889E1  -5.157996123479045E1  -2.278338271350387E1   7.077379397412354E1  
 3.634000000000000E9    -2.423614420732332E1   7.654779325446006E1  -4.247360800435548E1  -5.177883716033795E1  -4.224637535777908E1  -5.449918971390480E1  -2.271995174235264E1   7.035402835304380E1  
 3.635000000000000E9    -2.422208030853111E1   7.537426235085052E1  -4.242618399720011E1  -5.467012309226740E1  -4.221796671077689E1  -5.762384741104291E1  -2.264601309777871E1   6.999822237038451E1  
 3.636000000000000E9    -2.422163017964246E1   7.417574747642713E1  -4.240018432317955E1  -5.745511519675448E1  -4.222139608189244E1  -6.082587189628420E1  -2.256996756779057E1   6.964829645045560E1  
 3.637000000000000E9    -2.422783544529466E1   7.295019027682663E1  -4.235327380689859E1  -6.050115213783485E1  -4.219285539351486E1  -6.398652013769825E1  -2.248951570688704E1   6.925492562150575E1  
 3.638000000000000E9    -2.423841179636251E1   7.173093332268951E1  -4.230385876178742E1  -6.373154895658868E1  -4.220021026070496E1  -6.706212452617828E1  -2.240126116085548E1   6.890515769917184E1  
 3.639000000000000E9    -2.425112974821271E1   7.039495581653671E1  -4.231735591334649E1  -6.656374842960211E1  -4.219883332789624E1  -7.023589379916847E1  -2.231661447457207E1   6.859251266552610E1  
 3.640000000000000E9    -2.426971886638046E1   6.909868237955173E1  -4.229153593069947E1  -6.954141575011389E1  -4.220487677852525E1  -7.346877066690621E1  -2.222435006486510E1   6.827754227603184E1  
 3.641000000000000E9    -2.429465833887576E1   6.778409683439394E1  -4.226529428789653E1  -7.282146129700344E1  -4.223785819758392E1  -7.666296274509642E1  -2.213473016690040E1   6.802040503826319E1  
 3.642000000000000E9    -2.432395549244574E1   6.643694991633140E1  -4.220394866003212E1  -7.582716898467052E1  -4.225948581650810E1  -7.969708596842047E1  -2.204242861215943E1   6.772629608144311E1  
 3.643000000000000E9    -2.436063597318294E1   6.510188970195148E1  -4.221707392528583E1  -7.894291727577185E1  -4.223368381434199E1  -8.287454026708028E1  -2.195047807341909E1   6.750887603064795E1  
 3.644000000000000E9    -2.440244891517321E1   6.372874799648648E1  -4.220581144494238E1  -8.213646648930545E1  -4.227408225620361E1  -8.594430745463157E1  -2.185600689244136E1   6.730181815483975E1  
 3.645000000000000E9    -2.444465379811128E1   6.233874295847961E1  -4.216016619040541E1  -8.542813618157838E1  -4.227727914393355E1  -8.912079669255627E1  -2.175667391172756E1   6.717199080259506E1  
 3.646000000000000E9    -2.449656635438408E1   6.097694113475480E1  -4.215690347822742E1  -8.828589543309148E1  -4.229989784354308E1  -9.218188374728241E1  -2.166720884398172E1   6.702263439911997E1  
 3.647000000000000E9    -2.455041474008494E1   5.957204171616368E1  -4.217808776760299E1  -9.163387214133419E1  -4.227945559146605E1  -9.542395307158456E1  -2.157327140237371E1   6.689319522349543E1  
 3.648000000000000E9    -2.460681310324492E1   5.819818039554278E1  -4.217108177356996E1  -9.500237984039046E1  -4.234109911850450E1  -9.842775851606541E1  -2.148623257686473E1   6.679079458264640E1  
 3.649000000000000E9    -2.467362115442904E1   5.678509483126511E1  -4.213699543145067E1  -9.802251013840801E1  -4.237270286135108E1  -1.011425275864252E2  -2.139969317795316E1   6.669110957703951E1  
 3.650000000000000E9    -2.473485928218584E1   5.539942035564221E1  -4.219240444332001E1  -1.011953561874343E2  -4.242631351776311E1  -1.042991440406411E2  -2.131867238797921E1   6.665164943719485E1  
 3.651000000000000E9    -2.480408404134464E1   5.404019710375097E1  -4.217890226036995E1  -1.044176653456700E2  -4.242654948007431E1  -1.076209292358004E2  -2.123480106267844E1   6.661292126909549E1  
 3.652000000000000E9    -2.487017761460527E1   5.267260620341216E1  -4.223171062701830E1  -1.074190770576117E2  -4.244650415548407E1  -1.105784604511568E2  -2.115795978014366E1   6.659573396307933E1  
 3.653000000000000E9    -2.494038538589794E1   5.127822464660996E1  -4.227251540039013E1  -1.106520208639639E2  -4.249128848660543E1  -1.135912618761059E2  -2.108881084977928E1   6.656948381981782E1  
 3.654000000000000E9    -2.502379927627426E1   4.993107392113020E1  -4.229268675146204E1  -1.138575114575558E2  -4.253442492454148E1  -1.164419399107436E2  -2.102466656446812E1   6.657659425975828E1  
 3.655000000000000E9    -2.510706288847156E1   4.860053947541178E1  -4.235501545303077E1  -1.171830382426751E2  -4.256474277118884E1  -1.197751339232716E2  -2.096082381258660E1   6.655451051642673E1  
 3.656000000000000E9    -2.519985253396212E1   4.725216533939606E1  -4.242450668519204E1  -1.202075528535780E2  -4.261769595154480E1  -1.224777745551270E2  -2.090314309418800E1   6.659718721310213E1  
 3.657000000000000E9    -2.529881546554539E1   4.592652502155729E1  -4.248281431844722E1  -1.228770472996863E2  -4.268291636860172E1  -1.256011567486807E2  -2.085118192039886E1   6.655248723054390E1  
 3.658000000000000E9    -2.539430348215376E1   4.465080177178199E1  -4.253037819282165E1  -1.261345702348514E2  -4.273383768409723E1  -1.284002810633228E2  -2.080511532691511E1   6.651548529753808E1  
 3.659000000000000E9    -2.548051840887131E1   4.338762767359538E1  -4.258766516928069E1  -1.289805354014983E2  -4.279957180607187E1  -1.312116167069559E2  -2.075356128532427E1   6.652686126601037E1  
 3.660000000000000E9    -2.559099987406860E1   4.220671401213031E1  -4.264784878018113E1  -1.323353052222524E2  -4.281261587426823E1  -1.340391343068505E2  -2.072093524356884E1   6.646107464699466E1  
 3.661000000000000E9    -2.567907618317578E1   4.099142570244148E1  -4.265533261495783E1  -1.350837847403609E2  -4.285528053375550E1  -1.367900366750039E2  -2.067885880643199E1   6.643206664133410E1  
 3.662000000000000E9    -2.578223281450060E1   3.986804531971490E1  -4.273502944498509E1  -1.377276803781300E2  -4.291299027861952E1  -1.397971645006367E2  -2.065152249721731E1   6.636016047850529E1  
 3.663000000000000E9    -2.588332992727806E1   3.868250009670844E1  -4.282787023438052E1  -1.407208949288720E2  -4.294727838776736E1  -1.423926670056730E2  -2.062109807439869E1   6.624182814006741E1  
 3.664000000000000E9    -2.598943287645156E1   3.746186245927143E1  -4.283257634737371E1  -1.436058723206401E2  -4.301632350906395E1  -1.450624501848381E2  -2.058844448920663E1   6.612511197364782E1  
 3.665000000000000E9    -2.609209748177495E1   3.635556089660958E1  -4.289147901492054E1  -1.462395850392794E2  -4.306574458509054E1  -1.480164235918757E2  -2.056583071005501E1   6.597098115748122E1  
 3.666000000000000E9    -2.620883515348254E1   3.518162470960897E1  -4.295585667610904E1  -1.489873139513258E2  -4.310911302170124E1  -1.509534866649559E2  -2.054071667364439E1   6.579102084521959E1  
 3.667000000000000E9    -2.631976670729328E1   3.415370299712102E1  -4.297681634507829E1  -1.515702576299562E2  -4.317648078698802E1  -1.536132078484375E2  -2.051977824759991E1   6.557431579758391E1  
 3.668000000000000E9    -2.643019613210335E1   3.305429896780394E1  -4.304882351505700E1  -1.543655527957663E2  -4.318926017977836E1  -1.563913929494709E2  -2.049210792500446E1   6.538897885174956E1  
 3.669000000000000E9    -2.654408734505577E1   3.191302977679694E1  -4.305188781686967E1  -1.571311245866444E2  -4.327153859186883E1  -1.588270414005141E2  -2.047004242492035E1   6.510510369035950E1  
 3.670000000000000E9    -2.665987972219280E1   3.082793996291841E1  -4.312710624333533E1  -1.598693610842212E2  -4.332587151171261E1  -1.617475047911562E2  -2.044669581686213E1   6.482874889954120E1  
 3.671000000000000E9    -2.678045158493847E1   2.976016169783737E1  -4.315985977904909E1  -1.626996977275466E2  -4.335783661286295E1  -1.640798122003116E2  -2.041981540723842E1   6.449696401125297E1  
 3.672000000000000E9    -2.690053086117241E1   2.861016879832933E1  -4.317822186064569E1  -1.648703448386941E2  -4.341091339933612E1  -1.668123176036933E2  -2.038782825349381E1   6.420048503743674E1  
 3.673000000000000E9    -2.701269472903793E1   2.765442803118355E1  -4.323503046175249E1  -1.678565366676019E2  -4.345288893240382E1  -1.693707825697813E2  -2.036158672123133E1   6.384902540652269E1  
 3.674000000000000E9    -2.713835583012714E1   2.653866797041449E1  -4.326055775950702E1  -1.703345942103083E2  -4.351820127679752E1  -1.720207189153229E2  -2.032570608322950E1   6.346878626137197E1  
 3.675000000000000E9    -2.726693720045872E1   2.550376066505358E1  -4.325484097995700E1  -1.729550796313527E2  -4.354555534130639E1  -1.745707983362699E2  -2.028961355198806E1   6.307315632274253E1  
 3.676000000000000E9    -2.738559406005837E1   2.447913865660848E1  -4.330128909663389E1  -1.755404539752772E2  -4.356322824273700E1  -1.772549900887669E2  -2.025398810467017E1   6.269074603064921E1  
 3.677000000000000E9    -2.751269255358465E1   2.336497529567948E1  -4.332981862603931E1  -1.782626624221808E2  -4.359457853904488E1  -1.794805729793792E2  -2.021097330957316E1   6.227768625642310E1  
 3.678000000000000E9    -2.764418088504145E1   2.226493654535649E1  -4.333587767464339E1   1.791324409752977E2  -4.365515106468695E1   1.778007535407528E2  -2.016648743349917E1   6.189140907741225E1  
 3.679000000000000E9    -2.777623648780682E1   2.120652388321970E1  -4.334336163317968E1   1.761871302546510E2  -4.366576142432501E1   1.752012651729659E2  -2.011665229724903E1   6.151189080092084E1  
 3.680000000000000E9    -2.790895679299934E1   2.005889765466706E1  -4.335662622559648E1   1.737308481111595E2  -4.365778538005355E1   1.729393733428732E2  -2.006541584068159E1   6.113009828649980E1  
 3.681000000000000E9    -2.805621261765480E1   1.894001998361643E1  -4.338716421333719E1   1.712201267725560E2  -4.369378088894160E1   1.705855916303521E2  -2.001079620997560E1   6.072748668786206E1  
 3.682000000000000E9    -2.818822099059518E1   1.775887573162129E1  -4.338948356743055E1   1.682627424087546E2  -4.373613394929972E1   1.678564090841198E2  -1.995184326067432E1   6.034962792130828E1  
 3.683000000000000E9    -2.834135509659289E1   1.661709738295141E1  -4.339490891191893E1   1.657579419121752E2  -4.373358000543071E1   1.655482041402179E2  -1.989280934323274E1   6.001191618153320E1  
 3.684000000000000E9    -2.849799198487925E1   1.531428143421999E1  -4.344686751172240E1   1.628520765040892E2  -4.372834311711567E1   1.631888690877846E2  -1.983159619242982E1   5.966525986186283E1  
 3.685000000000000E9    -2.865106318806895E1   1.411020096535587E1  -4.346009933776589E1   1.601667831139311E2  -4.375730696844094E1   1.607773399931141E2  -1.976452542025242E1   5.935661271972780E1  
 3.686000000000000E9    -2.881241599722546E1   1.290318546642111E1  -4.345894783958639E1   1.575200061092212E2  -4.374301066011530E1   1.582407901822875E2  -1.969991186558771E1   5.905227844341823E1  
 3.687000000000000E9    -2.898878640101023E1   1.155250839710530E1  -4.348536686184290E1   1.548991519872773E2  -4.377766076001035E1   1.556329718779116E2  -1.963688533045054E1   5.880849715824626E1  
 3.688000000000000E9    -2.915414995975761E1   1.021579756377718E1  -4.350117664418544E1   1.523492276423015E2  -4.373545151328351E1   1.536501048198177E2  -1.957213457755520E1   5.854610704131977E1  
 3.689000000000000E9    -2.933256294561325E1   8.830559319035926  -4.351452048228882E1   1.496700716435379E2  -4.370310765398880E1   1.510856221940897E2  -1.950787355057384E1   5.832015467494841E1  
 3.690000000000000E9    -2.953964983994172E1   7.454419861050625  -4.349559572139065E1   1.470713246497896E2  -4.368320393349564E1   1.486947489560849E2  -1.944569935471518E1   5.814100104948260E1  
 3.691000000000000E9    -2.973436307524948E1   6.013546965721386  -4.353213303185654E1   1.443088754312064E2  -4.364372317762372E1   1.462130423654948E2  -1.938864209607923E1   5.795180419677229E1  
 3.692000000000000E9    -2.992789902795142E1   4.531352184279732  -4.355162742570752E1   1.418984883207168E2  -4.361170530235075E1   1.436292975523049E2  -1.932858180903657E1   5.781621842815022E1  
 3.693000000000000E9    -3.016890819274276E1   2.976454242043288  -4.353777629788822E1   1.390146023465802E2  -4.360354975320468E1   1.410185554115393E2  -1.927020915610476E1   5.766135925788371E1  
 3.694000000000000E9    -3.038018035472098E1   1.545997533145730  -4.356296455786300E1   1.365893675910297E2  -4.356816964622476E1   1.389123757586215E2  -1.921910468871964E1   5.754630284014499E1  
 3.695000000000000E9    -3.062345191358730E1  -4.680686909150483E-2  -4.361626067159271E1   1.340161322056764E2  -4.346127210509217E1   1.364644562346211E2  -1.917287188075911E1   5.743005755256766E1  
 3.696000000000000E9    -3.087099242347003E1  -1.632508282081955  -4.361199086939109E1   1.315012551575904E2  -4.344792942227041E1   1.338590290400937E2  -1.912634446938623E1   5.733861615727466E1  
 3.697000000000000E9    -3.112916793311870E1  -3.209139500935171  -4.360261920451302E1   1.286829443508083E2  -4.336223097536139E1   1.311260195129090E2  -1.908458156001403E1   5.723079663834310E1  
