#  HZ   S   DB   R     50.00 
! Rohde & Schwarz ZVB8 2Ports - Version 3.70 - 1145.1010k08 SN: 100925
! Date: 2017-03-03 16:14:19
! Measurements: S11 S21 S12 S22 
! 
 3.600000000000000E9    -2.517069506144106E1   7.163580917067836E1  -5.354559318148272E1  -1.123664426661886E2  -5.285264201287406E1  -8.459786556441352E1  -1.986759409211878   1.680177308852642E2  
 3.601000000000000E9    -2.528425766908111E1   7.234039347144129E1  -5.348470522158979E1  -1.164452684393540E2  -5.265844486068664E1  -8.716798167657518E1  -1.954753858254572   1.676384866866116E2  
 3.602000000000000E9    -2.538090051692258E1   7.306597346458278E1  -5.346987610409579E1  -1.184170373477674E2  -5.265253374337533E1  -8.960521680494061E1  -1.923295546835299   1.672655002293090E2  
 3.603000000000000E9    -2.547694365190394E1   7.377998089596721E1  -5.350179374363435E1  -1.223804510490901E2  -5.257705132808595E1  -9.312469518927190E1  -1.890401897966840   1.668840282836414E2  
 3.604000000000000E9    -2.555010626383282E1   7.454964651206183E1  -5.346248114670280E1  -1.247784648696290E2  -5.255106895409497E1  -9.532095804005523E1  -1.857995822081428   1.665057098324764E2  
 3.605000000000000E9    -2.563189361579180E1   7.527618460254041E1  -5.368313771866851E1  -1.278043692722528E2  -5.233463217694450E1  -9.859687927448242E1  -1.826491507547840   1.661427805169890E2  
 3.606000000000000E9    -2.568941521905194E1   7.601726998369917E1  -5.364881551147953E1  -1.313057525170650E2  -5.232788119051084E1  -1.006742334143257E2  -1.794478586395650   1.657694465709846E2  
 3.607000000000000E9    -2.573294425926310E1   7.670001583495802E1  -5.372605573594861E1  -1.333512059787823E2  -5.236152807249042E1  -1.044713920933146E2  -1.759787240548089   1.653946106961222E2  
 3.608000000000000E9    -2.576614862784758E1   7.745174735165645E1  -5.377515959807410E1  -1.367522465403754E2  -5.219684213209682E1  -1.059624280018483E2  -1.726608928097710   1.650193059063226E2  
 3.609000000000000E9    -2.579769002146212E1   7.800251519565232E1  -5.378804067230537E1  -1.391787096174923E2  -5.222450085036773E1  -1.092827235845492E2  -1.693048674856688   1.646472091490571E2  
 3.610000000000000E9    -2.581395704234641E1   7.863108609628868E1  -5.392540984004035E1  -1.416967713167875E2  -5.205690096686351E1  -1.137828878999467E2  -1.661170436571549   1.642863203332006E2  
 3.611000000000000E9    -2.581922169049070E1   7.921521796004993E1  -5.382008322107173E1  -1.450107350230237E2  -5.210301452112535E1  -1.159778292984174E2  -1.628513208767016   1.639391160745350E2  
 3.612000000000000E9    -2.581438925847735E1   7.970533338817504E1  -5.379055331311839E1  -1.469798970644585E2  -5.197266527791121E1  -1.189796390125662E2  -1.595987170409803   1.635807650426354E2  
 3.613000000000000E9    -2.580692054661471E1   8.012429318436421E1  -5.389848511051763E1  -1.504197984024799E2  -5.194861743669357E1  -1.215209827961385E2  -1.562781883070588   1.632306255984472E2  
 3.614000000000000E9    -2.580185645207609E1   8.047657814414887E1  -5.389903164988233E1  -1.527534265369135E2  -5.183007806389963E1  -1.256016867742064E2  -1.531119187075289   1.628724000524699E2  
 3.615000000000000E9    -2.577951070816291E1   8.076477409268031E1  -5.379135372247178E1  -1.560880908498829E2  -5.167264151618065E1  -1.280120048882780E2  -1.501219902679605   1.625251346783368E2  
 3.616000000000000E9    -2.575190243635438E1   8.106157950582919E1  -5.381228143939288E1  -1.581163249686993E2  -5.178971819533413E1  -1.317429432463332E2  -1.471597028751183   1.621893324377801E2  
 3.617000000000000E9    -2.572486705693352E1   8.112990792364137E1  -5.384068333301342E1  -1.614535455371142E2  -5.168508379413400E1  -1.342448900731039E2  -1.440364278416334   1.618326177548136E2  
 3.618000000000000E9    -2.569642450932034E1   8.121344391944112E1  -5.379538635159066E1  -1.645795522633786E2  -5.157361410775652E1  -1.368181063863671E2  -1.410588880225707   1.614688798797279E2  
 3.619000000000000E9    -2.566842485064885E1   8.122773208935276E1  -5.387787645887906E1  -1.661476157460298E2  -5.136226813889081E1  -1.410168205490860E2  -1.379602343378648   1.611153210709904E2  
 3.620000000000000E9    -2.563362818443783E1   8.114263190044079E1  -5.368757641577674E1  -1.692939520526480E2  -5.138993350228861E1  -1.437311184424572E2  -1.350705473650704   1.607655495298697E2  
 3.621000000000000E9    -2.559026303084290E1   8.101661303385608E1  -5.370007899355299E1  -1.722804247315166E2  -5.135462899406122E1  -1.467899772603907E2  -1.322208688856583   1.604098196355136E2  
 3.622000000000000E9    -2.555576028163886E1   8.074461308375459E1  -5.370509810683832E1  -1.754447657440192E2  -5.139462841055671E1  -1.498002461681548E2  -1.293807657587261   1.600543191678722E2  
 3.623000000000000E9    -2.551759478523154E1   8.047979714413752E1  -5.356217011298907E1  -1.780196088778788E2  -5.127964749008177E1  -1.534684850219375E2  -1.265763451383376   1.596913350893426E2  
 3.624000000000000E9    -2.550020931723960E1   8.009653590582529E1  -5.354900110170971E1   1.783148183535895E2  -5.120031066751305E1  -1.558118799135190E2  -1.237818662739750   1.593300222847385E2  
 3.625000000000000E9    -2.547201881982897E1   7.974027182738304E1  -5.345917177970078E1   1.760928554232786E2  -5.126419374813797E1  -1.596639241924037E2  -1.209163364598592   1.589519745552989E2  
 3.626000000000000E9    -2.543360639436156E1   7.926549799906900E1  -5.346453071400501E1   1.727639093354197E2  -5.123097322068319E1  -1.626448902829974E2  -1.181141728211321   1.585715127093220E2  
 3.627000000000000E9    -2.541127600749936E1   7.869109424293177E1  -5.338000318348153E1   1.696210096513424E2  -5.105281300511296E1  -1.670742133751775E2  -1.154424484319908   1.581977463294091E2  
 3.628000000000000E9    -2.538916443215529E1   7.806281404808505E1  -5.335966190154037E1   1.661192013989213E2  -5.103229572818982E1  -1.703965801004123E2  -1.125531998272473   1.577995500642164E2  
 3.629000000000000E9    -2.537292139009756E1   7.742322406591782E1  -5.333552986301300E1   1.639075902966830E2  -5.098914295561469E1  -1.730846870352495E2  -1.095521818637517   1.573963612739277E2  
 3.630000000000000E9    -2.536064816060982E1   7.669378220496870E1  -5.322354069277586E1   1.594212970329713E2  -5.107381471207383E1  -1.760883545712879E2  -1.066279977029249   1.569965690556428E2  
 3.631000000000000E9    -2.535404383777439E1   7.598254466380374E1  -5.320831150936867E1   1.570405756416612E2  -5.088330563916063E1  -1.793489992660904E2  -1.036970226743839   1.565795749953688E2  
 3.632000000000000E9    -2.534417218549706E1   7.518751519052577E1  -5.318485773779036E1   1.540191765756360E2  -5.103579231129228E1   1.773466653825323E2  -1.008478573482740   1.561617059443689E2  
 3.633000000000000E9    -2.533834793264811E1   7.434969507294434E1  -5.322719203888677E1   1.498844956728840E2  -5.090758015793853E1   1.732682831250164E2  -9.774024978811130E-1   1.557409751707799E2  
 3.634000000000000E9    -2.533539974849565E1   7.348299852545829E1  -5.321108599710937E1   1.468744697398433E2  -5.082431617432703E1   1.704176253361999E2  -9.459687981978276E-1   1.552994205705228E2  
 3.635000000000000E9    -2.533540022070789E1   7.257860090882595E1  -5.312963699090203E1   1.433159372973228E2  -5.085846675448941E1   1.667216426507806E2  -9.147426761610022E-1   1.548645577761476E2  
 3.636000000000000E9    -2.534569609141316E1   7.164300595715304E1  -5.328621085315688E1   1.395931221503214E2  -5.083544436483741E1   1.637348829419157E2  -8.835900667947981E-1   1.544121596542582E2  
 3.637000000000000E9    -2.535800078168743E1   7.067901391534826E1  -5.312384771617401E1   1.359589953794716E2  -5.081956122839562E1   1.605736984740165E2  -8.518982454339499E-1   1.539688645212862E2  
 3.638000000000000E9    -2.537585600814655E1   6.972079881401058E1  -5.325587480188994E1   1.334277449589340E2  -5.082051619561835E1   1.575930913018517E2  -8.182290350696100E-1   1.535168154204274E2  
 3.639000000000000E9    -2.538765491222867E1   6.863948347640213E1  -5.333699342020020E1   1.294149776605187E2  -5.079167401160337E1   1.535347895457358E2  -7.839126449531292E-1   1.530606378016561E2  
 3.640000000000000E9    -2.541985461561970E1   6.762461899705922E1  -5.328619183757608E1   1.253980403853347E2  -5.087183392793172E1   1.501612371257501E2  -7.484434312422945E-1   1.525927824372219E2  
 3.641000000000000E9    -2.544574983975975E1   6.656357394943373E1  -5.349245573630478E1   1.231168718988009E2  -5.089524885362273E1   1.475498780553352E2  -7.140536601113917E-1   1.521394702950038E2  
 3.642000000000000E9    -2.547429695948222E1   6.550210288233349E1  -5.339971591134749E1   1.195223727539292E2  -5.071966144260441E1   1.446379989024609E2  -6.791077074550084E-1   1.516815870159574E2  
 3.643000000000000E9    -2.551013421173835E1   6.439707843097388E1  -5.360465350539020E1   1.170453558689430E2  -5.085138278690705E1   1.411088244635300E2  -6.418937233849721E-1   1.512286361989336E2  
 3.644000000000000E9    -2.555332839670604E1   6.332794733844601E1  -5.363229227206996E1   1.134133396670530E2  -5.069737378757767E1   1.379980939087060E2  -6.059012369443059E-1   1.507633604137077E2  
 3.645000000000000E9    -2.559849749674098E1   6.220935645751848E1  -5.367203294893275E1   1.117801141643364E2  -5.084695927508977E1   1.336489293811369E2  -5.696510316119616E-1   1.503085317449240E2  
 3.646000000000000E9    -2.564287751496707E1   6.111655647742676E1  -5.363363604073660E1   1.074543538314610E2  -5.088069225141793E1   1.309314380417618E2  -5.325889717336910E-1   1.498522551546921E2  
 3.647000000000000E9    -2.568805007262586E1   5.995603011616088E1  -5.372114907954990E1   1.046368495680445E2  -5.075502158081191E1   1.270732497128931E2  -4.959143691104931E-1   1.494029670818318E2  
 3.648000000000000E9    -2.573718118428090E1   5.881948408879440E1  -5.388932553023884E1   1.010993367818048E2  -5.077313851326933E1   1.245706601745126E2  -4.585006545840367E-1   1.489576265931968E2  
 3.649000000000000E9    -2.579287370037372E1   5.773738869181263E1  -5.380513298157348E1   9.856854131079061E1  -5.091977742806438E1   1.215591068642036E2  -4.217519780398556E-1   1.485182843126779E2  
 3.650000000000000E9    -2.585331338561994E1   5.661154824546563E1  -5.396783903342742E1   9.596300815479236E1  -5.094097087247435E1   1.170352616768298E2  -3.854198764287652E-1   1.480809020485489E2  
 3.651000000000000E9    -2.591523044038832E1   5.551018200134881E1  -5.395969693568706E1   9.330936975542117E1  -5.083354578440287E1   1.146667836211959E2  -3.474764634019988E-1   1.476352495102032E2  
 3.652000000000000E9    -2.597021014822110E1   5.437552364546988E1  -5.401995961692134E1   8.997785211669226E1  -5.098233855712866E1   1.117848552123154E2  -3.099477149949142E-1   1.472060394207628E2  
 3.653000000000000E9    -2.603044693950944E1   5.327558132569802E1  -5.413266173296088E1   8.770586420704220E1  -5.107713791306665E1   1.090172124708134E2  -2.742476963450218E-1   1.467854544235022E2  
 3.654000000000000E9    -2.609894556430599E1   5.219860251013967E1  -5.418303096122931E1   8.434345629657460E1  -5.104840922004146E1   1.058209074336801E2  -2.393903080867282E-1   1.463671049097174E2  
 3.655000000000000E9    -2.616928182709803E1   5.109676561727765E1  -5.414915516975015E1   8.264387230179570E1  -5.105541620414963E1   1.021672969858465E2  -2.051551645157752E-1   1.459471504486552E2  
 3.656000000000000E9    -2.625158098492554E1   4.999563092147407E1  -5.410062042390938E1   7.873287333993746E1  -5.109012134834825E1   9.988774013777298E1  -1.706840608837682E-1   1.455405702951047E2  
 3.657000000000000E9    -2.633278542137285E1   4.888870589502759E1  -5.409365458037960E1   7.734672455196035E1  -5.100254150685423E1   9.569876019904829E1  -1.366730989266078E-1   1.451246607881974E2  
 3.658000000000000E9    -2.641521267450388E1   4.791163956548660E1  -5.419726183216102E1   7.350894678749290E1  -5.101934133342250E1   9.353980604872433E1  -1.039930263419426E-1   1.447291831457806E2  
 3.659000000000000E9    -2.649973668660387E1   4.697042926290333E1  -5.422386751708317E1   7.154930615779027E1  -5.105004143386641E1   9.159191463353218E1  -7.219926491899589E-2   1.443226733971166E2  
 3.660000000000000E9    -2.657969668415584E1   4.606740532256732E1  -5.419457010091944E1   6.826393303821092E1  -5.119931022930962E1   8.804761558941105E1  -4.073558584277134E-2   1.439159547012105E2  
 3.661000000000000E9    -2.664598783647443E1   4.515009531757029E1  -5.407488647995359E1   6.560085225287544E1  -5.115872340202581E1   8.497434293914547E1  -8.146795732088662E-3   1.435125718580783E2  
 3.662000000000000E9    -2.671596342184209E1   4.425154576405411E1  -5.409548749011087E1   6.274544528152273E1  -5.115238682198235E1   8.088781982693330E1   2.169370901860945E-2   1.430993709514918E2  
 3.663000000000000E9    -2.678337926263061E1   4.330088353452273E1  -5.422674613129280E1   5.984324958340319E1  -5.124137433827769E1   7.913667350482906E1   5.162348665267078E-2   1.426889939641385E2  
 3.664000000000000E9    -2.685702122661766E1   4.231437804704419E1  -5.410435314263314E1   5.682581574222573E1  -5.124236434054806E1   7.579753135521740E1   7.962257085508109E-2   1.422908613068292E2  
 3.665000000000000E9    -2.693221244927578E1   4.141622276575657E1  -5.410237445169332E1   5.261480061142295E1  -5.120892841449874E1   7.362634256459327E1   1.101779841829447E-1   1.418774334926721E2  
 3.666000000000000E9    -2.701047483538960E1   4.042865519342751E1  -5.420716060609598E1   5.096044101005926E1  -5.127136513398857E1   7.017891765160915E1   1.383251787034718E-1   1.414587217810707E2  
 3.667000000000000E9    -2.708237608916199E1   3.955848336424564E1  -5.422206310946226E1   4.703812524684325E1  -5.125103160895645E1   6.721176324329737E1   1.660054266816641E-1   1.410283526798329E2  
 3.668000000000000E9    -2.716357434094002E1   3.857514412143082E1  -5.425857523549661E1   4.351152904480271E1  -5.148875016627165E1   6.513906831770545E1   1.944002643962101E-1   1.406105927379431E2  
 3.669000000000000E9    -2.724675059286924E1   3.758484720804358E1  -5.416388778371199E1   4.066800395168382E1  -5.137801844577817E1   6.066950820565258E1   2.209337345902540E-1   1.401747161886382E2  
 3.670000000000000E9    -2.733122218566682E1   3.661163152473576E1  -5.417354542233075E1   3.707209469732239E1  -5.137682579243815E1   5.946982191391838E1   2.485999600554571E-1   1.397299813189617E2  
 3.671000000000000E9    -2.741292681308062E1   3.568094573855947E1  -5.424491975409479E1   3.442793856013144E1  -5.145180411282613E1   5.583684110773438E1   2.763768261236412E-1   1.392757666189155E2  
 3.672000000000000E9    -2.750512230976564E1   3.466076998146508E1  -5.432477294978085E1   3.136947943580963E1  -5.144582043553638E1   5.263860522161154E1   3.048692096484738E-1   1.388152184844420E2  
 3.673000000000000E9    -2.758575728692181E1   3.370763483762566E1  -5.432620134779401E1   2.827298136744882E1  -5.154856619804685E1   5.081434702626558E1   3.322488435800813E-1   1.383477088154845E2  
 3.674000000000000E9    -2.767451031876495E1   3.266794225860509E1  -5.438650092028749E1   2.471291160745290E1  -5.152315238619656E1   4.897255477285300E1   3.606055431693890E-1   1.378616768595588E2  
 3.675000000000000E9    -2.777462408426322E1   3.170970187108422E1  -5.450213172485904E1   2.195657972015212E1  -5.152451882569623E1   4.561817727971877E1   3.888503391578184E-1   1.373866367405734E2  
 3.676000000000000E9    -2.786435061214255E1   3.066756900621932E1  -5.464584482285635E1   1.887009446991583E1  -5.158032181420066E1   4.334232431353421E1   4.172858799986536E-1   1.368868081202521E2  
 3.677000000000000E9    -2.796506344381701E1   2.965264945611515E1  -5.470251710589874E1   1.609418066427465E1  -5.158085928197944E1   3.918956707842783E1   4.460535337997140E-1   1.363900763529570E2  
 3.678000000000000E9    -2.806301059158418E1   2.851192256262603E1  -5.486795498794269E1   1.281469515238416E1  -5.138760360412336E1   3.739290832151606E1   4.769702030785621E-1   1.358910085171080E2  
 3.679000000000000E9    -2.816840361152551E1   2.744319167949257E1  -5.492751835404580E1   1.042174118281377E1  -5.152810936863693E1   3.464417123806106E1   5.057176100323655E-1   1.353782724041259E2  
 3.680000000000000E9    -2.827593094144613E1   2.626235138493574E1  -5.498842699871794E1   7.280225475423342  -5.162345909042442E1   3.144979631223338E1   5.365013518241886E-1   1.348650187736766E2  
 3.681000000000000E9    -2.840457555976268E1   2.512668441997099E1  -5.516683898058084E1   5.478312891450194  -5.161915226051771E1   2.968144633490237E1   5.669151407975908E-1   1.343392275282138E2  
 3.682000000000000E9    -2.851278267626595E1   2.393436864489177E1  -5.521396992924678E1   1.660975717720186  -5.147287526380392E1   2.639294965607342E1   6.000834959626747E-1   1.338055545849416E2  
 3.683000000000000E9    -2.864347721453590E1   2.272232476085780E1  -5.541166505683079E1  -1.848086209957673E-1  -5.151730685484269E1   2.461085201589113E1   6.327966470470297E-1   1.332733788455521E2  
 3.684000000000000E9    -2.879096168607357E1   2.145142681028722E1  -5.545494182367285E1  -1.931650235049064  -5.139238426160348E1   2.226398112286244E1   6.660385701101350E-1   1.327492938332880E2  
 3.685000000000000E9    -2.893254707381657E1   2.018616923075346E1  -5.550077799101136E1  -4.654282278532692  -5.138190482210413E1   1.979857186483586E1   6.978361002421835E-1   1.322190550080081E2  
 3.686000000000000E9    -2.907722397228125E1   1.885301166833371E1  -5.545524699661271E1  -7.025031385082428  -5.139042480660759E1   1.679060202619675E1   7.318863413038327E-1   1.316952519773911E2  
 3.687000000000000E9    -2.924349227230033E1   1.749711505067036E1  -5.565186006587877E1  -9.656098904933471  -5.128522174063449E1   1.337007083627835E1   7.651622350563766E-1   1.311636531943169E2  
 3.688000000000000E9    -2.940733332043933E1   1.611657281924849E1  -5.580584269051921E1  -1.050356025175378E1  -5.117651274037135E1   1.228548585786877E1   8.005829948577169E-1   1.306359644320486E2  
 3.689000000000000E9    -2.958451611306220E1   1.472023702794666E1  -5.566510620313122E1  -1.296650073719916E1  -5.113581374882046E1   9.616598235627865   8.338563699611261E-1   1.301153279135836E2  
 3.690000000000000E9    -2.978197740029265E1   1.328999537047419E1  -5.575579363071718E1  -1.505618046202256E1  -5.110393128061943E1   5.829893810661127   8.662597539793774E-1   1.296070211333596E2  
 3.691000000000000E9    -2.998330232634480E1   1.183781347266979E1  -5.556638663285290E1  -1.742067863413302E1  -5.102266198985642E1   3.854094828223806   8.986484167670165E-1   1.290984676805419E2  
 3.692000000000000E9    -3.018432257350322E1   1.039356807304245E1  -5.563064404300210E1  -2.027327836052604E1  -5.100112901723578E1   8.287812115066171E-1   9.354808325564368E-1   1.285921112345738E2  
 3.693000000000000E9    -3.041249073784163E1   8.837530097554984  -5.567567447046064E1  -2.057298038544912E1  -5.087513235770592E1  -2.873170542063483   9.669621528181446E-1   1.280883475097161E2  
 3.694000000000000E9    -3.063352969818174E1   7.385811563586243  -5.559963674622633E1  -2.354701901745968E1  -5.076269780158379E1  -4.679108413293555   1.000977832203150   1.275976578883675E2  
 3.695000000000000E9    -3.088669922887658E1   5.847404389642831  -5.563521231650572E1  -2.633612620557346E1  -5.070858755292391E1  -7.896570008461486   1.030291703941867   1.271116487506197E2  
 3.696000000000000E9    -3.113655346125755E1   4.297305100201939  -5.547272989338648E1  -2.887712486043283E1  -5.066096708471528E1  -9.617334585957869   1.061849362410065   1.266263299565461E2  
 3.697000000000000E9    -3.139750334517681E1   2.883960508560380  -5.536680844487902E1  -3.095049119027824E1  -5.046303830996535E1  -1.327581250655988E1   1.094306628153788   1.261585634484847E2  
